!Keysight Technologies,N5235B,MY61252044,A.15.00.15
!Date: Friday, January 20, 2023 19:23:34
!Correction: S11(Off) 
!S21(Off) 
!S12(Off) 
!S22(Off) 
!S2P File: Measurements: S11, S21, S12, S22:
# Hz S  RI   R 50
6600000000 0.016892686 -0.17451824 0.014409566 -0.0064061549 7.071068e-011 7.071068e-011 7.071068e-011 7.071068e-011
6608400000 -0.12349753 0.16703077 0.0075528459 0.0094158659 7.071068e-011 7.071068e-011 7.071068e-011 7.071068e-011
6616800000 0.30735645 0.091193892 -0.0079015251 0.0055190693 7.071068e-011 7.071068e-011 7.071068e-011 7.071068e-011
6625200000 0.022845881 -0.27301532 -0.003709411 -0.0087085711 7.071068e-011 7.071068e-011 7.071068e-011 7.071068e-011
6633600000 -0.16532651 0.16205698 0.0090242056 -0.0023263025 7.071068e-011 7.071068e-011 7.071068e-011 7.071068e-011
6642000000 0.2905826 0.11339033 8.1085702e-005 0.0094501683 7.071068e-011 7.071068e-011 7.071068e-011 7.071068e-011
6650400000 0.039102331 -0.25256252 -0.011280242 -0.001892955 7.071068e-011 7.071068e-011 7.071068e-011 7.071068e-011
6658800000 -0.14880548 0.13346888 0.0036157353 -0.01239919 7.071068e-011 7.071068e-011 7.071068e-011 7.071068e-011
6667200000 0.2282194 0.10374642 0.013635811 0.0066565783 7.071068e-011 7.071068e-011 7.071068e-011 7.071068e-011
6675600000 0.04396157 -0.15344179 -0.0088239759 0.015639555 7.071068e-011 7.071068e-011 7.071068e-011 7.071068e-011
6684000000 -0.044850923 0.084906697 -0.016793955 -0.010515913 7.071068e-011 7.071068e-011 7.071068e-011 7.071068e-011
6692400000 0.10520805 0.048295047 0.011861217 -0.017278671 7.071068e-011 7.071068e-011 7.071068e-011 7.071068e-011
6700800000 0.085991308 0.017146539 0.017108416 0.012616627 7.071068e-011 7.071068e-011 7.071068e-011 7.071068e-011
6709200000 0.078238994 -0.040178351 -0.013182132 0.015542523 7.071068e-011 7.071068e-011 7.071068e-011 7.071068e-011
6717600000 -0.031920154 0.032398265 -0.012742648 -0.014554134 7.071068e-011 7.071068e-011 7.071068e-011 7.071068e-011
6726000000 0.15369548 0.11734118 0.015373472 -0.0096626617 7.071068e-011 7.071068e-011 7.071068e-011 7.071068e-011
6734400000 0.13106759 -0.13828842 0.0060395817 0.015446788 7.071068e-011 7.071068e-011 7.071068e-011 7.071068e-011
6742800000 -0.10768796 0.021858651 -0.015765619 0.0021711185 7.071068e-011 7.071068e-011 7.071068e-011 7.071068e-011
6751200000 0.16730821 0.15575278 0.001284029 -0.015753448 7.071068e-011 7.071068e-011 7.071068e-011 7.071068e-011
6759600000 0.15590957 -0.16898999 0.014074987 0.0050683063 7.071068e-011 7.071068e-011 7.071068e-011 7.071068e-011
6768000000 -0.14721176 -0.011693578 -0.0092380466 0.011822569 7.071068e-011 7.071068e-011 7.071068e-011 7.071068e-011
6776400000 0.12920293 0.18196994 -0.0097742267 -0.012208453 7.071068e-011 7.071068e-011 7.071068e-011 7.071068e-011
6784800000 0.15625115 -0.14261037 0.013819837 -0.0059549431 7.071068e-011 7.071068e-011 7.071068e-011 7.071068e-011
6793200000 -0.1466157 -0.013963238 0.0017039094 0.015357249 7.071068e-011 7.071068e-011 7.071068e-011 7.071068e-011
6801600000 0.095392138 0.20532277 -0.016090877 -0.0022767484 7.071068e-011 7.071068e-011 7.071068e-011 7.071068e-011
6810000000 0.17657247 -0.090196647 0.0068383599 -0.015343952 7.071068e-011 7.071068e-011 7.071068e-011 7.071068e-011
6818400000 -0.10253878 -0.017997492 0.013514601 0.011662136 7.071068e-011 7.071068e-011 7.071068e-011 7.071068e-011
6826800000 0.080085531 0.188307 -0.014763196 0.010886665 7.071068e-011 7.071068e-011 7.071068e-011 7.071068e-011
6835200000 0.18609123 -0.044936914 -0.0064019668 -0.017257206 7.071068e-011 7.071068e-011 7.071068e-011 7.071068e-011
6843600000 -0.043056436 -0.032758512 0.020042669 -0.0018780056 7.071068e-011 7.071068e-011 7.071068e-011 7.071068e-011
6852000000 0.068941399 0.13004887 -0.002479787 0.020605609 7.071068e-011 7.071068e-011 7.071068e-011 7.071068e-011
6860400000 0.14821683 -0.016906379 -0.019350668 -0.0077207121 7.071068e-011 7.071068e-011 7.071068e-011 7.071068e-011
6868800000 0.006156235 -0.029537035 0.012919769 -0.01728216 7.071068e-011 7.071068e-011 7.071068e-011 7.071068e-011
6877200000 0.050703339 0.071778156 0.014166229 0.016845718 7.071068e-011 7.071068e-011 7.071068e-011 7.071068e-011
6885600000 0.092075959 0.0096017532 -0.019648243 0.0093669528 7.071068e-011 7.071068e-011 7.071068e-011 7.071068e-011
6894000000 0.047565605 -0.0025956347 -0.004022276 -0.021701513 7.071068e-011 7.071068e-011 7.071068e-011 7.071068e-011
6902400000 0.03833257 0.019878505 0.022133626 0.0015953456 7.071068e-011 7.071068e-011 7.071068e-011 7.071068e-011
6910800000 0.031099327 0.035836574 -0.0072901482 0.020747442 7.071068e-011 7.071068e-011 7.071068e-011 7.071068e-011
6919200000 0.076177739 0.051675573 -0.017802229 -0.012387938 7.071068e-011 7.071068e-011 7.071068e-011 7.071068e-011
6927600000 0.054115009 -0.011717648 0.016353188 -0.013848775 7.071068e-011 7.071068e-011 7.071068e-011 7.071068e-011
6936000000 -0.0038713177 0.057639081 0.0084728096 0.018970568 7.071068e-011 7.071068e-011 7.071068e-011 7.071068e-011
6944400000 0.10892231 0.093379609 -0.020652751 0.0023194829 7.071068e-011 7.071068e-011 7.071068e-011 7.071068e-011
6952800000 0.089289643 -0.043712899 0.0034290443 -0.020125182 7.071068e-011 7.071068e-011 7.071068e-011 7.071068e-011
6961200000 -0.028554499 0.048012767 0.017737914 0.009080248 7.071068e-011 7.071068e-011 7.071068e-011 7.071068e-011
6969600000 0.11784402 0.11017473 -0.013882564 0.014143888 7.071068e-011 7.071068e-011 7.071068e-011 7.071068e-011
6978000000 0.10982401 -0.066398919 -0.0090926439 -0.016969804 7.071068e-011 7.071068e-011 7.071068e-011 7.071068e-011
6986400000 -0.06368456 0.023071447 0.01856456 -0.0030047654 7.071068e-011 7.071068e-011 7.071068e-011 7.071068e-011
6994800000 0.094212212 0.13809092 -0.0029519228 0.018988186 7.071068e-011 7.071068e-011 7.071068e-011 7.071068e-011
7003200000 0.11772404 -0.052040827 -0.016863301 -0.0084196962 7.071068e-011 7.071068e-011 7.071068e-011 7.071068e-011
7011600000 -0.072096772 0.021608423 0.013694845 -0.01278429 7.071068e-011 7.071068e-011 7.071068e-011 7.071068e-011
7020000000 0.078851677 0.16484185 0.008136251 0.017062435 7.071068e-011 7.071068e-011 7.071068e-011 7.071068e-011
7028400000 0.13905063 -0.021897173 -0.018400809 0.002183486 7.071068e-011 7.071068e-011 7.071068e-011 7.071068e-011
7036800000 -0.05057257 0.02029152 0.0041799652 -0.018604813 7.071068e-011 7.071068e-011 7.071068e-011 7.071068e-011
7045200000 0.078727201 0.17258848 0.016490437 0.0096463431 7.071068e-011 7.071068e-011 7.071068e-011 7.071068e-011
7053600000 0.17294274 0.0063464567 -0.014547355 0.012076553 7.071068e-011 7.071068e-011 7.071068e-011 7.071068e-011
7062000000 -0.0028071031 -0.013043252 -0.0067996848 -0.018412219 7.071068e-011 7.071068e-011 7.071068e-011 7.071068e-011
7070400000 0.068213508 0.14060232 0.019752644 -0.001132135 7.071068e-011 7.071068e-011 7.071068e-011 7.071068e-011
7078800000 0.17170216 0.015792206 -0.0055849236 0.018668897 7.071068e-011 7.071068e-011 7.071068e-011 7.071068e-011
7087200000 0.03817682 -0.032457188 -0.016434917 -0.011611376 7.071068e-011 7.071068e-011 7.071068e-011 7.071068e-011
7095600000 0.052761573 0.087777905 0.016087044 -0.012219211 7.071068e-011 7.071068e-011 7.071068e-011 7.071068e-011
7104000000 0.14825474 0.016699245 0.0061555202 0.019172492 7.071068e-011 7.071068e-011 7.071068e-011 7.071068e-011
7112400000 0.057296097 -0.045699827 -0.020467956 -0.00060515729 7.071068e-011 7.071068e-011 7.071068e-011 7.071068e-011
7120800000 0.030507827 0.027699288 0.0068628667 -0.01953302 7.071068e-011 7.071068e-011 7.071068e-011 7.071068e-011
7129200000 0.089379899 0.019540945 0.016003985 0.012571774 7.071068e-011 7.071068e-011 7.071068e-011 7.071068e-011
7137600000 0.047330752 -0.03850852 -0.017567741 0.011040744 7.071068e-011 7.071068e-011 7.071068e-011 7.071068e-011
7146000000 -0.00028153168 0.0099704554 -0.0050511663 -0.020292221 7.071068e-011 7.071068e-011 7.071068e-011 7.071068e-011
7154400000 0.028501365 0.041956276 0.020644292 0.0017315814 7.071068e-011 7.071068e-011 7.071068e-011 7.071068e-011
7162800000 0.045682494 0.016777365 -0.0084937979 0.018620027 7.071068e-011 7.071068e-011 7.071068e-011 7.071068e-011
7171200000 0.0040066382 0.018394496 -0.014985496 -0.01422413 7.071068e-011 7.071068e-011 7.071068e-011 7.071068e-011
7179600000 0.014118439 0.069493301 0.018101044 -0.0094515942 7.071068e-011 7.071068e-011 7.071068e-011 7.071068e-011
7188000000 0.066987924 0.06054727 0.002635204 0.02050266 7.071068e-011 7.071068e-011 7.071068e-011 7.071068e-011
7196400000 0.043393575 0.0094570545 -0.020261753 -0.0040795184 7.071068e-011 7.071068e-011 7.071068e-011 7.071068e-011
7204800000 0.010340393 0.063336648 0.01068832 -0.017190907 7.071068e-011 7.071068e-011 7.071068e-011 7.071068e-011
7213200000 0.079120673 0.070973545 0.012674169 0.016080452 7.071068e-011 7.071068e-011 7.071068e-011 7.071068e-011
7221600000 0.07149595 -0.0024274553 -0.019511314 0.006778087 7.071068e-011 7.071068e-011 7.071068e-011 7.071068e-011
7230000000 -0.00030617014 0.028775044 0.00015931908 -0.020501129 7.071068e-011 7.071068e-011 7.071068e-011 7.071068e-011
7238400000 0.064389855 0.078473084 0.019281093 0.007463011 7.071068e-011 7.071068e-011 7.071068e-011 7.071068e-011
7246800000 0.081650153 -0.0090891011 -0.013411605 0.01578337 7.071068e-011 7.071068e-011 7.071068e-011 7.071068e-011
7255200000 -0.013567517 -0.00040475177 -0.0099503435 -0.017857067 7.071068e-011 7.071068e-011 7.071068e-011 7.071068e-011
7263600000 0.027384566 0.084740534 0.020403588 -0.0033936228 7.071068e-011 7.071068e-011 7.071068e-011 7.071068e-011
7272000000 0.078443833 0.0071660005 -0.0035154622 0.020214109 7.071068e-011 7.071068e-011 7.071068e-011 7.071068e-011
7280400000 -0.02376353 -0.0055544842 -0.017687745 -0.010330608 7.071068e-011 7.071068e-011 7.071068e-011 7.071068e-011
7288800000 -0.0084742894 0.10272401 0.016127687 -0.012835643 7.071068e-011 7.071068e-011 7.071068e-011 7.071068e-011
7297200000 0.084346771 0.05996355 0.0065843747 0.019609772 7.071068e-011 7.071068e-011 7.071068e-011 7.071068e-011
7305600000 0.0092944512 0.0043805349 -0.02051086 -0.00074666552 7.071068e-011 7.071068e-011 7.071068e-011 7.071068e-011
7314000000 -0.004554132 0.10619962 0.007731948 -0.019444577 7.071068e-011 7.071068e-011 7.071068e-011 7.071068e-011
7322400000 0.10929435 0.085834868 0.015420223 0.013646293 7.071068e-011 7.071068e-011 7.071068e-011 7.071068e-011
7330800000 0.059962697 -0.012204872 -0.018542953 0.0093139783 7.071068e-011 7.071068e-011 7.071068e-011 7.071068e-011
7339200000 0.0041213534 0.061507288 -0.0025041187 -0.020972522 7.071068e-011 7.071068e-011 7.071068e-011 7.071068e-011
7347600000 0.099476308 0.071506396 0.020365445 0.0047007124 7.071068e-011 7.071068e-011 7.071068e-011 7.071068e-011
7356000000 0.075476564 -0.033068001 -0.011614251 0.017187744 7.071068e-011 7.071068e-011 7.071068e-011 7.071068e-011
7364400000 -0.0095110964 0.012040484 -0.012295824 -0.017104737 7.071068e-011 7.071068e-011 7.071068e-011 7.071068e-011
7372800000 0.054019693 0.054954112 0.02007501 -0.0056781238 7.071068e-011 7.071068e-011 7.071068e-011 7.071068e-011
7381200000 0.053578112 -0.030999247 -0.0021179931 0.020942003 7.071068e-011 7.071068e-011 7.071068e-011 7.071068e-011
7389600000 -0.041425828 0.00037151849 -0.019033559 -0.0091808289 7.071068e-011 7.071068e-011 7.071068e-011 7.071068e-011
7398000000 0.0058441642 0.072412603 0.015247915 -0.014351454 7.071068e-011 7.071068e-011 7.071068e-011 7.071068e-011
7406400000 0.032967802 0.01416941 0.008070535 0.019437101 7.071068e-011 7.071068e-011 7.071068e-011 7.071068e-011
7414800000 -0.038242575 0.028032428 -0.021205215 0.00082637073 7.071068e-011 7.071068e-011 7.071068e-011 7.071068e-011
7423200000 -0.0012591085 0.10294071 0.0065756203 -0.020096803 7.071068e-011 7.071068e-011 7.071068e-011 7.071068e-011
7431600000 0.055039115 0.061165072 0.016405962 0.013455727 7.071068e-011 7.071068e-011 7.071068e-011 7.071068e-011
7440000000 0.013884045 0.038071696 -0.018354893 0.010846065 7.071068e-011 7.071068e-011 7.071068e-011 7.071068e-011
7448400000 0.023514105 0.085728347 -0.0035721762 -0.020790428 7.071068e-011 7.071068e-011 7.071068e-011 7.071068e-011
7456800000 0.077935681 0.055582706 0.020747874 0.0040911743 7.071068e-011 7.071068e-011 7.071068e-011 7.071068e-011
7465200000 0.045716528 0.013433632 -0.011127381 0.018037707 7.071068e-011 7.071068e-011 7.071068e-011 7.071068e-011
7473600000 0.028685236 0.037656032 -0.012888961 -0.016597057 7.071068e-011 7.071068e-011 7.071068e-011 7.071068e-011
7482000000 0.058517303 0.032469396 0.02007707 -0.0058609853 7.071068e-011 7.071068e-011 7.071068e-011 7.071068e-011
7490400000 0.043232128 -0.010155364 -0.0016482795 0.020915629 7.071068e-011 7.071068e-011 7.071068e-011 7.071068e-011
7498800000 -0.00021170605 -0.0021603741 -0.018783305 -0.0089313332 7.071068e-011 7.071068e-011 7.071068e-011 7.071068e-011
7507200000 -8.3592487e-005 0.031391032 0.015049773 -0.014347732 7.071068e-011 7.071068e-011 7.071068e-011 7.071068e-011
7515600000 0.021312017 0.015150959 0.0079840329 0.01909047 7.071068e-011 7.071068e-011 7.071068e-011 7.071068e-011
7524000000 -0.021589493 0.0030380583 -0.020583469 0.00054490211 7.071068e-011 7.071068e-011 7.071068e-011 7.071068e-011
7532400000 -0.033793811 0.060487568 0.0070039527 -0.019309327 7.071068e-011 7.071068e-011 7.071068e-011 7.071068e-011
7540800000 0.022716613 0.072688445 0.015555293 0.013304034 7.071068e-011 7.071068e-011 7.071068e-011 7.071068e-011
7549200000 0.01926033 0.022971276 -0.017693816 0.0093477834 7.071068e-011 7.071068e-011 7.071068e-011 7.071068e-011
7557600000 -0.018034827 0.060415104 -0.0021567002 -0.020015718 7.071068e-011 7.071068e-011 7.071068e-011 7.071068e-011
7566000000 0.047286611 0.08411964 0.019272309 0.0051990943 7.071068e-011 7.071068e-011 7.071068e-011 7.071068e-011
7574400000 0.06159059 0.0074027982 -0.012054253 0.015884949 7.071068e-011 7.071068e-011 7.071068e-011 7.071068e-011
7582800000 -0.0106687 0.015576628 -0.010358457 -0.017037753 7.071068e-011 7.071068e-011 7.071068e-011 7.071068e-011
7591200000 0.037347939 0.064512417 0.019398645 -0.0034895374 7.071068e-011 7.071068e-011 7.071068e-011 7.071068e-011
7599600000 0.05878973 -0.015551409 -0.0040252823 0.018985551 7.071068e-011 7.071068e-011 7.071068e-011 7.071068e-011
7608000000 -0.030818686 -0.019958641 -0.016435996 -0.011153993 7.071068e-011 7.071068e-011 7.071068e-011 7.071068e-011
7616400000 -0.014825249 0.056190435 0.016152434 -0.011444499 7.071068e-011 7.071068e-011 7.071068e-011 7.071068e-011
7624800000 0.031249018 0.0055404925 0.004402047 0.019127434 7.071068e-011 7.071068e-011 7.071068e-011 7.071068e-011
7633200000 -0.0523239 -0.0065461127 -0.019355293 -0.0029151058 7.071068e-011 7.071068e-011 7.071068e-011 7.071068e-011
7641600000 -0.038817573 0.087030895 0.0098713906 -0.016733641 7.071068e-011 7.071068e-011 7.071068e-011 7.071068e-011
7650000000 0.038358264 0.053208098 0.01185555 0.015483021 7.071068e-011 7.071068e-011 7.071068e-011 7.071068e-011
7658400000 -0.021634616 0.011254812 -0.018980229 0.0054452834 7.071068e-011 7.071068e-011 7.071068e-011 7.071068e-011
7666800000 -0.022283882 0.096531726 0.0017270609 -0.019361999 7.071068e-011 7.071068e-011 7.071068e-011 7.071068e-011
7675200000 0.069356866 0.070779219 0.016945645 0.0092382077 7.071068e-011 7.071068e-011 7.071068e-011 7.071068e-011
7683600000 0.031984974 -0.0033374785 -0.015117239 0.012597976 7.071068e-011 7.071068e-011 7.071068e-011 7.071068e-011
7692000000 -0.005130765 0.046357639 -0.0062347068 -0.018555358 7.071068e-011 7.071068e-011 7.071068e-011 7.071068e-011
7700400000 0.065564305 0.044180766 0.019516263 0.001050906 7.071068e-011 7.071068e-011 7.071068e-011 7.071068e-011
7708800000 0.03600391 -0.039863702 -0.0083668986 0.017668335 7.071068e-011 7.071068e-011 7.071068e-011 7.071068e-011
7717200000 -0.034083314 0.00060311035 -0.013313151 -0.014389889 7.071068e-011 7.071068e-011 7.071068e-011 7.071068e-011
7725600000 0.01735092 0.034368411 0.018316042 -0.0067639565 7.071068e-011 7.071068e-011 7.071068e-011 7.071068e-011
7734000000 0.013729229 -0.036511175 -0.00035035424 0.019722469 7.071068e-011 7.071068e-011 7.071068e-011 7.071068e-011
7742400000 -0.070726819 -0.011301585 -0.017924197 -0.0075333859 7.071068e-011 7.071068e-011 7.071068e-011 7.071068e-011
7750800000 -0.040403016 0.061544191 0.01394299 -0.013793506 7.071068e-011 7.071068e-011 7.071068e-011 7.071068e-011
7759200000 0.00122644 0.025968533 0.0076824413 0.018163376 7.071068e-011 7.071068e-011 7.071068e-011 7.071068e-011
7767600000 -0.053052925 0.018933702 -0.019710287 0.00034724522 7.071068e-011 7.071068e-011 7.071068e-011 7.071068e-011
7776000000 -0.038127102 0.091226898 0.0070433803 -0.018235007 7.071068e-011 7.071068e-011 7.071068e-011 7.071068e-011
7784400000 0.031897318 0.068065971 0.014314165 0.013411285 7.071068e-011 7.071068e-011 7.071068e-011 7.071068e-011
7792800000 0.00090487255 0.024404896 -0.017659059 0.0081557464 7.071068e-011 7.071068e-011 7.071068e-011 7.071068e-011
7801200000 -0.0074683717 0.070925981 -0.00074001978 -0.019709557 7.071068e-011 7.071068e-011 7.071068e-011 7.071068e-011
7809600000 0.053257514 0.057701956 0.018573742 0.0064816149 7.071068e-011 7.071068e-011 7.071068e-011 7.071068e-011
7818000000 0.034948461 -0.0035501877 -0.013049713 0.014470207 7.071068e-011 7.071068e-011 7.071068e-011 7.071068e-011
7826400000 -0.0050681494 0.020260567 -0.0085892659 -0.017628279 7.071068e-011 7.071068e-011 7.071068e-011 7.071068e-011
7834800000 0.031966083 0.032037508 0.019569583 -0.0013667784 7.071068e-011 7.071068e-011 7.071068e-011 7.071068e-011
7843200000 0.025880354 -0.019928575 -0.0060938024 0.018688081 7.071068e-011 7.071068e-011 7.071068e-011 7.071068e-011
7851600000 -0.027387204 -0.0046952907 -0.015025842 -0.012750618 7.071068e-011 7.071068e-011 7.071068e-011 7.071068e-011
7860000000 -0.00366504 0.031136101 0.01735414 -0.0091822408 7.071068e-011 7.071068e-011 7.071068e-011 7.071068e-011
7868400000 0.010173345 -0.0041473364 0.0017710301 0.019491693 7.071068e-011 7.071068e-011 7.071068e-011 7.071068e-011
7876800000 -0.036314748 -0.003157079 -0.018938584 -0.0056738425 7.071068e-011 7.071068e-011 7.071068e-011 7.071068e-011
7885200000 -0.03015315 0.042886745 0.012172475 -0.015409846 7.071068e-011 7.071068e-011 7.071068e-011 7.071068e-011
7893600000 0.0083440039 0.036667693 0.0095299976 0.016906966 7.071068e-011 7.071068e-011 7.071068e-011 7.071068e-011
7902000000 -0.0077418201 0.0090135699 -0.019389892 0.0021935289 7.071068e-011 7.071068e-011 7.071068e-011 7.071068e-011
7910400000 -0.021968978 0.039120037 0.0051297531 -0.018936289 7.071068e-011 7.071068e-011 7.071068e-011 7.071068e-011
7918800000 0.017589515 0.049306341 0.015390891 0.01170703 7.071068e-011 7.071068e-011 7.071068e-011 7.071068e-011
7927200000 0.028202234 0.0068247495 -0.016677178 0.0097243944 7.071068e-011 7.071068e-011 7.071068e-011 7.071068e-011
7935600000 -0.0079293801 0.0065145288 -0.0026317467 -0.019001072 7.071068e-011 7.071068e-011 7.071068e-011 7.071068e-011
7944000000 0.011111736 0.032509327 0.018531209 0.0049051228 7.071068e-011 7.071068e-011 7.071068e-011 7.071068e-011
7952400000 0.037212823 -0.005091277 -0.011613045 0.01525201 7.071068e-011 7.071068e-011 7.071068e-011 7.071068e-011
7960800000 -0.014569249 -0.033779304 -0.0097658643 -0.016452655 7.071068e-011 7.071068e-011 7.071068e-011 7.071068e-011
7969200000 -0.029716641 0.021054894 0.018676944 -0.0026486234 7.071068e-011 7.071068e-011 7.071068e-011 7.071068e-011
7977600000 0.020623993 0.006865018 -0.0047915662 0.018269623 7.071068e-011 7.071068e-011 7.071068e-011 7.071068e-011
7986000000 -0.024734853 -0.040048745 -0.015089939 -0.011348065 7.071068e-011 7.071068e-011 7.071068e-011 7.071068e-011
7994400000 -0.0650675 0.025356198 0.016144669 -0.0096130259 7.071068e-011 7.071068e-011 7.071068e-011 7.071068e-011
