!Keysight Technologies,N5235B,MY61252044,A.15.00.15
!Date: Friday, January 20, 2023 19:00:52
!Correction: S11(Off) 
!S21(Off) 
!S12(Off) 
!S22(Off) 
!S2P File: Measurements: S11, S21, S12, S22:
# Hz S  RI   R 50
6600000000 0.016674036 -0.1743944 0.014906794 -0.0052316901 7.071068e-011 7.071068e-011 7.071068e-011 7.071068e-011
6608400000 -0.1233516 0.16688092 0.0067890529 0.010013429 7.071068e-011 7.071068e-011 7.071068e-011 7.071068e-011
6616800000 0.30703083 0.091308847 -0.0083286632 0.0048698969 7.071068e-011 7.071068e-011 7.071068e-011 7.071068e-011
6625200000 0.023265785 -0.27300283 -0.0029939064 -0.0089981705 7.071068e-011 7.071068e-011 7.071068e-011 7.071068e-011
6633600000 -0.16560435 0.16184193 0.0092213117 -0.0015939985 7.071068e-011 7.071068e-011 7.071068e-011 7.071068e-011
6642000000 0.29053158 0.11362946 -0.00067470712 0.0094581591 7.071068e-011 7.071068e-011 7.071068e-011 7.071068e-011
6650400000 0.039341033 -0.25278029 -0.011120375 -0.0028006567 7.071068e-011 7.071068e-011 7.071068e-011 7.071068e-011
6658800000 -0.14900668 0.133718 0.0046080854 -0.012104954 7.071068e-011 7.071068e-011 7.071068e-011 7.071068e-011
6667200000 0.22821113 0.10326646 0.013089486 0.0077351504 7.071068e-011 7.071068e-011 7.071068e-011 7.071068e-011
6675600000 0.04425329 -0.15274635 -0.010034249 0.014912092 7.071068e-011 7.071068e-011 7.071068e-011 7.071068e-011
6684000000 -0.04533672 0.084284171 -0.015875837 -0.011857917 7.071068e-011 7.071068e-011 7.071068e-011 7.071068e-011
6692400000 0.10552216 0.048483085 0.013276174 -0.016280405 7.071068e-011 7.071068e-011 7.071068e-011 7.071068e-011
6700800000 0.086076595 0.017116541 0.016078332 0.0140045 7.071068e-011 7.071068e-011 7.071068e-011 7.071068e-011
6709200000 0.077770911 -0.040013805 -0.014423536 0.014433648 7.071068e-011 7.071068e-011 7.071068e-011 7.071068e-011
6717600000 -0.031312764 0.031932186 -0.011526018 -0.015607803 7.071068e-011 7.071068e-011 7.071068e-011 7.071068e-011
6726000000 0.15304643 0.11783167 0.016184686 -0.0084297415 7.071068e-011 7.071068e-011 7.071068e-011 7.071068e-011
6734400000 0.13157097 -0.13864993 0.0048002163 0.015933597 7.071068e-011 7.071068e-011 7.071068e-011 7.071068e-011
6742800000 -0.10806319 0.022040669 -0.015926087 0.00090329058 7.071068e-011 7.071068e-011 7.071068e-011 7.071068e-011
6751200000 0.16753982 0.15561604 0.0025709921 -0.015624859 7.071068e-011 7.071068e-011 7.071068e-011 7.071068e-011
6759600000 0.15566878 -0.16886912 0.013635859 0.0062084137 7.071068e-011 7.071068e-011 7.071068e-011 7.071068e-011
6768000000 -0.14683709 -0.011746795 -0.010211744 0.011048621 7.071068e-011 7.071068e-011 7.071068e-011 7.071068e-011
6776400000 0.12879872 0.18182431 -0.0087468578 -0.013020986 7.071068e-011 7.071068e-011 7.071068e-011 7.071068e-011
6784800000 0.15651533 -0.14225408 0.014313661 -0.0047925194 7.071068e-011 7.071068e-011 7.071068e-011 7.071068e-011
6793200000 -0.14660224 -0.014355402 0.00041793997 0.015507722 7.071068e-011 7.071068e-011 7.071068e-011 7.071068e-011
6801600000 0.095100172 0.20565784 -0.015919499 -0.0036096517 7.071068e-011 7.071068e-011 7.071068e-011 7.071068e-011
6810000000 0.17702533 -0.090435669 0.0081070261 -0.014785561 7.071068e-011 7.071068e-011 7.071068e-011 7.071068e-011
6818400000 -0.10298287 -0.017661139 0.012564139 0.012777383 7.071068e-011 7.071068e-011 7.071068e-011 7.071068e-011
6826800000 0.080515593 0.18790141 -0.015655279 0.0096826414 7.071068e-011 7.071068e-011 7.071068e-011 7.071068e-011
6835200000 0.18558772 -0.04445431 -0.0049625998 -0.017767234 7.071068e-011 7.071068e-011 7.071068e-011 7.071068e-011
6843600000 -0.042593539 -0.033126496 0.020187644 -0.00018243934 7.071068e-011 7.071068e-011 7.071068e-011 7.071068e-011
6852000000 0.068568341 0.13011149 -0.0042180251 0.020390743 7.071068e-011 7.071068e-011 7.071068e-011 7.071068e-011
6860400000 0.14840358 -0.016592484 -0.018721132 -0.0093560079 7.071068e-011 7.071068e-011 7.071068e-011 7.071068e-011
6868800000 0.0060097873 -0.030161427 0.014381235 -0.01621611 7.071068e-011 7.071068e-011 7.071068e-011 7.071068e-011
6877200000 0.050803434 0.072532855 0.012784249 0.018063886 7.071068e-011 7.071068e-011 7.071068e-011 7.071068e-011
6885600000 0.09193778 0.0087549351 -0.020451864 0.007753022 7.071068e-011 7.071068e-011 7.071068e-011 7.071068e-011
6894000000 0.047683917 -0.0018150618 -0.0022369265 -0.02204131 7.071068e-011 7.071068e-011 7.071068e-011 7.071068e-011
6902400000 0.038345177 0.019266292 0.021988841 0.0034286522 7.071068e-011 7.071068e-011 7.071068e-011 7.071068e-011
6910800000 0.030926475 0.036210675 -0.0090303104 0.020143008 7.071068e-011 7.071068e-011 7.071068e-011 7.071068e-011
6919200000 0.076576658 0.051494855 -0.016766604 -0.013879119 7.071068e-011 7.071068e-011 7.071068e-011 7.071068e-011
6927600000 0.05358791 -0.011704753 0.0175217 -0.012480189 7.071068e-011 7.071068e-011 7.071068e-011 7.071068e-011
6936000000 -0.003116875 0.057758525 0.006866537 0.019704105 7.071068e-011 7.071068e-011 7.071068e-011 7.071068e-011
6944400000 0.10809341 0.093196586 -0.020895777 0.00057906163 7.071068e-011 7.071068e-011 7.071068e-011 7.071068e-011
6952800000 0.090066075 -0.043378625 0.0051105847 -0.019888368 7.071068e-011 7.071068e-011 7.071068e-011 7.071068e-011
6961200000 -0.029092932 0.047653954 0.017008672 0.010565567 7.071068e-011 7.071068e-011 7.071068e-011 7.071068e-011
6969600000 0.11805785 0.11056223 -0.015071828 0.012994176 7.071068e-011 7.071068e-011 7.071068e-011 7.071068e-011
6978000000 0.1098617 -0.066718146 -0.0076813926 -0.017754432 7.071068e-011 7.071068e-011 7.071068e-011 7.071068e-011
6986400000 -0.063924022 0.02336316 0.018829653 -0.0014557835 7.071068e-011 7.071068e-011 7.071068e-011 7.071068e-011
6994800000 0.094552308 0.13781495 -0.0045425352 0.018747007 7.071068e-011 7.071068e-011 7.071068e-011 7.071068e-011
7003200000 0.11715055 -0.051799815 -0.016156716 -0.0098455073 7.071068e-011 7.071068e-011 7.071068e-011 7.071068e-011
7011600000 -0.071398288 0.021404171 0.014808859 -0.011626676 7.071068e-011 7.071068e-011 7.071068e-011 7.071068e-011
7020000000 0.078123905 0.16480768 0.0066948612 0.017784551 7.071068e-011 7.071068e-011 7.071068e-011 7.071068e-011
7028400000 0.13965651 -0.021618262 -0.018630678 0.00063020113 7.071068e-011 7.071068e-011 7.071068e-011 7.071068e-011
7036800000 -0.050955787 0.019813221 0.0057462794 -0.018300995 7.071068e-011 7.071068e-011 7.071068e-011 7.071068e-011
7045200000 0.078923807 0.17308739 0.015712194 0.01104591 7.071068e-011 7.071068e-011 7.071068e-011 7.071068e-011
7053600000 0.17290287 0.005860575 -0.015576038 0.010867412 7.071068e-011 7.071068e-011 7.071068e-011 7.071068e-011
7062000000 -0.0028261838 -0.012585618 -0.0052401787 -0.018986935 7.071068e-011 7.071068e-011 7.071068e-011 7.071068e-011
7070400000 0.068388872 0.14025269 0.019856784 0.00054783747 7.071068e-011 7.071068e-011 7.071068e-011 7.071068e-011
7078800000 0.17133139 0.016014855 -0.0071935006 0.018209696 7.071068e-011 7.071068e-011 7.071068e-011 7.071068e-011
7087200000 0.038710825 -0.032375913 -0.015460419 -0.013049307 7.071068e-011 7.071068e-011 7.071068e-011 7.071068e-011
7095600000 0.052121073 0.087393418 0.017180227 -0.010857528 7.071068e-011 7.071068e-011 7.071068e-011 7.071068e-011
7104000000 0.14884987 0.017373016 0.0045306883 0.019762639 7.071068e-011 7.071068e-011 7.071068e-011 7.071068e-011
7112400000 0.056688253 -0.046468861 -0.020490009 -0.0023412372 7.071068e-011 7.071068e-011 7.071068e-011 7.071068e-011
7120800000 0.030962951 0.028437017 0.0085197901 -0.019023223 7.071068e-011 7.071068e-011 7.071068e-011 7.071068e-011
7129200000 0.089050651 0.01885519 0.014973898 0.013919061 7.071068e-011 7.071068e-011 7.071068e-011 7.071068e-011
7137600000 0.04744133 -0.03797267 -0.018514358 0.0095451651 7.071068e-011 7.071068e-011 7.071068e-011 7.071068e-011
7146000000 -0.00013858432 0.0096701961 -0.0033139554 -0.020741409 7.071068e-011 7.071068e-011 7.071068e-011 7.071068e-011
7154400000 0.028128514 0.041939747 0.020525182 0.0035164545 7.071068e-011 7.071068e-011 7.071068e-011 7.071068e-011
7162800000 0.046288982 0.017088631 -0.010107255 0.01791863 7.071068e-011 7.071068e-011 7.071068e-011 7.071068e-011
7171200000 0.0033279834 0.017869966 -0.013777122 -0.015549958 7.071068e-011 7.071068e-011 7.071068e-011 7.071068e-011
7179600000 0.014827085 0.070191242 0.018973988 -0.007896482 7.071068e-011 7.071068e-011 7.071068e-011 7.071068e-011
7188000000 0.066369884 0.059810705 0.00088340335 0.020812575 7.071068e-011 7.071068e-011 7.071068e-011 7.071068e-011
7196400000 0.043812238 0.010289416 -0.019995669 -0.0058090198 7.071068e-011 7.071068e-011 7.071068e-011 7.071068e-011
7204800000 0.010093347 0.062596574 0.012151498 -0.016333371 7.071068e-011 7.071068e-011 7.071068e-011 7.071068e-011
7213200000 0.07907363 0.071535319 0.011328451 0.01717601 7.071068e-011 7.071068e-011 7.071068e-011 7.071068e-011
7221600000 0.071771078 -0.0026985642 -0.02012421 0.0050958879 7.071068e-011 7.071068e-011 7.071068e-011 7.071068e-011
7230000000 -0.00081418513 0.028773036 0.0019215564 -0.020506848 7.071068e-011 7.071068e-011 7.071068e-011 7.071068e-011
7238400000 0.064980686 0.078643978 0.018660698 0.0091411872 7.071068e-011 7.071068e-011 7.071068e-011 7.071068e-011
7246800000 0.081023827 -0.0094826752 -0.014823378 0.0146564 7.071068e-011 7.071068e-011 7.071068e-011 7.071068e-011
7255200000 -0.012960764 0.00015055391 -0.0084343385 -0.018784095 7.071068e-011 7.071068e-011 7.071068e-011 7.071068e-011
7263600000 0.026959658 0.084018029 0.020785026 -0.0016447011 7.071068e-011 7.071068e-011 7.071068e-011 7.071068e-011
7272000000 0.078642301 0.007972924 -0.005252284 0.019967217 7.071068e-011 7.071068e-011 7.071068e-011 7.071068e-011
7280400000 -0.023633776 -0.0062760366 -0.016854499 -0.011868786 7.071068e-011 7.071068e-011 7.071068e-011 7.071068e-011
7288800000 -0.0088556288 0.10327227 0.017248562 -0.011487683 7.071068e-011 7.071068e-011 7.071068e-011 7.071068e-011
7297200000 0.084926002 0.059702367 0.0049051931 0.020198667 7.071068e-011 7.071068e-011 7.071068e-011 7.071068e-011
7305600000 0.0085618915 0.004527994 -0.020460499 -0.002521578 7.071068e-011 7.071068e-011 7.071068e-011 7.071068e-011
7314000000 -0.0038703354 0.10625668 0.0094358819 -0.018800866 7.071068e-011 7.071068e-011 7.071068e-011 7.071068e-011
7322400000 0.1086601 0.085544236 0.014262431 0.015030384 7.071068e-011 7.071068e-011 7.071068e-011 7.071068e-011
7330800000 0.060347084 -0.011673156 -0.019409943 0.0077237957 7.071068e-011 7.071068e-011 7.071068e-011 7.071068e-011
7339200000 0.0040124329 0.060792558 -0.00067884073 -0.021266207 7.071068e-011 7.071068e-011 7.071068e-011 7.071068e-011
7347600000 0.099240951 0.072197169 0.020028077 0.0064774798 7.071068e-011 7.071068e-011 7.071068e-011 7.071068e-011
7356000000 0.076003917 -0.033708714 -0.013109709 0.016241278 7.071068e-011 7.071068e-011 7.071068e-011 7.071068e-011
7364400000 -0.010162644 0.012522159 -0.010848503 -0.018178215 7.071068e-011 7.071068e-011 7.071068e-011 7.071068e-011
7372800000 0.054753233 0.054667044 0.020578459 -0.0039566658 7.071068e-011 7.071068e-011 7.071068e-011 7.071068e-011
7381200000 0.052885875 -0.030907653 -0.0039607533 0.020763073 7.071068e-011 7.071068e-011 7.071068e-011 7.071068e-011
7389600000 -0.040817313 0.00057267706 -0.018255521 -0.010885311 7.071068e-011 7.071068e-011 7.071068e-011 7.071068e-011
7398000000 0.005467623 0.071988627 0.016548187 -0.01302982 7.071068e-011 7.071068e-011 7.071068e-011 7.071068e-011
7406400000 0.033074964 0.0148983 0.0063838912 0.020208405 7.071068e-011 7.071068e-011 7.071068e-011 7.071068e-011
7414800000 -0.038111985 0.027215997 -0.021349095 -0.0010173416 7.071068e-011 7.071068e-011 7.071068e-011 7.071068e-011
7423200000 -0.0016787188 0.10368659 0.0083471546 -0.01958183 7.071068e-011 7.071068e-011 7.071068e-011 7.071068e-011
7431600000 0.055599429 0.060532935 0.0152721 0.014914122 7.071068e-011 7.071068e-011 7.071068e-011 7.071068e-011
7440000000 0.013232757 0.038463991 -0.019334711 0.0092646331 7.071068e-011 7.071068e-011 7.071068e-011 7.071068e-011
7448400000 0.02416954 0.085589036 -0.0017627084 -0.021126628 7.071068e-011 7.071068e-011 7.071068e-011 7.071068e-011
7456800000 0.077399075 0.055411384 0.020414807 0.0059189005 7.071068e-011 7.071068e-011 7.071068e-011 7.071068e-011
7465200000 0.046151437 0.013919969 -0.012755862 0.017080346 7.071068e-011 7.071068e-011 7.071068e-011 7.071068e-011
7473600000 0.028502371 0.036955714 -0.011420676 -0.017791022 7.071068e-011 7.071068e-011 7.071068e-011 7.071068e-011
7482000000 0.058431663 0.033295751 0.02065507 -0.0040948475 7.071068e-011 7.071068e-011 7.071068e-011 7.071068e-011
7490400000 0.043597911 -0.010908614 -0.0035039128 0.020822952 7.071068e-011 7.071068e-011 7.071068e-011 7.071068e-011
7498800000 -0.00078416843 -0.00144905 -0.018049454 -0.010623882 7.071068e-011 7.071068e-011 7.071068e-011 7.071068e-011
7507200000 0.0005611151 0.030882588 0.016361371 -0.013050522 7.071068e-011 7.071068e-011 7.071068e-011 7.071068e-011
7515600000 0.020607529 0.01540633 0.0063335244 0.019837644 7.071068e-011 7.071068e-011 7.071068e-011 7.071068e-011
7524000000 -0.021018479 0.0031060285 -0.020656241 -0.0012580283 7.071068e-011 7.071068e-011 7.071068e-011 7.071068e-011
7532400000 -0.034203842 0.060085692 0.0087095164 -0.018718919 7.071068e-011 7.071068e-011 7.071068e-011 7.071068e-011
7540800000 0.022830801 0.073261239 0.014386564 0.014727208 7.071068e-011 7.071068e-011 7.071068e-011 7.071068e-011
7549200000 0.019443341 0.022275494 -0.018563785 0.0077790087 7.071068e-011 7.071068e-011 7.071068e-011 7.071068e-011
7557600000 -0.018429304 0.061106034 -0.00038149054 -0.020253306 7.071068e-011 7.071068e-011 7.071068e-011 7.071068e-011
7566000000 0.047911685 0.083521761 0.01883897 0.0069332435 7.071068e-011 7.071068e-011 7.071068e-011 7.071068e-011
7574400000 0.060881402 0.0078682546 -0.013519959 0.014857965 7.071068e-011 7.071068e-011 7.071068e-011 7.071068e-011
7582800000 -0.0099090682 0.015384022 -0.0088660643 -0.018022249 7.071068e-011 7.071068e-011 7.071068e-011 7.071068e-011
7591200000 0.03667878 0.064405017 0.019759679 -0.0017803459 7.071068e-011 7.071068e-011 7.071068e-011 7.071068e-011
7599600000 0.059251156 -0.01511805 -0.0057116817 0.018673325 7.071068e-011 7.071068e-011 7.071068e-011 7.071068e-011
7608000000 -0.031069407 -0.020552782 -0.015469089 -0.012634748 7.071068e-011 7.071068e-011 7.071068e-011 7.071068e-011
7616400000 -0.014874209 0.05680589 0.017199615 -0.010011315 7.071068e-011 7.071068e-011 7.071068e-011 7.071068e-011
7624800000 0.031480879 0.0049728104 0.0026855941 0.019558776 7.071068e-011 7.071068e-011 7.071068e-011 7.071068e-011
7633200000 -0.052741218 -0.0061395285 -0.019129274 -0.0046657086 7.071068e-011 7.071068e-011 7.071068e-011 7.071068e-011
7641600000 -0.038250681 0.086821578 0.011399063 -0.015870679 7.071068e-011 7.071068e-011 7.071068e-011 7.071068e-011
7650000000 0.037714157 0.053104967 0.010465747 0.016596185 7.071068e-011 7.071068e-011 7.071068e-011 7.071068e-011
7658400000 -0.020938011 0.01168509 -0.019535288 0.0037465391 7.071068e-011 7.071068e-011 7.071068e-011 7.071068e-011
7666800000 -0.022840232 0.095891275 0.0034814309 -0.019263176 7.071068e-011 7.071068e-011 7.071068e-011 7.071068e-011
7675200000 0.069684528 0.071651578 0.016144028 0.010767371 7.071068e-011 7.071068e-011 7.071068e-011 7.071068e-011
7683600000 0.031867098 -0.0041330219 -0.016264722 0.011264296 7.071068e-011 7.071068e-011 7.071068e-011 7.071068e-011
7692000000 -0.0052403002 0.047051791 -0.0045541665 -0.019146152 7.071068e-011 7.071068e-011 7.071068e-011 7.071068e-011
7700400000 0.06580507 0.043758556 0.019449327 0.0028286709 7.071068e-011 7.071068e-011 7.071068e-011 7.071068e-011
7708800000 0.03560333 -0.039734263 -0.010003145 0.016927887 7.071068e-011 7.071068e-011 7.071068e-011 7.071068e-011
7717200000 -0.033646494 0.00076942757 -0.012016425 -0.015633989 7.071068e-011 7.071068e-011 7.071068e-011 7.071068e-011
7725600000 0.016894693 0.033796988 0.019000974 -0.0051007769 7.071068e-011 7.071068e-011 7.071068e-011 7.071068e-011
7734000000 0.014066378 -0.035699118 -0.0021622898 0.019753186 7.071068e-011 7.071068e-011 7.071068e-011 7.071068e-011
7742400000 -0.070805982 -0.012258498 -0.017291684 -0.0091746636 7.071068e-011 7.071068e-011 7.071068e-011 7.071068e-011
7750800000 -0.040503889 0.06248565 0.015222762 -0.012543234 7.071068e-011 7.071068e-011 7.071068e-011 7.071068e-011
7759200000 0.0015216753 0.025182301 0.0060293861 0.018881127 7.071068e-011 7.071068e-011 7.071068e-011 7.071068e-011
7767600000 -0.053426772 0.019546475 -0.019766703 -0.0014884813 7.071068e-011 7.071068e-011 7.071068e-011 7.071068e-011
7776000000 -0.037733484 0.090963714 0.008755534 -0.017617149 7.071068e-011 7.071068e-011 7.071068e-011 7.071068e-011
7784400000 0.031466078 0.068025008 0.013102314 0.014764667 7.071068e-011 7.071068e-011 7.071068e-011 7.071068e-011
7792800000 0.0012266927 0.024775425 -0.018453287 0.0065202499 7.071068e-011 7.071068e-011 7.071068e-011 7.071068e-011
7801200000 -0.0076305051 0.070262171 0.0011051313 -0.019840935 7.071068e-011 7.071068e-011 7.071068e-011 7.071068e-011
7809600000 0.053175323 0.05846031 0.018039079 0.0082182102 7.071068e-011 7.071068e-011 7.071068e-011 7.071068e-011
7818000000 0.035277698 -0.0043515293 -0.014401917 0.013314818 7.071068e-011 7.071068e-011 7.071068e-011 7.071068e-011
7826400000 -0.00555747 0.020912413 -0.0069740308 -0.018458571 7.071068e-011 7.071068e-011 7.071068e-011 7.071068e-011
7834800000 0.032605074 0.031554349 0.019712856 0.00044854954 7.071068e-011 7.071068e-011 7.071068e-011 7.071068e-011
7843200000 0.025245016 -0.019692453 -0.0078540053 0.018161455 7.071068e-011 7.071068e-011 7.071068e-011 7.071068e-011
7851600000 -0.026793115 -0.0045864033 -0.01385829 -0.01418389 7.071068e-011 7.071068e-011 7.071068e-011 7.071068e-011
7860000000 -0.0041070133 0.030787382 0.018268084 -0.007563917 7.071068e-011 7.071068e-011 7.071068e-011 7.071068e-011
7868400000 0.010369586 -0.0035471045 -7.4177136e-005 0.019718396 7.071068e-011 7.071068e-011 7.071068e-011 7.071068e-011
7876800000 -0.036270626 -0.0038046446 -0.018460268 -0.0074810246 7.071068e-011 7.071068e-011 7.071068e-011 7.071068e-011
7885200000 -0.030518703 0.043506458 0.013664787 -0.01433113 7.071068e-011 7.071068e-011 7.071068e-011 7.071068e-011
7893600000 0.0088495966 0.036127433 0.0079882229 0.017857546 7.071068e-011 7.071068e-011 7.071068e-011 7.071068e-011
7902000000 -0.0083441744 0.0093183359 -0.019652184 0.00038147694 7.071068e-011 7.071068e-011 7.071068e-011 7.071068e-011
7910400000 -0.021392193 0.039086256 0.0069330106 -0.01849829 7.071068e-011 7.071068e-011 7.071068e-011 7.071068e-011
7918800000 0.017113531 0.049003117 0.014338474 0.013208704 7.071068e-011 7.071068e-011 7.071068e-011 7.071068e-011
7927200000 0.028557973 0.0073691308 -0.017652174 0.0081735691 7.071068e-011 7.071068e-011 7.071068e-011 7.071068e-011
7935600000 -0.008033134 0.0058432356 -0.00083500682 -0.019322453 7.071068e-011 7.071068e-011 7.071068e-011 7.071068e-011
7944000000 0.010996532 0.033215582 0.018132117 0.0066833254 7.071068e-011 7.071068e-011 7.071068e-011 7.071068e-011
7952400000 0.03752549 -0.0056497832 -0.013120864 0.014206635 7.071068e-011 7.071068e-011 7.071068e-011 7.071068e-011
7960800000 -0.015072939 -0.033343464 -0.0082651395 -0.017461495 7.071068e-011 7.071068e-011 7.071068e-011 7.071068e-011
7969200000 -0.029170098 0.02083632 0.019009095 -0.00088983972 7.071068e-011 7.071068e-011 7.071068e-011 7.071068e-011
7977600000 0.020023592 0.0067882221 -0.0065497411 0.017884979 7.071068e-011 7.071068e-011 7.071068e-011 7.071068e-011
7986000000 -0.024250289 -0.039753336 -0.014068365 -0.012841102 7.071068e-011 7.071068e-011 7.071068e-011 7.071068e-011
7994400000 -0.065356836 0.024848912 0.017138399 -0.0081278579 7.071068e-011 7.071068e-011 7.071068e-011 7.071068e-011
