!Keysight Technologies,N5235B,MY61252044,A.15.00.15
!Date: Friday, January 20, 2023 20:44:21
!Correction: S11(Off) 
!S21(Off) 
!S12(Off) 
!S22(Off) 
!S2P File: Measurements: S11, S21, S12, S22:
# Hz S  RI   R 50
6600000000 0.016978424 -0.17463322 0.014881821 -0.0052486691 7.071068e-011 7.071068e-011 7.071068e-011 7.071068e-011
6601680336.0672 -0.060452241 -0.15832499 0.0033262281 -0.014797878 7.071068e-011 7.071068e-011 7.071068e-011 7.071068e-011
6603360672.1344 -0.12837566 -0.10450792 -0.010303917 -0.010301802 7.071068e-011 7.071068e-011 7.071068e-011 7.071068e-011
6605041008.2016 -0.16816917 -0.020887075 -0.013521018 0.0029860074 7.071068e-011 7.071068e-011 7.071068e-011 7.071068e-011
6606721344.2689 -0.16749638 0.076310925 -0.004634025 0.01211774 7.071068e-011 7.071068e-011 7.071068e-011 7.071068e-011
6608401680.3361 -0.1236114 0.16669846 0.0067993896 0.0099917259 7.071068e-011 7.071068e-011 7.071068e-011 7.071068e-011
6610082016.4033 -0.043885369 0.23138972 0.01134716 0.00037583488 7.071068e-011 7.071068e-011 7.071068e-011 7.071068e-011
6611762352.4705 0.05695438 0.25743961 0.006768825 -0.0084561016 7.071068e-011 7.071068e-011 7.071068e-011 7.071068e-011
6613442688.5377 0.16064057 0.23973861 -0.0026192057 -0.010112504 7.071068e-011 7.071068e-011 7.071068e-011 7.071068e-011
6615123024.6049 0.24899144 0.1811724 -0.0093168495 -0.0038090488 7.071068e-011 7.071068e-011 7.071068e-011 7.071068e-011
6616803360.6721 0.30694249 0.091533422 -0.0083168382 0.0048925439 7.071068e-011 7.071068e-011 7.071068e-011 7.071068e-011
6618483696.7393 0.32468581 -0.014591017 -0.0012706883 0.0091984347 7.071068e-011 7.071068e-011 7.071068e-011 7.071068e-011
6620164032.8066 0.29870853 -0.12007923 0.0061983285 0.0066591124 7.071068e-011 7.071068e-011 7.071068e-011 7.071068e-011
6621844368.8738 0.23226339 -0.20758907 0.0091178315 -0.00060272997 7.071068e-011 7.071068e-011 7.071068e-011 7.071068e-011
6623524704.941 0.13528712 -0.26196539 0.0052660583 -0.0076876329 7.071068e-011 7.071068e-011 7.071068e-011 7.071068e-011
6625205041.0082 0.023415087 -0.27295369 -0.0030185124 -0.0089895707 7.071068e-011 7.071068e-011 7.071068e-011 7.071068e-011
6626885377.0754 -0.084379047 -0.23746969 -0.0090140738 -0.00292944 7.071068e-011 7.071068e-011 7.071068e-011 7.071068e-011
6628565713.1426 -0.16898416 -0.16063751 -0.00768119 0.0053330245 7.071068e-011 7.071068e-011 7.071068e-011 7.071068e-011
6630246049.2098 -0.21480763 -0.055588439 -0.00054171763 0.0092241094 7.071068e-011 7.071068e-011 7.071068e-011 7.071068e-011
6631926385.2771 -0.2134328 0.05877975 0.0068900096 0.0061741746 7.071068e-011 7.071068e-011 7.071068e-011 7.071068e-011
6633606721.3443 -0.16555902 0.16180404 0.0092069004 -0.0016276148 7.071068e-011 7.071068e-011 7.071068e-011 7.071068e-011
6635287057.4115 -0.0806453 0.23548473 0.0043621417 -0.0083350781 7.071068e-011 7.071068e-011 7.071068e-011 7.071068e-011
6636967393.4787 0.025536887 0.26789081 -0.0038990784 -0.0085090231 7.071068e-011 7.071068e-011 7.071068e-011 7.071068e-011
6638647729.5459 0.13427785 0.25484306 -0.0089836735 -0.0022573075 7.071068e-011 7.071068e-011 7.071068e-011 7.071068e-011
6640328065.6131 0.2274791 0.20003089 -0.0074854358 0.0054751807 7.071068e-011 7.071068e-011 7.071068e-011 7.071068e-011
6642008401.6803 0.29048893 0.11352494 -0.00063393498 0.0094650583 7.071068e-011 7.071068e-011 7.071068e-011 7.071068e-011
6643688737.7475 0.31376427 0.0097910482 0.0072155106 0.0067848954 7.071068e-011 7.071068e-011 7.071068e-011 7.071068e-011
6645369073.8148 0.29390636 -0.094308324 0.01029906 -0.0015358374 7.071068e-011 7.071068e-011 7.071068e-011 7.071068e-011
6647049409.882 0.23412734 -0.18175842 0.0052465284 -0.0095030982 7.071068e-011 7.071068e-011 7.071068e-011 7.071068e-011
6648729745.9492 0.14417045 -0.2378072 -0.0045171464 -0.010228378 7.071068e-011 7.071068e-011 7.071068e-011 7.071068e-011
6650410082.0164 0.039146829 -0.25264043 -0.011142965 -0.0027273623 7.071068e-011 7.071068e-011 7.071068e-011 7.071068e-011
6652090418.0836 -0.062664434 -0.22336863 -0.0092465281 0.0073593617 7.071068e-011 7.071068e-011 7.071068e-011 7.071068e-011
6653770754.1508 -0.14304632 -0.15513209 0.00023330495 0.012214796 7.071068e-011 7.071068e-011 7.071068e-011 7.071068e-011
6655451090.218 -0.18759324 -0.060764916 0.010182437 0.007376282 7.071068e-011 7.071068e-011 7.071068e-011 7.071068e-011
6657131426.2853 -0.18903159 0.041899152 0.012239916 -0.0037607769 7.071068e-011 7.071068e-011 7.071068e-011 7.071068e-011
6658811762.3525 -0.14872022 0.13389808 0.004530441 -0.012145416 7.071068e-011 7.071068e-011 7.071068e-011 7.071068e-011
6660492098.4197 -0.075979225 0.19910464 -0.006859344 -0.011244464 7.071068e-011 7.071068e-011 7.071068e-011 7.071068e-011
6662172434.4869 0.014139631 0.22749324 -0.013424534 -0.0016536064 7.071068e-011 7.071068e-011 7.071068e-011 7.071068e-011
6663852770.5541 0.1045556 0.21677929 -0.0099509293 0.0098870164 7.071068e-011 7.071068e-011 7.071068e-011 7.071068e-011
6665533106.6213 0.17972659 0.17185017 0.0018118164 0.014509957 7.071068e-011 7.071068e-011 7.071068e-011 7.071068e-011
6667213442.6885 0.22819273 0.10289844 0.013164137 0.007636454 7.071068e-011 7.071068e-011 7.071068e-011 7.071068e-011
6668893778.7558 0.24378747 0.023157556 0.014557993 -0.0061257421 7.071068e-011 7.071068e-011 7.071068e-011 7.071068e-011
6670574114.823 0.22605953 -0.053306889 0.0039817765 -0.015882367 7.071068e-011 7.071068e-011 7.071068e-011 7.071068e-011
6672254450.8902 0.17997082 -0.11372043 -0.010725173 -0.013136733 7.071068e-011 7.071068e-011 7.071068e-011 7.071068e-011
6673934786.9574 0.11502024 -0.14842919 -0.017492594 0.00085999654 7.071068e-011 7.071068e-011 7.071068e-011 7.071068e-011
6675615123.0246 0.043908384 -0.15253836 -0.0099082263 0.014994929 7.071068e-011 7.071068e-011 7.071068e-011 7.071068e-011
6677295459.0918 -0.019839061 -0.12715204 0.0063302028 0.01721283 7.071068e-011 7.071068e-011 7.071068e-011 7.071068e-011
6678975795.159 -0.064781621 -0.079103664 0.017911226 0.005270333 7.071068e-011 7.071068e-011 7.071068e-011 7.071068e-011
6680656131.2262 -0.0837918 -0.019419374 0.015221421 -0.01142451 7.071068e-011 7.071068e-011 7.071068e-011 7.071068e-011
6682336467.2935 -0.075528011 0.039011553 -9.1932889e-005 -0.019427368 7.071068e-011 7.071068e-011 7.071068e-011 7.071068e-011
6684016803.3607 -0.044921588 0.084408365 -0.015997723 -0.01170204 7.071068e-011 7.071068e-011 7.071068e-011 7.071068e-011
6685697139.4279 -0.0017103899 0.10929243 -0.019205188 0.0060487567 7.071068e-011 7.071068e-011 7.071068e-011 7.071068e-011
6687377475.4951 0.042643834 0.11215006 -0.0065976689 0.019287691 7.071068e-011 7.071068e-011 7.071068e-011 7.071068e-011
6689057811.5623 0.078125216 0.097236209 0.011692198 0.016943658 7.071068e-011 7.071068e-011 7.071068e-011 7.071068e-011
6690738147.6295 0.098998249 0.072911143 0.0207808 0.00072238926 7.071068e-011 7.071068e-011 7.071068e-011 7.071068e-011
6692418483.6967 0.10531699 0.048257496 0.013107057 -0.016429735 7.071068e-011 7.071068e-011 7.071068e-011 7.071068e-011
6694098819.764 0.1014845 0.029504586 -0.0054813498 -0.020519709 7.071068e-011 7.071068e-011 7.071068e-011 7.071068e-011
6695779155.8312 0.093311675 0.019047175 -0.019947363 -0.0078011523 7.071068e-011 7.071068e-011 7.071068e-011 7.071068e-011
6697459491.8984 0.086150028 0.016027026 -0.01814005 0.011524338 7.071068e-011 7.071068e-011 7.071068e-011 7.071068e-011
6699139827.9656 0.08361613 0.016954303 -0.0014405607 0.021398574 7.071068e-011 7.071068e-011 7.071068e-011 7.071068e-011
6700820164.0328 0.086191744 0.017280011 0.016239591 0.013808376 7.071068e-011 7.071068e-011 7.071068e-011 7.071068e-011
6702500500.1 0.091689214 0.013687031 0.020651132 -0.0047055813 7.071068e-011 7.071068e-011 7.071068e-011 7.071068e-011
6704180836.1672 0.096838042 0.004764644 0.0085710147 -0.01925702 7.071068e-011 7.071068e-011 7.071068e-011 7.071068e-011
6705861172.2344 0.098052971 -0.0091144517 -0.010245624 -0.018292386 7.071068e-011 7.071068e-011 7.071068e-011 7.071068e-011
6707541508.3017 0.092138745 -0.025467375 -0.020580344 -0.0026712762 7.071068e-011 7.071068e-011 7.071068e-011 7.071068e-011
6709221844.3689 0.077723362 -0.040269852 -0.014239975 0.014608922 7.071068e-011 7.071068e-011 7.071068e-011 7.071068e-011
6710902180.4361 0.055476297 -0.049224898 0.0029078992 0.019775545 7.071068e-011 7.071068e-011 7.071068e-011 7.071068e-011
6712582516.5033 0.027790371 -0.048290011 0.017101524 0.009679052 7.071068e-011 7.071068e-011 7.071068e-011 7.071068e-011
6714262852.5705 -0.00057075865 -0.034112148 0.018005081 -0.0074352766 7.071068e-011 7.071068e-011 7.071068e-011 7.071068e-011
6715943188.6377 -0.022645388 -0.0060703955 0.0051628239 -0.018745674 7.071068e-011 7.071068e-011 7.071068e-011 7.071068e-011
6717623524.7049 -0.031459343 0.032364588 -0.011737206 -0.015450793 7.071068e-011 7.071068e-011 7.071068e-011 7.071068e-011
6719303860.7722 -0.022375466 0.074410982 -0.019214945 1.3964562e-005 7.071068e-011 7.071068e-011 7.071068e-011 7.071068e-011
6720984196.8394 0.0057209628 0.11145679 -0.011466041 0.014999217 7.071068e-011 7.071068e-011 7.071068e-011 7.071068e-011
6722664532.9066 0.049701694 0.13470951 0.0046864464 0.017935198 7.071068e-011 7.071068e-011 7.071068e-011 7.071068e-011
6724344868.9738 0.10224367 0.13757518 0.016789312 0.0073471037 7.071068e-011 7.071068e-011 7.071068e-011 7.071068e-011
6726025205.041 0.15367523 0.11756197 0.016057791 -0.0086533641 7.071068e-011 7.071068e-011 7.071068e-011 7.071068e-011
6727705541.1082 0.19417875 0.076541826 0.0029158171 -0.017890133 7.071068e-011 7.071068e-011 7.071068e-011 7.071068e-011
6729385877.1754 0.21525706 0.020338707 -0.012231612 -0.012967388 7.071068e-011 7.071068e-011 7.071068e-011 7.071068e-011
6731066213.2426 0.21141683 -0.041632034 -0.017283043 0.0016456267 7.071068e-011 7.071068e-011 7.071068e-011 7.071068e-011
6732746549.3099 0.18193312 -0.098228723 -0.009266302 0.0141456 7.071068e-011 7.071068e-011 7.071068e-011 7.071068e-011
6734426885.3771 0.13089529 -0.13905679 0.0050341561 0.015853873 7.071068e-011 7.071068e-011 7.071068e-011 7.071068e-011
6736107221.4443 0.066252254 -0.15618245 0.015398237 0.0060453829 7.071068e-011 7.071068e-011 7.071068e-011 7.071068e-011
6737787557.5115 -0.001199662 -0.14536569 0.014303753 -0.0082437443 7.071068e-011 7.071068e-011 7.071068e-011 7.071068e-011
6739467893.5787 -0.059399918 -0.1072726 0.002372151 -0.01621408 7.071068e-011 7.071068e-011 7.071068e-011 7.071068e-011
6741148229.6459 -0.097490668 -0.047822375 -0.011048689 -0.0117858 7.071068e-011 7.071068e-011 7.071068e-011 7.071068e-011
6742828565.7131 -0.10801341 0.02295455 -0.015902808 0.0011415017 7.071068e-011 7.071068e-011 7.071068e-011 7.071068e-011
6744508901.7804 -0.088294953 0.09263707 -0.0091522336 0.012975289 7.071068e-011 7.071068e-011 7.071068e-011 7.071068e-011
6746189237.8476 -0.041215036 0.1485723 0.0043508257 0.015369125 7.071068e-011 7.071068e-011 7.071068e-011 7.071068e-011
6747869573.9148 0.025096403 0.18053867 0.014863848 0.0061667813 7.071068e-011 7.071068e-011 7.071068e-011 7.071068e-011
6749549909.982 0.099112742 0.18288262 0.013960236 -0.0079375608 7.071068e-011 7.071068e-011 7.071068e-011 7.071068e-011
6751230246.0492 0.16839071 0.15507272 0.0023058839 -0.015651423 7.071068e-011 7.071068e-011 7.071068e-011 7.071068e-011
6752910582.1164 0.22169331 0.10156381 -0.010555856 -0.01135221 7.071068e-011 7.071068e-011 7.071068e-011 7.071068e-011
6754590918.1836 0.24923834 0.030453188 -0.015239942 0.00099474052 7.071068e-011 7.071068e-011 7.071068e-011 7.071068e-011
6756271254.2508 0.24643949 -0.046511747 -0.0088249519 0.012335039 7.071068e-011 7.071068e-011 7.071068e-011 7.071068e-011
6757951590.3181 0.21334285 -0.11696128 0.0040140632 0.014559802 7.071068e-011 7.071068e-011 7.071068e-011 7.071068e-011
6759631926.3853 0.1546894 -0.16946483 0.013738014 0.0059807198 7.071068e-011 7.071068e-011 7.071068e-011 7.071068e-011
6761312262.4525 0.079361647 -0.19513574 0.013155551 -0.0067802537 7.071068e-011 7.071068e-011 7.071068e-011 7.071068e-011
6762992598.5197 -0.00074819499 -0.18920508 0.0031653964 -0.014306243 7.071068e-011 7.071068e-011 7.071068e-011 7.071068e-011
6764672934.5869 -0.072666623 -0.15203191 -0.0089216214 -0.011622301 7.071068e-011 7.071068e-011 7.071068e-011 7.071068e-011
6766353270.6541 -0.12441424 -0.08910951 -0.014791098 -0.00061006058 7.071068e-011 7.071068e-011 7.071068e-011 7.071068e-011
6768033606.7213 -0.14694433 -0.010460341 -0.010001853 0.011235032 7.071068e-011 7.071068e-011 7.071068e-011 7.071068e-011
6769713942.7886 -0.13596493 0.070667662 0.0025068142 0.01504625 7.071068e-011 7.071068e-011 7.071068e-011 7.071068e-011
6771394278.8558 -0.093210191 0.14017421 0.013434722 0.0075088902 7.071068e-011 7.071068e-011 7.071068e-011 7.071068e-011
6773074614.923 -0.026314665 0.18596278 0.014349754 -0.0058187656 7.071068e-011 7.071068e-011 7.071068e-011 7.071068e-011
6774754950.9902 0.052757502 0.20031099 0.0044509531 -0.014946928 7.071068e-011 7.071068e-011 7.071068e-011 7.071068e-011
6776435287.0574 0.12998545 0.18123533 -0.0089914631 -0.012841365 7.071068e-011 7.071068e-011 7.071068e-011 7.071068e-011
6778115623.1246 0.19204675 0.13281398 -0.015624918 -0.00088079466 7.071068e-011 7.071068e-011 7.071068e-011 7.071068e-011
6779795959.1918 0.22878779 0.063951269 -0.010293413 0.011555664 7.071068e-011 7.071068e-011 7.071068e-011 7.071068e-011
6781476295.2591 0.23449974 -0.013517329 0.0024433553 0.015047854 7.071068e-011 7.071068e-011 7.071068e-011 7.071068e-011
6783156631.3263 0.20852047 -0.086557165 0.013011263 0.007651804 7.071068e-011 7.071068e-011 7.071068e-011 7.071068e-011
6784836967.3935 0.15540782 -0.14300771 0.014222119 -0.0050739553 7.071068e-011 7.071068e-011 7.071068e-011 7.071068e-011
6786517303.4607 0.084114231 -0.17361364 0.0052075908 -0.014314066 7.071068e-011 7.071068e-011 7.071068e-011 7.071068e-011
6788197639.5279 0.0063508945 -0.17350814 -0.007870351 -0.013195543 7.071068e-011 7.071068e-011 7.071068e-011 7.071068e-011
6789877975.5951 -0.065304324 -0.14269899 -0.015261075 -0.0022147528 7.071068e-011 7.071068e-011 7.071068e-011 7.071068e-011
6791558311.6623 -0.11926615 -0.086109519 -0.01139886 0.01040408 7.071068e-011 7.071068e-011 7.071068e-011 7.071068e-011
6793238647.7295 -0.14680777 -0.012889924 0.00073093182 0.015498906 7.071068e-011 7.071068e-011 7.071068e-011 7.071068e-011
6794918983.7968 -0.1436431 0.065175645 0.012581477 0.0094628232 7.071068e-011 7.071068e-011 7.071068e-011 7.071068e-011
6796599319.864 -0.11037962 0.13565767 0.015589526 -0.0038700632 7.071068e-011 7.071068e-011 7.071068e-011 7.071068e-011
6798279655.9312 -0.052413315 0.18726037 0.0067785308 -0.014849572 7.071068e-011 7.071068e-011 7.071068e-011 7.071068e-011
6799959991.9984 0.020640876 0.21163438 -0.0074856984 -0.014584301 7.071068e-011 7.071068e-011 7.071068e-011 7.071068e-011
6801640328.0656 0.096529588 0.20520064 -0.015983898 -0.0032692733 7.071068e-011 7.071068e-011 7.071068e-011 7.071068e-011
6803320664.1328 0.16281742 0.16965668 -0.012626173 0.010249244 7.071068e-011 7.071068e-011 7.071068e-011 7.071068e-011
6805001000.2 0.20888771 0.11130768 -0.00015980682 0.016355623 7.071068e-011 7.071068e-011 7.071068e-011 7.071068e-011
6806681336.2673 0.22735086 0.040144548 0.012723156 0.010636395 7.071068e-011 7.071068e-011 7.071068e-011 7.071068e-011
6808361672.3345 0.21547636 -0.031526204 0.016464639 -0.0032755686 7.071068e-011 7.071068e-011 7.071068e-011 7.071068e-011
6810042008.4017 0.17592299 -0.091408573 0.007776896 -0.014963313 7.071068e-011 7.071068e-011 7.071068e-011 7.071068e-011
6811722344.4689 0.1160312 -0.12953146 -0.0067004003 -0.015454726 7.071068e-011 7.071068e-011 7.071068e-011 7.071068e-011
6813402680.5361 0.046459455 -0.13970312 -0.016209932 -0.0047093299 7.071068e-011 7.071068e-011 7.071068e-011 7.071068e-011
6815083016.6033 -0.020436829 -0.12070692 -0.014179551 0.0095588574 7.071068e-011 7.071068e-011 7.071068e-011 7.071068e-011
6816763352.6705 -0.073103681 -0.076746017 -0.0016542613 0.01741728 7.071068e-011 7.071068e-011 7.071068e-011 7.071068e-011
6818443688.7377 -0.10327822 -0.016260311 0.0128702 0.012481491 7.071068e-011 7.071068e-011 7.071068e-011 7.071068e-011
6820124024.805 -0.10701233 0.050368283 0.018055819 -0.0024475174 7.071068e-011 7.071068e-011 7.071068e-011 7.071068e-011
6821804360.8722 -0.084491402 0.11240914 0.0092804004 -0.015787324 7.071068e-011 7.071068e-011 7.071068e-011 7.071068e-011
6823484696.9394 -0.039985232 0.16004564 -0.006553804 -0.017082622 7.071068e-011 7.071068e-011 7.071068e-011 7.071068e-011
6825165033.0066 0.018682802 0.18619497 -0.017420307 -0.0056449636 7.071068e-011 7.071068e-011 7.071068e-011 7.071068e-011
6826845369.0738 0.081874967 0.18759771 -0.015415986 0.010049421 7.071068e-011 7.071068e-011 7.071068e-011 7.071068e-011
6828525705.141 0.13981186 0.16487883 -0.0018298754 0.01840364 7.071068e-011 7.071068e-011 7.071068e-011 7.071068e-011
6830206041.2082 0.18371664 0.12221114 0.013212173 0.01294542 7.071068e-011 7.071068e-011 7.071068e-011 7.071068e-011
6831886377.2755 0.20718677 0.066901252 0.018290512 -0.0020894168 7.071068e-011 7.071068e-011 7.071068e-011 7.071068e-011
6833566713.3427 0.20733243 0.0079292636 0.010008595 -0.015382621 7.071068e-011 7.071068e-011 7.071068e-011 7.071068e-011
6835247049.4099 0.18479277 -0.045534458 -0.0054005706 -0.017637035 7.071068e-011 7.071068e-011 7.071068e-011 7.071068e-011
6836927385.4771 0.14346996 -0.085090861 -0.017281845 -0.0072608693 7.071068e-011 7.071068e-011 7.071068e-011 7.071068e-011
6838607721.5443 0.090509884 -0.10423117 -0.016953481 0.0089517338 7.071068e-011 7.071068e-011 7.071068e-011 7.071068e-011
6840288057.6115 0.035477024 -0.10000134 -0.0037333306 0.019246824 7.071068e-011 7.071068e-011 7.071068e-011 7.071068e-011
6841968393.6787 -0.011739648 -0.074035183 0.012958083 0.015165419 7.071068e-011 7.071068e-011 7.071068e-011 7.071068e-011
6843648729.7459 -0.043077298 -0.031921469 0.020180166 -0.00072259438 7.071068e-011 7.071068e-011 7.071068e-011 7.071068e-011
6845329065.8132 -0.053672466 0.017958922 0.012133186 -0.01640035 7.071068e-011 7.071068e-011 7.071068e-011 7.071068e-011
6847009401.8804 -0.042869173 0.066082023 -0.005339541 -0.019894715 7.071068e-011 7.071068e-011 7.071068e-011 7.071068e-011
6848689737.9476 -0.014224767 0.10400254 -0.019062268 -0.0082292594 7.071068e-011 7.071068e-011 7.071068e-011 7.071068e-011
6850370074.0148 0.025837434 0.12605777 -0.018346572 0.0098913675 7.071068e-011 7.071068e-011 7.071068e-011 7.071068e-011
6852050410.082 0.069678634 0.12990557 -0.0036638512 0.020502111 7.071068e-011 7.071068e-011 7.071068e-011 7.071068e-011
6853730746.1492 0.10974959 0.11646066 0.013668003 0.015638629 7.071068e-011 7.071068e-011 7.071068e-011 7.071068e-011
6855411082.2164 0.13999772 0.089549206 0.020723999 -0.00079329789 7.071068e-011 7.071068e-011 7.071068e-011 7.071068e-011
6857091418.2837 0.15691775 0.054588795 0.012461647 -0.016609902 7.071068e-011 7.071068e-011 7.071068e-011 7.071068e-011
6858771754.3509 0.15933733 0.017179633 -0.0050626663 -0.020213129 7.071068e-011 7.071068e-011 7.071068e-011 7.071068e-011
6860452090.4181 0.14789626 -0.017399712 -0.01897409 -0.0088282935 7.071068e-011 7.071068e-011 7.071068e-011 7.071068e-011
6862132426.4853 0.12479699 -0.044419173 -0.018879561 0.0092222495 7.071068e-011 7.071068e-011 7.071068e-011 7.071068e-011
6863812762.5525 0.093809001 -0.06020157 -0.0047578397 0.02056697 7.071068e-011 7.071068e-011 7.071068e-011 7.071068e-011
6865493098.6197 0.059875797 -0.062588729 0.013048152 0.016780047 7.071068e-011 7.071068e-011 7.071068e-011 7.071068e-011
6867173434.6869 0.028662691 -0.051483665 0.021455061 0.00042108865 7.071068e-011 7.071068e-011 7.071068e-011 7.071068e-011
6868853770.7542 0.0055797286 -0.029384544 0.013914478 -0.016615687 7.071068e-011 7.071068e-011 7.071068e-011 7.071068e-011
