!Keysight Technologies,N5235B,MY61252044,A.15.00.15
!Date: Friday, January 20, 2023 18:23:35
!Correction: S11(Off) 
!S21(Off) 
!S12(Off) 
!S22(Off) 
!S2P File: Measurements: S11, S21, S12, S22:
# Hz S  RI   R 50
6600000000 0.016244676 -0.17418654 0.014441001 -0.0064156498 7.071068e-011 7.071068e-011 7.071068e-011 7.071068e-011
6608400000 -0.12289108 0.16761707 0.0075754398 0.0094195241 7.071068e-011 7.071068e-011 7.071068e-011 7.071068e-011
6616800000 0.30766156 0.090319447 -0.0079003638 0.0055368617 7.071068e-011 7.071068e-011 7.071068e-011 7.071068e-011
6625200000 0.021834861 -0.2729851 -0.0037241469 -0.0087125227 7.071068e-011 7.071068e-011 7.071068e-011 7.071068e-011
6633600000 -0.16482008 0.16291374 0.0090280557 -0.0023387417 7.071068e-011 7.071068e-011 7.071068e-011 7.071068e-011
6642000000 0.29105371 0.11256291 9.4719377e-005 0.0094576813 7.071068e-011 7.071068e-011 7.071068e-011 7.071068e-011
6650400000 0.038175847 -0.25264657 -0.011287414 -0.0018694241 7.071068e-011 7.071068e-011 7.071068e-011 7.071068e-011
6658800000 -0.14847261 0.1342503 0.0035948155 -0.012412111 7.071068e-011 7.071068e-011 7.071068e-011 7.071068e-011
6667200000 0.22869749 0.10316373 0.013641793 0.0066356733 7.071068e-011 7.071068e-011 7.071068e-011 7.071068e-011
6675600000 0.043354668 -0.15360017 -0.008808584 0.015650168 7.071068e-011 7.071068e-011 7.071068e-011 7.071068e-011
6684000000 -0.044792894 0.085341647 -0.016810261 -0.010504829 7.071068e-011 7.071068e-011 7.071068e-011 7.071068e-011
6692400000 0.10552669 0.048176639 0.011845537 -0.017298678 7.071068e-011 7.071068e-011 7.071068e-011 7.071068e-011
6700800000 0.085886493 0.016917801 0.017135683 0.012606181 7.071068e-011 7.071068e-011 7.071068e-011 7.071068e-011
6709200000 0.077980317 -0.040138353 -0.013171242 0.015564279 7.071068e-011 7.071068e-011 7.071068e-011 7.071068e-011
6717600000 -0.031773418 0.032753453 -0.012777059 -0.014550776 7.071068e-011 7.071068e-011 7.071068e-011 7.071068e-011
6726000000 0.1540308 0.11699453 0.015372521 -0.0097026993 7.071068e-011 7.071068e-011 7.071068e-011 7.071068e-011
6734400000 0.13052849 -0.13851437 0.0060703116 0.015450701 7.071068e-011 7.071068e-011 7.071068e-011 7.071068e-011
6742800000 -0.1076512 0.022503331 -0.015778426 0.0022002759 7.071068e-011 7.071068e-011 7.071068e-011 7.071068e-011
6751200000 0.16789149 0.15537143 0.0012551335 -0.015763713 7.071068e-011 7.071068e-011 7.071068e-011 7.071068e-011
6759600000 0.15529138 -0.16937295 0.014091268 0.0050464571 7.071068e-011 7.071068e-011 7.071068e-011 7.071068e-011
6768000000 -0.14731109 -0.010976219 -0.0092248991 0.011858562 7.071068e-011 7.071068e-011 7.071068e-011 7.071068e-011
6776400000 0.1298888 0.18170054 -0.0098021273 -0.012201277 7.071068e-011 7.071068e-011 7.071068e-011 7.071068e-011
6784800000 0.15570585 -0.14312018 0.013823035 -0.0059830062 7.071068e-011 7.071068e-011 7.071068e-011 7.071068e-011
6793200000 -0.14681885 -0.013272934 0.0017291498 0.015364959 7.071068e-011 7.071068e-011 7.071068e-011 7.071068e-011
6801600000 0.096067652 0.20519115 -0.016107775 -0.0022545452 7.071068e-011 7.071068e-011 7.071068e-011 7.071068e-011
6810000000 0.1761771 -0.09075623 0.0068226666 -0.015361926 7.071068e-011 7.071068e-011 7.071068e-011 7.071068e-011
6818400000 -0.1028302 -0.017430486 0.013547683 0.011644777 7.071068e-011 7.071068e-011 7.071068e-011 7.071068e-011
6826800000 0.080684178 0.18830006 -0.014754093 0.01091978 7.071068e-011 7.071068e-011 7.071068e-011 7.071068e-011
6835200000 0.18587968 -0.04544485 -0.0064355554 -0.017256442 7.071068e-011 7.071068e-011 7.071068e-011 7.071068e-011
6843600000 -0.043372687 -0.032399137 0.020054514 -0.001914523 7.071068e-011 7.071068e-011 7.071068e-011 7.071068e-011
6852000000 0.069362804 0.13014047 -0.0024434421 0.020622602 7.071068e-011 7.071068e-011 7.071068e-011 7.071068e-011
6860400000 0.14813295 -0.017269846 -0.019379705 -0.0076940223 7.071068e-011 7.071068e-011 7.071068e-011 7.071068e-011
6868800000 0.0059129051 -0.029357158 0.012897822 -0.017314512 7.071068e-011 7.071068e-011 7.071068e-011 7.071068e-011
6877200000 0.05091482 0.071904652 0.014207033 0.016829768 7.071068e-011 7.071068e-011 7.071068e-011 7.071068e-011
6885600000 0.092118748 0.0094253235 -0.019640932 0.0094064632 7.071068e-011 7.071068e-011 7.071068e-011 7.071068e-011
6894000000 0.047444474 -0.0026060678 -0.0040651159 -0.021713244 7.071068e-011 7.071068e-011 7.071068e-011 7.071068e-011
6902400000 0.038325746 0.019961894 0.022148859 0.0015591762 7.071068e-011 7.071068e-011 7.071068e-011 7.071068e-011
6910800000 0.031203097 0.035888627 -0.0072597233 0.020770606 7.071068e-011 7.071068e-011 7.071068e-011 7.071068e-011
6919200000 0.076210111 0.051524419 -0.017838502 -0.01236065 7.071068e-011 7.071068e-011 7.071068e-011 7.071068e-011
6927600000 0.053939644 -0.01171757 0.016336314 -0.01389139 7.071068e-011 7.071068e-011 7.071068e-011 7.071068e-011
6936000000 -0.003784385 0.057847973 0.0085090352 0.018964501 7.071068e-011 7.071068e-011 7.071068e-011 7.071068e-011
6944400000 0.10910892 0.093164593 -0.020662658 0.0023548224 7.071068e-011 7.071068e-011 7.071068e-011 7.071068e-011
6952800000 0.088987805 -0.043830693 0.0033922507 -0.020144949 7.071068e-011 7.071068e-011 7.071068e-011 7.071068e-011
6961200000 -0.028502796 0.048367139 0.017770572 0.0090451287 7.071068e-011 7.071068e-011 7.071068e-011 7.071068e-011
6969600000 0.11816602 0.10994925 -0.01385949 0.014179063 7.071068e-011 7.071068e-011 7.071068e-011 7.071068e-011
6978000000 0.1094654 -0.066626728 -0.0091367066 -0.016962547 7.071068e-011 7.071068e-011 7.071068e-011 7.071068e-011
6986400000 -0.063720942 0.023529598 0.018573293 -0.0030412651 7.071068e-011 7.071068e-011 7.071068e-011 7.071068e-011
6994800000 0.094624959 0.13790371 -0.0029180802 0.019011939 7.071068e-011 7.071068e-011 7.071068e-011 7.071068e-011
7003200000 0.11740074 -0.052357465 -0.016894925 -0.0083889356 7.071068e-011 7.071068e-011 7.071068e-011 7.071068e-011
7011600000 -0.072220191 0.022066133 0.013677844 -0.012822958 7.071068e-011 7.071068e-011 7.071068e-011 7.071068e-011
7020000000 0.079317011 0.16474608 0.0081840316 0.017054917 7.071068e-011 7.071068e-011 7.071068e-011 7.071068e-011
7028400000 0.13878666 -0.02228542 -0.01841219 0.0022242286 7.071068e-011 7.071068e-011 7.071068e-011 7.071068e-011
7036800000 -0.050786819 0.020722147 0.0041400194 -0.018626479 7.071068e-011 7.071068e-011 7.071068e-011 7.071068e-011
7045200000 0.079182565 0.17258352 0.01651831 0.009612591 7.071068e-011 7.071068e-011 7.071068e-011 7.071068e-011
7053600000 0.17278147 0.0059362198 -0.014532931 0.012108656 7.071068e-011 7.071068e-011 7.071068e-011 7.071068e-011
7062000000 -0.003090373 -0.012730689 -0.0068347869 -0.018406287 7.071068e-011 7.071068e-011 7.071068e-011 7.071068e-011
7070400000 0.068594158 0.14072046 0.019762339 -0.0011705962 7.071068e-011 7.071068e-011 7.071068e-011 7.071068e-011
7078800000 0.17167144 0.015433686 -0.0055515473 0.018696429 7.071068e-011 7.071068e-011 7.071068e-011 7.071068e-011
7087200000 0.037900567 -0.032288551 -0.016472129 -0.011588442 7.071068e-011 7.071068e-011 7.071068e-011 7.071068e-011
7095600000 0.053026214 0.087967008 0.016072126 -0.012260782 7.071068e-011 7.071068e-011 7.071068e-011 7.071068e-011
7104000000 0.14832059 0.01642522 0.0062011108 0.01916606 7.071068e-011 7.071068e-011 7.071068e-011 7.071068e-011
7112400000 0.057064675 -0.045653131 -0.020482218 -0.00056083815 7.071068e-011 7.071068e-011 7.071068e-011 7.071068e-011
7120800000 0.030624242 0.02787846 0.0068275388 -0.019565327 7.071068e-011 7.071068e-011 7.071068e-011 7.071068e-011
7129200000 0.08950904 0.019368559 0.016041595 0.012545635 7.071068e-011 7.071068e-011 7.071068e-011 7.071068e-011
7137600000 0.047187008 -0.038569532 -0.017558457 0.011083935 7.071068e-011 7.071068e-011 7.071068e-011 7.071068e-011
7146000000 -0.00030248705 0.010132548 -0.0050902599 -0.020295603 7.071068e-011 7.071068e-011 7.071068e-011 7.071068e-011
7154400000 0.028656699 0.041915115 0.020666849 0.0016948526 7.071068e-011 7.071068e-011 7.071068e-011 7.071068e-011
7162800000 0.045633607 0.016659299 -0.0084666358 0.018653039 7.071068e-011 7.071068e-011 7.071068e-011 7.071068e-011
7171200000 0.0038914236 0.018482277 -0.015027224 -0.014208185 7.071068e-011 7.071068e-011 7.071068e-011 7.071068e-011
7179600000 0.014259145 0.06955643 0.018098554 -0.0094958628 7.071068e-011 7.071068e-011 7.071068e-011 7.071068e-011
7188000000 0.067034334 0.060397156 0.0026803643 0.020516422 7.071068e-011 7.071068e-011 7.071068e-011 7.071068e-011
7196400000 0.043232329 0.0094669992 -0.02028905 -0.0040390943 7.071068e-011 7.071068e-011 7.071068e-011 7.071068e-011
7204800000 0.010407961 0.063489303 0.010658683 -0.017235581 7.071068e-011 7.071068e-011 7.071068e-011 7.071068e-011
7213200000 0.079286292 0.070858531 0.012722683 0.016069982 7.071068e-011 7.071068e-011 7.071068e-011 7.071068e-011
7221600000 0.071297243 -0.0025273911 -0.019513525 0.0068211267 7.071068e-011 7.071068e-011 7.071068e-011 7.071068e-011
7230000000 -0.00030085412 0.028986335 0.00011573429 -0.02051601 7.071068e-011 7.071068e-011 7.071068e-011 7.071068e-011
7238400000 0.064600624 0.078417525 0.019318132 0.0074259038 7.071068e-011 7.071068e-011 7.071068e-011 7.071068e-011
7246800000 0.081519201 -0.0092769237 -0.013389165 0.015828475 7.071068e-011 7.071068e-011 7.071068e-011 7.071068e-011
7255200000 -0.013664889 -0.00017940513 -0.010002439 -0.017851239 7.071068e-011 7.071068e-011 7.071068e-011 7.071068e-011
7263600000 0.027641112 0.084745534 0.020417755 -0.0034404248 7.071068e-011 7.071068e-011 7.071068e-011 7.071068e-011
7272000000 0.078382395 0.0069295936 -0.0034709738 0.020237122 7.071068e-011 7.071068e-011 7.071068e-011 7.071068e-011
7280400000 -0.023974856 -0.0053898678 -0.017725425 -0.010304277 7.071068e-011 7.071068e-011 7.071068e-011 7.071068e-011
7288800000 -0.0082056662 0.10285301 0.016119456 -0.012879122 7.071068e-011 7.071068e-011 7.071068e-011 7.071068e-011
7297200000 0.084373444 0.059687294 0.0066313343 0.019611647 7.071068e-011 7.071068e-011 7.071068e-011 7.071068e-011
7305600000 0.0090488 0.0044699963 -0.020531747 -0.00069076451 7.071068e-011 7.071068e-011 7.071068e-011 7.071068e-011
7314000000 -0.0043877866 0.10641175 0.0076944986 -0.01947503 7.071068e-011 7.071068e-011 7.071068e-011 7.071068e-011
7322400000 0.10944324 0.085599288 0.015454829 0.01363252 7.071068e-011 7.071068e-011 7.071068e-011 7.071068e-011
7330800000 0.059680991 -0.012208984 -0.018542212 0.0093579888 7.071068e-011 7.071068e-011 7.071068e-011 7.071068e-011
7339200000 0.0042064493 0.061757509 -0.002557639 -0.020979837 7.071068e-011 7.071068e-011 7.071068e-011 7.071068e-011
7347600000 0.099694662 0.071352705 0.020390911 0.0046501858 7.071068e-011 7.071068e-011 7.071068e-011 7.071068e-011
7356000000 0.075243205 -0.033180267 -0.011590536 0.017221279 7.071068e-011 7.071068e-011 7.071068e-011 7.071068e-011
7364400000 -0.0095007103 0.012298168 -0.012334365 -0.017097654 7.071068e-011 7.071068e-011 7.071068e-011 7.071068e-011
7372800000 0.054260038 0.054859258 0.020078728 -0.00573604 7.071068e-011 7.071068e-011 7.071068e-011 7.071068e-011
7381200000 0.053429499 -0.031175274 -0.002062825 0.020958737 7.071068e-011 7.071068e-011 7.071068e-011 7.071068e-011
7389600000 -0.041506797 0.00057173299 -0.019068027 -0.0091543952 7.071068e-011 7.071068e-011 7.071068e-011 7.071068e-011
7398000000 0.0060752355 0.072400279 0.015228107 -0.014389835 7.071068e-011 7.071068e-011 7.071068e-011 7.071068e-011
7406400000 0.032889456 0.013985386 0.0081209727 0.019430678 7.071068e-011 7.071068e-011 7.071068e-011 7.071068e-011
7414800000 -0.038383115 0.028176373 -0.021222297 0.00087621529 7.071068e-011 7.071068e-011 7.071068e-011 7.071068e-011
7423200000 -0.0010606551 0.10299184 0.0065382402 -0.0201307 7.071068e-011 7.071068e-011 7.071068e-011 7.071068e-011
7431600000 0.055034306 0.060992405 0.016450036 0.013434559 7.071068e-011 7.071068e-011 7.071068e-011 7.071068e-011
7440000000 0.013734025 0.038153026 -0.018347731 0.010896768 7.071068e-011 7.071068e-011 7.071068e-011 7.071068e-011
7448400000 0.023639474 0.085845612 -0.0036227119 -0.020799955 7.071068e-011 7.071068e-011 7.071068e-011 7.071068e-011
7456800000 0.077984631 0.055478085 0.020767588 0.0040442655 7.071068e-011 7.071068e-011 7.071068e-011 7.071068e-011
7465200000 0.04560871 0.01344013 -0.011094086 0.018075842 7.071068e-011 7.071068e-011 7.071068e-011 7.071068e-011
7473600000 0.028740603 0.037780672 -0.012935851 -0.016580936 7.071068e-011 7.071068e-011 7.071068e-011 7.071068e-011
7482000000 0.058631379 0.032409471 0.020078223 -0.0059140753 7.071068e-011 7.071068e-011 7.071068e-011 7.071068e-011
7490400000 0.043165941 -0.010226344 -0.0016024117 0.020938929 7.071068e-011 7.071068e-011 7.071068e-011 7.071068e-011
7498800000 -0.00023732419 -0.0020543472 -0.018817171 -0.00889624 7.071068e-011 7.071068e-011 7.071068e-011 7.071068e-011
7507200000 3.3023895e-005 0.03140844 0.01502752 -0.014393644 7.071068e-011 7.071068e-011 7.071068e-011 7.071068e-011
7515600000 0.021316256 0.015034281 0.0080300821 0.019092323 7.071068e-011 7.071068e-011 7.071068e-011 7.071068e-011
7524000000 -0.021714242 0.0030953174 -0.02059586 0.00059169246 7.071068e-011 7.071068e-011 7.071068e-011 7.071068e-011
7532400000 -0.033712197 0.060597699 0.0069606225 -0.019336017 7.071068e-011 7.071068e-011 7.071068e-011 7.071068e-011
7540800000 0.022825407 0.07257095 0.015598322 0.013277912 7.071068e-011 7.071068e-011 7.071068e-011 7.071068e-011
7549200000 0.019081669 0.022942873 -0.017687805 0.009395781 7.071068e-011 7.071068e-011 7.071068e-011 7.071068e-011
7557600000 -0.017997043 0.060592767 -0.002207835 -0.020029694 7.071068e-011 7.071068e-011 7.071068e-011 7.071068e-011
7566000000 0.047446426 0.084055066 0.019297281 0.0051561808 7.071068e-011 7.071068e-011 7.071068e-011 7.071068e-011
7574400000 0.061452623 0.0072922232 -0.012029493 0.01592356 7.071068e-011 7.071068e-011 7.071068e-011 7.071068e-011
7582800000 -0.010723707 0.015768262 -0.010403545 -0.017028928 7.071068e-011 7.071068e-011 7.071068e-011 7.071068e-011
7591200000 0.037579667 0.064491048 0.019399162 -0.0035442358 7.071068e-011 7.071068e-011 7.071068e-011 7.071068e-011
7599600000 0.058681685 -0.015725318 -0.0039733755 0.01901098 7.071068e-011 7.071068e-011 7.071068e-011 7.071068e-011
7608000000 -0.030944943 -0.01978468 -0.016480384 -0.011123083 7.071068e-011 7.071068e-011 7.071068e-011 7.071068e-011
7616400000 -0.014593845 0.056256097 0.016141215 -0.011486663 7.071068e-011 7.071068e-011 7.071068e-011 7.071068e-011
7624800000 0.031189503 0.0053155008 0.0044505396 0.019128472 7.071068e-011 7.071068e-011 7.071068e-011 7.071068e-011
7633200000 -0.052495945 -0.0063884263 -0.019373788 -0.0028597252 7.071068e-011 7.071068e-011 7.071068e-011 7.071068e-011
7641600000 -0.038604941 0.087153807 0.0098279668 -0.016769743 7.071068e-011 7.071068e-011 7.071068e-011 7.071068e-011
7650000000 0.038388811 0.052985888 0.011892757 0.015467234 7.071068e-011 7.071068e-011 7.071068e-011 7.071068e-011
7658400000 -0.021854324 0.01133428 -0.018982992 0.0054853279 7.071068e-011 7.071068e-011 7.071068e-011 7.071068e-011
7666800000 -0.022119107 0.096739992 0.0016809941 -0.019378269 7.071068e-011 7.071068e-011 7.071068e-011 7.071068e-011
7675200000 0.069462329 0.070585921 0.016981153 0.0091922246 7.071068e-011 7.071068e-011 7.071068e-011 7.071068e-011
7683600000 0.031763945 -0.0033393612 -0.015098339 0.012654979 7.071068e-011 7.071068e-011 7.071068e-011 7.071068e-011
7692000000 -0.0050562946 0.046590637 -0.0062773651 -0.018559257 7.071068e-011 7.071068e-011 7.071068e-011 7.071068e-011
7700400000 0.065740108 0.044035979 0.019534042 0.0010025025 7.071068e-011 7.071068e-011 7.071068e-011 7.071068e-011
7708800000 0.035811789 -0.039917443 -0.0083223339 0.017701611 7.071068e-011 7.071068e-011 7.071068e-011 7.071068e-011
7717200000 -0.034074143 0.00083107012 -0.01336827 -0.014362606 7.071068e-011 7.071068e-011 7.071068e-011 7.071068e-011
7725600000 0.017566206 0.034316763 0.018313713 -0.0068200352 7.071068e-011 7.071068e-011 7.071068e-011 7.071068e-011
7734000000 0.013596244 -0.036675122 -0.00030807138 0.019736847 7.071068e-011 7.071068e-011 7.071068e-011 7.071068e-011
7742400000 -0.07083483 -0.011092555 -0.01795618 -0.0074943369 7.071068e-011 7.071068e-011 7.071068e-011 7.071068e-011
7750800000 -0.0401996 0.061583597 0.01392426 -0.013841413 7.071068e-011 7.071068e-011 7.071068e-011 7.071068e-011
7759200000 0.0011961914 0.025772927 0.0077392184 0.018159505 7.071068e-011 7.071068e-011 7.071068e-011 7.071068e-011
7767600000 -0.053223208 0.019057717 -0.019726116 0.00039590467 7.071068e-011 7.071068e-011 7.071068e-011 7.071068e-011
7776000000 -0.037977166 0.091345459 0.0070078615 -0.018264782 7.071068e-011 7.071068e-011 7.071068e-011 7.071068e-011
7784400000 0.03193308 0.067906432 0.014357163 0.013383422 7.071068e-011 7.071068e-011 7.071068e-011 7.071068e-011
7792800000 0.00074031972 0.024443723 -0.017652852 0.0082127284 7.071068e-011 7.071068e-011 7.071068e-011 7.071068e-011
7801200000 -0.0073971557 0.071109116 -0.00079016428 -0.019725755 7.071068e-011 7.071068e-011 7.071068e-011 7.071068e-011
7809600000 0.053380962 0.057583146 0.018607484 0.0064420644 7.071068e-011 7.071068e-011 7.071068e-011 7.071068e-011
7818000000 0.034793697 -0.0035726845 -0.013027164 0.014515562 7.071068e-011 7.071068e-011 7.071068e-011 7.071068e-011
7826400000 -0.005057917 0.020442743 -0.0086456854 -0.017620442 7.071068e-011 7.071068e-011 7.071068e-011 7.071068e-011
7834800000 0.032131787 0.031993486 0.019576283 -0.0014220475 7.071068e-011 7.071068e-011 7.071068e-011 7.071068e-011
7843200000 0.025786318 -0.020004574 -0.0060552508 0.018717609 7.071068e-011 7.071068e-011 7.071068e-011 7.071068e-011
7851600000 -0.02742227 -0.004548097 -0.015058208 -0.01272095 7.071068e-011 7.071068e-011 7.071068e-011 7.071068e-011
7860000000 -0.0035176957 0.031141603 0.017346622 -0.0092313066 7.071068e-011 7.071068e-011 7.071068e-011 7.071068e-011
7868400000 0.010151472 -0.0042780596 0.00182895 0.019501327 7.071068e-011 7.071068e-011 7.071068e-011 7.071068e-011
7876800000 -0.03645156 -0.0030527506 -0.018960094 -0.0056354897 7.071068e-011 7.071068e-011 7.071068e-011 7.071068e-011
7885200000 -0.030043187 0.042969231 0.012150518 -0.015446004 7.071068e-011 7.071068e-011 7.071068e-011 7.071068e-011
7893600000 0.0083915098 0.036556941 0.0095802331 0.016899157 7.071068e-011 7.071068e-011 7.071068e-011 7.071068e-011
7902000000 -0.00788863 0.0090232436 -0.019395981 0.00226103 7.071068e-011 7.071068e-011 7.071068e-011 7.071068e-011
7910400000 -0.021937365 0.039263409 0.0050934413 -0.018960271 7.071068e-011 7.071068e-011 7.071068e-011 7.071068e-011
7918800000 0.017683931 0.049273178 0.015423994 0.011696381 7.071068e-011 7.071068e-011 7.071068e-011 7.071068e-011
7927200000 0.028113848 0.0067617428 -0.016670274 0.0097706057 7.071068e-011 7.071068e-011 7.071068e-011 7.071068e-011
7935600000 -0.0079856375 0.0066522271 -0.0027054409 -0.019007502 7.071068e-011 7.071068e-011 7.071068e-011 7.071068e-011
7944000000 0.011266614 0.032552462 0.018565638 0.0048528397 7.071068e-011 7.071068e-011 7.071068e-011 7.071068e-011
7952400000 0.037176732 -0.0052286405 -0.011597825 0.015281399 7.071068e-011 7.071068e-011 7.071068e-011 7.071068e-011
7960800000 -0.014702141 -0.033689283 -0.0098080216 -0.016451498 7.071068e-011 7.071068e-011 7.071068e-011 7.071068e-011
7969200000 -0.029578881 0.021187058 0.018685868 -0.0027091294 7.071068e-011 7.071068e-011 7.071068e-011 7.071068e-011
7977600000 0.020687595 0.0066911257 -0.0047391318 0.018300695 7.071068e-011 7.071068e-011 7.071068e-011 7.071068e-011
7986000000 -0.024925921 -0.040034484 -0.015123807 -0.011322026 7.071068e-011 7.071068e-011 7.071068e-011 7.071068e-011
7994400000 -0.065002948 0.025560357 0.016143745 -0.009650806 7.071068e-011 7.071068e-011 7.071068e-011 7.071068e-011
