!Keysight Technologies,N5235B,MY61252044,A.15.00.15
!Date: Friday, January 20, 2023 23:27:18
!Correction: S11(Off) 
!S21(Off) 
!S12(Off) 
!S22(Off) 
!S2P File: Measurements: S11, S21, S12, S22:
# Hz S  RI   R 50
6600000000 0.018570011 -0.17524068 0.015462806 -0.0030408003 7.071068e-011 7.071068e-011 7.071068e-011 7.071068e-011
6608408408.4084 -0.12456686 0.16555804 0.0053028869 0.010839982 7.071068e-011 7.071068e-011 7.071068e-011 7.071068e-011
6616816816.8168 0.30596218 0.0927191 -0.0089153145 0.0036871962 7.071068e-011 7.071068e-011 7.071068e-011 7.071068e-011
6625225225.2252 0.024655467 -0.27295044 -0.0017766861 -0.0093090674 7.071068e-011 7.071068e-011 7.071068e-011 7.071068e-011
6633633633.6336 -0.16572674 0.16137536 0.0093404474 -0.00038253402 7.071068e-011 7.071068e-011 7.071068e-011 7.071068e-011
6642042042.042 0.28986996 0.1132006 -0.0018623072 0.009320206 7.071068e-011 7.071068e-011 7.071068e-011 7.071068e-011
6650450450.4505 0.039182626 -0.25205594 -0.010725778 -0.0040990333 7.071068e-011 7.071068e-011 7.071068e-011 7.071068e-011
6658858858.8589 -0.14842239 0.1343555 0.0059875282 -0.011493383 7.071068e-011 7.071068e-011 7.071068e-011 7.071068e-011
6667267267.2673 0.22849159 0.10127606 0.012198173 0.0091793733 7.071068e-011 7.071068e-011 7.071068e-011 7.071068e-011
6675675675.6757 0.04290244 -0.15108082 -0.011549057 0.013819931 7.071068e-011 7.071068e-011 7.071068e-011 7.071068e-011
6684084084.0841 -0.044370975 0.084134772 -0.014591709 -0.013367508 7.071068e-011 7.071068e-011 7.071068e-011 7.071068e-011
6692492492.4925 0.10576186 0.047489204 0.014833664 -0.014912495 7.071068e-011 7.071068e-011 7.071068e-011 7.071068e-011
6700900900.9009 0.085979022 0.018343691 0.01476098 0.015427544 7.071068e-011 7.071068e-011 7.071068e-011 7.071068e-011
6709309309.3093 0.077241749 -0.041863311 -0.015566597 0.013099881 7.071068e-011 7.071068e-011 7.071068e-011 7.071068e-011
6717717717.7177 -0.03116612 0.034312978 -0.010133418 -0.016489372 7.071068e-011 7.071068e-011 7.071068e-011 7.071068e-011
6726126126.1261 0.15500179 0.11632369 0.016810168 -0.0070770551 7.071068e-011 7.071068e-011 7.071068e-011 7.071068e-011
6734534534.5345 0.12870687 -0.14059277 0.0035465891 0.016238255 7.071068e-011 7.071068e-011 7.071068e-011 7.071068e-011
6742942942.9429 -0.10788409 0.026530873 -0.015916644 -0.0002864289 7.071068e-011 7.071068e-011 7.071068e-011 7.071068e-011
6751351351.3514 0.17140667 0.15266569 0.0036293378 -0.015371756 7.071068e-011 7.071068e-011 7.071068e-011 7.071068e-011
6759759759.7598 0.15078977 -0.17149578 0.013181631 0.0070781512 7.071068e-011 7.071068e-011 7.071068e-011 7.071068e-011
6768168168.1682 -0.14689621 -0.0056221816 -0.010864729 0.010406057 7.071068e-011 7.071068e-011 7.071068e-011 7.071068e-011
6776576576.5766 0.13390672 0.17896722 -0.0079961419 -0.013481408 7.071068e-011 7.071068e-011 7.071068e-011 7.071068e-011
6784984984.985 0.15130481 -0.14606769 0.014563569 -0.0040091015 7.071068e-011 7.071068e-011 7.071068e-011 7.071068e-011
6793393393.3934 -0.14736117 -0.0067486982 -0.00035647131 0.015524631 7.071068e-011 7.071068e-011 7.071068e-011 7.071068e-011
6801801801.8018 0.10135631 0.20271383 -0.01571732 -0.0043071476 7.071068e-011 7.071068e-011 7.071068e-011 7.071068e-011
6810210210.2102 0.17256035 -0.094796568 0.0086865444 -0.014427946 7.071068e-011 7.071068e-011 7.071068e-011 7.071068e-011
6818618618.6186 -0.10527307 -0.010479968 0.012136707 0.01324648 7.071068e-011 7.071068e-011 7.071068e-011 7.071068e-011
6827027027.027 0.087701917 0.185479 -0.015967846 0.0091993064 7.071068e-011 7.071068e-011 7.071068e-011 7.071068e-011
6835435435.4354 0.18151717 -0.048657607 -0.0044667758 -0.017901048 7.071068e-011 7.071068e-011 7.071068e-011 7.071068e-011
6843843843.8438 -0.045345183 -0.028117493 0.020172464 0.00026182609 7.071068e-011 7.071068e-011 7.071068e-011 7.071068e-011
6852252252.2523 0.074626185 0.12923051 -0.0045967032 0.020297995 7.071068e-011 7.071068e-011 7.071068e-011 7.071068e-011
6860660660.6607 0.14512925 -0.020158947 -0.018600179 -0.0096215839 7.071068e-011 7.071068e-011 7.071068e-011 7.071068e-011
6869069069.0691 0.0042186202 -0.027103899 0.014530029 -0.016080512 7.071068e-011 7.071068e-011 7.071068e-011 7.071068e-011
6877477477.4775 0.053973608 0.072552003 0.012668246 0.018102411 7.071068e-011 7.071068e-011 7.071068e-011 7.071068e-011
6885885885.8859 0.090377264 0.0069280849 -0.02045545 0.0076914593 7.071068e-011 7.071068e-011 7.071068e-011 7.071068e-011
6894294294.2943 0.047260277 -0.00099559838 -0.0022924114 -0.022016983 7.071068e-011 7.071068e-011 7.071068e-011 7.071068e-011
6902702702.7027 0.038251068 0.019347748 0.021985916 0.003256879 7.071068e-011 7.071068e-011 7.071068e-011 7.071068e-011
6911111111.1111 0.030957555 0.037656136 -0.0087912036 0.020207681 7.071068e-011 7.071068e-011 7.071068e-011 7.071068e-011
6919519519.5195 0.078293838 0.049961574 -0.016935457 -0.01363283 7.071068e-011 7.071068e-011 7.071068e-011 7.071068e-011
6927927927.9279 0.050767124 -0.012402511 0.017249096 -0.012766851 7.071068e-011 7.071068e-011 7.071068e-011 7.071068e-011
6936336336.3363 -0.0021698505 0.062179327 0.0072605619 0.019478483 7.071068e-011 7.071068e-011 7.071068e-011 7.071068e-011
6944744744.7447 0.11238872 0.089382261 -0.020836579 0.0011342614 7.071068e-011 7.071068e-011 7.071068e-011 7.071068e-011
6953153153.1532 0.08436197 -0.04550942 0.0044948282 -0.019991133 7.071068e-011 7.071068e-011 7.071068e-011 7.071068e-011
6961561561.5616 -0.028343579 0.05437744 0.017327843 0.0099597434 7.071068e-011 7.071068e-011 7.071068e-011 7.071068e-011
6969969969.97 0.12460804 0.10594155 -0.014520398 0.013539704 7.071068e-011 7.071068e-011 7.071068e-011 7.071068e-011
6978378378.3784 0.10174748 -0.070796907 -0.0083774887 -0.017372428 7.071068e-011 7.071068e-011 7.071068e-011 7.071068e-011
6986786786.7868 -0.0640916 0.032718554 0.018729987 -0.0022724352 7.071068e-011 7.071068e-011 7.071068e-011 7.071068e-011
6995195195.1952 0.10296844 0.13391326 -0.0035617643 0.018914511 7.071068e-011 7.071068e-011 7.071068e-011 7.071068e-011
7003603603.6036 0.10891165 -0.057875048 -0.016598418 -0.0089092851 7.071068e-011 7.071068e-011 7.071068e-011 7.071068e-011
7012012012.012 -0.072660238 0.032463096 0.014124247 -0.012464275 7.071068e-011 7.071068e-011 7.071068e-011 7.071068e-011
7020420420.4204 0.087999448 0.16142625 0.0077855727 0.017329203 7.071068e-011 7.071068e-011 7.071068e-011 7.071068e-011
7028828828.8288 0.13264661 -0.028983936 -0.018526936 0.0018237798 7.071068e-011 7.071068e-011 7.071068e-011 7.071068e-011
7037237237.2372 -0.053976063 0.03065647 0.0044282009 -0.018640956 7.071068e-011 7.071068e-011 7.071068e-011 7.071068e-011
7045645645.6456 0.090024963 0.1709103 0.016444001 0.0098067205 7.071068e-011 7.071068e-011 7.071068e-011 7.071068e-011
7054054054.0541 0.167593 -0.0030854002 -0.014679382 0.012040298 7.071068e-011 7.071068e-011 7.071068e-011 7.071068e-011
7062462462.4625 -0.0081243832 -0.0039868299 -0.006828126 -0.018475058 7.071068e-011 7.071068e-011 7.071068e-011 7.071068e-011
7070870870.8709 0.078278124 0.14037716 0.019773068 -0.0011893093 7.071068e-011 7.071068e-011 7.071068e-011 7.071068e-011
7079279279.2793 0.16831893 0.0073746843 -0.005552588 0.018794928 7.071068e-011 7.071068e-011 7.071068e-011 7.071068e-011
7087687687.6877 0.03255856 -0.026963906 -0.01664271 -0.011493582 7.071068e-011 7.071068e-011 7.071068e-011 7.071068e-011
7096096096.0961 0.05949118 0.089247793 0.015948523 -0.012476368 7.071068e-011 7.071068e-011 7.071068e-011 7.071068e-011
7104504504.5045 0.1477765 0.010416171 0.0065296069 0.019140385 7.071068e-011 7.071068e-011 7.071068e-011 7.071068e-011
7112912912.9129 0.050863154 -0.04466287 -0.020643137 -0.00013354656 7.071068e-011 7.071068e-011 7.071068e-011 7.071068e-011
7121321321.3213 0.034390833 0.031908531 0.0063144611 -0.019840591 7.071068e-011 7.071068e-011 7.071068e-011 7.071068e-011
7129729729.7297 0.089289665 0.014466572 0.016444117 0.012083244 7.071068e-011 7.071068e-011 7.071068e-011 7.071068e-011
7138138138.1381 0.043413855 -0.037772972 -0.017190434 0.0116955 7.071068e-011 7.071068e-011 7.071068e-011 7.071068e-011
7146546546.5465 -0.00050153799 0.013602746 -0.0058431732 -0.020122807 7.071068e-011 7.071068e-011 7.071068e-011 7.071068e-011
7154954954.955 0.030619359 0.041324798 0.020803949 0.00086032588 7.071068e-011 7.071068e-011 7.071068e-011 7.071068e-011
7163363363.3634 0.044978589 0.015765432 -0.0076644886 0.019098122 7.071068e-011 7.071068e-011 7.071068e-011 7.071068e-011
7171771771.7718 0.0011799539 0.02024111 -0.015744494 -0.013483118 7.071068e-011 7.071068e-011 7.071068e-011 7.071068e-011
7180180180.1802 0.018455161 0.072545663 0.017626461 -0.010387133 7.071068e-011 7.071068e-011 7.071068e-011 7.071068e-011
7188588588.5886 0.067756005 0.056148943 0.0038770759 0.020451762 7.071068e-011 7.071068e-011 7.071068e-011 7.071068e-011
7196996996.997 0.039898019 0.010139726 -0.020608 -0.0027465622 7.071068e-011 7.071068e-011 7.071068e-011 7.071068e-011
7205405405.4054 0.012285355 0.067085989 0.009552611 -0.017997583 7.071068e-011 7.071068e-011 7.071068e-011 7.071068e-011
7213813813.8138 0.083179586 0.067266747 0.013845014 0.015194237 7.071068e-011 7.071068e-011 7.071068e-011 7.071068e-011
7222222222.2222 0.066255935 -0.0054840618 -0.018991245 0.0082173925 7.071068e-011 7.071068e-011 7.071068e-011 7.071068e-011
7230630630.6306 -0.0013310475 0.035098135 -0.001432415 -0.020494772 7.071068e-011 7.071068e-011 7.071068e-011 7.071068e-011
7239039039.039 0.071513288 0.07561025 0.01995191 0.0058527943 7.071068e-011 7.071068e-011 7.071068e-011 7.071068e-011
7247447447.4474 0.075258434 -0.014794295 -0.012020596 0.016976953 7.071068e-011 7.071068e-011 7.071068e-011 7.071068e-011
7255855855.8559 -0.01657312 0.0073198415 -0.011593313 -0.017021533 7.071068e-011 7.071068e-011 7.071068e-011 7.071068e-011
7264264264.2643 0.034817204 0.084041588 0.020122429 -0.0053453012 7.071068e-011 7.071068e-011 7.071068e-011 7.071068e-011
7272672672.6727 0.074405208 0.00071686553 -0.0015253994 0.020539025 7.071068e-011 7.071068e-011 7.071068e-011 7.071068e-011
7281081081.0811 -0.029820241 0.0007446683 -0.018726725 -0.0084578954 7.071068e-011 7.071068e-011 7.071068e-011 7.071068e-011
7289489489.4895 -8.671666e-005 0.1075993 0.014701583 -0.014616601 7.071068e-011 7.071068e-011 7.071068e-011 7.071068e-011
7297897897.8979 0.084994473 0.050709512 0.0088002849 0.018830273 7.071068e-011 7.071068e-011 7.071068e-011 7.071068e-011
7306306306.3063 0.001100866 0.008840777 -0.020579396 0.0015732134 7.071068e-011 7.071068e-011 7.071068e-011 7.071068e-011
7314714714.7147 0.0040750727 0.11276843 0.0054008374 -0.020292245 7.071068e-011 7.071068e-011 7.071068e-011 7.071068e-011
7323123123.1231 0.11264218 0.075407192 0.017004399 0.011739837 7.071068e-011 7.071068e-011 7.071068e-011 7.071068e-011
7331531531.5315 0.051293239 -0.011816488 -0.017334823 0.011708557 7.071068e-011 7.071068e-011 7.071068e-011 7.071068e-011
7339939939.9399 0.0078868009 0.068581827 -0.0053180619 -0.020555804 7.071068e-011 7.071068e-011 7.071068e-011 7.071068e-011
7348348348.3483 0.1054442 0.063740015 0.020924661 0.0019314728 7.071068e-011 7.071068e-011 7.071068e-011 7.071068e-011
7356756756.7568 0.066219464 -0.036988985 -0.0092051895 0.018789617 7.071068e-011 7.071068e-011 7.071068e-011 7.071068e-011
7365165165.1652 -0.010256223 0.020830953 -0.014744033 -0.015196119 7.071068e-011 7.071068e-011 7.071068e-011 7.071068e-011
7373573573.5736 0.061515637 0.04985391 0.019017071 -0.0085640857 7.071068e-011 7.071068e-011 7.071068e-011 7.071068e-011
7381981981.982 0.043978445 -0.035348538 0.0010652764 0.021121781 7.071068e-011 7.071068e-011 7.071068e-011 7.071068e-011
7390390390.3904 -0.04306107 0.00962938 -0.020333404 -0.0061618583 7.071068e-011 7.071068e-011 7.071068e-011 7.071068e-011
7398798798.7988 0.012911611 0.071215898 0.012895796 -0.016696297 7.071068e-011 7.071068e-011 7.071068e-011 7.071068e-011
7407207207.2072 0.027966276 0.0098957345 0.011189315 0.017985055 7.071068e-011 7.071068e-011 7.071068e-011 7.071068e-011
7415615615.6156 -0.040920828 0.035292082 -0.02087733 0.0043881815 7.071068e-011 7.071068e-011 7.071068e-011 7.071068e-011
7424024024.024 0.006707727 0.10503148 0.0030606536 -0.02104035 7.071068e-011 7.071068e-011 7.071068e-011 7.071068e-011
7432432432.4324 0.054741502 0.054159727 0.018678067 0.010418621 7.071068e-011 7.071068e-011 7.071068e-011 7.071068e-011
7440840840.8408 0.0098127825 0.04232534 -0.016139938 0.014056546 7.071068e-011 7.071068e-011 7.071068e-011 7.071068e-011
7449249249.2492 0.030237492 0.08708784 -0.0073269382 -0.01987415 7.071068e-011 7.071068e-011 7.071068e-011 7.071068e-011
7457657657.6577 0.07792291 0.04901918 0.021256499 0.00016960844 7.071068e-011 7.071068e-011 7.071068e-011 7.071068e-011
7466066066.0661 0.041807763 0.014073394 -0.0075218929 0.019939125 7.071068e-011 7.071068e-011 7.071068e-011 7.071068e-011
7474474474.4745 0.030468239 0.039262991 -0.015937477 -0.013837371 7.071068e-011 7.071068e-011 7.071068e-011 7.071068e-011
7482882882.8829 0.059848443 0.029162176 0.018632384 -0.0098002385 7.071068e-011 7.071068e-011 7.071068e-011 7.071068e-011
7491291291.2913 0.038950413 -0.01338791 0.0026415095 0.020929528 7.071068e-011 7.071068e-011 7.071068e-011 7.071068e-011
7499699699.6997 -0.003339072 0.0023838812 -0.020362055 -0.0049285488 7.071068e-011 7.071068e-011 7.071068e-011 7.071068e-011
7508108108.1081 0.0032651825 0.031928372 0.011751655 -0.017316543 7.071068e-011 7.071068e-011 7.071068e-011 7.071068e-011
7516516516.5165 0.019380532 0.011988571 0.011989771 0.016993741 7.071068e-011 7.071068e-011 7.071068e-011 7.071068e-011
7524924924.9249 -0.026338803 0.0065654442 -0.020030735 0.0050680488 7.071068e-011 7.071068e-011 7.071068e-011 7.071068e-011
7533333333.3333 -0.029879767 0.065943226 0.0025446974 -0.020497378 7.071068e-011 7.071068e-011 7.071068e-011 7.071068e-011
7541741741.7417 0.027833967 0.06894242 0.018248422 0.0094924336 7.071068e-011 7.071068e-011 7.071068e-011 7.071068e-011
7550150150.1502 0.013070866 0.020563222 -0.015222942 0.013212136 7.071068e-011 7.071068e-011 7.071068e-011 7.071068e-011
7558558558.5586 -0.015367471 0.068412952 -0.0068402616 -0.019040689 7.071068e-011 7.071068e-011 7.071068e-011 7.071068e-011
7566966966.967 0.05557755 0.07813435 0.019997966 0.0004956862 7.071068e-011 7.071068e-011 7.071068e-011 7.071068e-011
7575375375.3754 0.053626329 0.0010043272 -0.0079276161 0.018451581 7.071068e-011 7.071068e-011 7.071068e-011 7.071068e-011
7583783783.7838 -0.011856162 0.023928849 -0.014385373 -0.014089889 7.071068e-011 7.071068e-011 7.071068e-011 7.071068e-011
7592192192.1922 0.045387045 0.06066281 0.01801029 -0.0083014145 7.071068e-011 7.071068e-011 7.071068e-011 7.071068e-011
7600600600.6006 0.051859774 -0.024271881 0.00085444993 0.019481925 7.071068e-011 7.071068e-011 7.071068e-011 7.071068e-011
7609009009.009 -0.037961002 -0.010895441 -0.018869942 -0.0065556131 7.071068e-011 7.071068e-011 7.071068e-011 7.071068e-011
7617417417.4174 -0.0052615139 0.058156017 0.01263117 -0.015307385 7.071068e-011 7.071068e-011 7.071068e-011 7.071068e-011
7625825825.8258 0.026459331 -0.004026256 0.0094068833 0.017406693 7.071068e-011 7.071068e-011 7.071068e-011 7.071068e-011
7634234234.2342 -0.060592655 0.0039034353 -0.019549692 0.0024250958 7.071068e-011 7.071068e-011 7.071068e-011 7.071068e-011
7642642642.6426 -0.026693495 0.09161213 0.0050038192 -0.018896082 7.071068e-011 7.071068e-011 7.071068e-011 7.071068e-011
7651051051.0511 0.037542425 0.042601004 0.015737392 0.011720661 7.071068e-011 7.071068e-011 7.071068e-011 7.071068e-011
7659459459.4595 -0.029705446 0.018052112 -0.016786963 0.010645404 7.071068e-011 7.071068e-011 7.071068e-011 7.071068e-011
7667867867.8679 -0.011686892 0.10237945 -0.0038777874 -0.019121502 7.071068e-011 7.071068e-011 7.071068e-011 7.071068e-011
7676276276.2763 0.073841974 0.059141055 0.019088285 0.0039806939 7.071068e-011 7.071068e-011 7.071068e-011 7.071068e-011
7684684684.6847 0.021515049 -0.0039719087 -0.010786589 0.01660235 7.071068e-011 7.071068e-011 7.071068e-011 7.071068e-011
7693093093.0931 0.00058965565 0.054311763 -0.011464113 -0.015973065 7.071068e-011 7.071068e-011 7.071068e-011 7.071068e-011
7701501501.5015 0.071021602 0.032668184 0.01902773 -0.0048133885 7.071068e-011 7.071068e-011 7.071068e-011 7.071068e-011
7709909909.9099 0.02344639 -0.04248172 -0.0026299749 0.019510588 7.071068e-011 7.071068e-011 7.071068e-011 7.071068e-011
7718318318.3183 -0.033197995 0.010735032 -0.017208248 -0.009606028 7.071068e-011 7.071068e-011 7.071068e-011 7.071068e-011
7726726726.7267 0.024307862 0.027882252 0.015461443 -0.012224357 7.071068e-011 7.071068e-011 7.071068e-011 7.071068e-011
7735135135.1351 0.0029821985 -0.041226849 0.0059240642 0.018963825 7.071068e-011 7.071068e-011 7.071068e-011 7.071068e-011
7743543543.5435 -0.074995659 -0.00037066767 -0.019532595 -0.0014695229 7.071068e-011 7.071068e-011 7.071068e-011 7.071068e-011
7751951951.952 -0.03051593 0.06435509 0.0087424563 -0.017679989 7.071068e-011 7.071068e-011 7.071068e-011 7.071068e-011
7760360360.3604 -0.0025592495 0.017531719 0.013245668 0.014669209 7.071068e-011 7.071068e-011 7.071068e-011 7.071068e-011
7768768768.7688 -0.058263436 0.028338201 -0.018594306 0.0068583312 7.071068e-011 7.071068e-011 7.071068e-011 7.071068e-011
7777177177.1772 -0.027371773 0.095519342 0.00060929562 -0.019722868 7.071068e-011 7.071068e-011 7.071068e-011 7.071068e-011
7785585585.5856 0.033858035 0.058145132 0.018127231 0.0078286463 7.071068e-011 7.071068e-011 7.071068e-011 7.071068e-011
7793993993.994 -0.0054593696 0.027723817 -0.01392033 0.013687082 7.071068e-011 7.071068e-011 7.071068e-011 7.071068e-011
7802402402.4024 -0.00056998851 0.074831322 -0.0075629782 -0.018384811 7.071068e-011 7.071068e-011 7.071068e-011 7.071068e-011
7810810810.8108 0.05798826 0.049043655 0.019780904 -0.00044222406 7.071068e-011 7.071068e-011 7.071068e-011 7.071068e-011
7819219219.2192 0.026139446 -0.0064637475 -0.0071521415 0.018334491 7.071068e-011 7.071068e-011 7.071068e-011 7.071068e-011
7827627627.6276 -0.0036927639 0.026755655 -0.014399902 -0.013469248 7.071068e-011 7.071068e-011 7.071068e-011 7.071068e-011
7836036036.036 0.037448615 0.02583063 0.017851239 -0.0083347717 7.071068e-011 7.071068e-011 7.071068e-011 7.071068e-011
7844444444.4444 0.016622052 -0.023739869 0.001105899 0.019721948 7.071068e-011 7.071068e-011 7.071068e-011 7.071068e-011
7852852852.8529 -0.028269578 0.0028950043 -0.01879211 -0.0063696327 7.071068e-011 7.071068e-011 7.071068e-011 7.071068e-011
7861261261.2613 0.001596716 0.029547555 0.012784016 -0.015043019 7.071068e-011 7.071068e-011 7.071068e-011 7.071068e-011
7869669669.6697 0.0055648447 -0.0091737974 0.0090047941 0.017568916 7.071068e-011 7.071068e-011 7.071068e-011 7.071068e-011
7878078078.0781 -0.040367234 0.0032980547 -0.019814493 0.00194877 7.071068e-011 7.071068e-011 7.071068e-011 7.071068e-011
7886486486.4865 -0.024502737 0.04692018 0.0053959861 -0.019020703 7.071068e-011 7.071068e-011 7.071068e-011 7.071068e-011
7894894894.8949 0.010919595 0.030353522 0.01540167 0.011999208 7.071068e-011 7.071068e-011 7.071068e-011 7.071068e-011
7903303303.3033 -0.013440907 0.011076859 -0.017099287 0.009683514 7.071068e-011 7.071068e-011 7.071068e-011 7.071068e-011
7911711711.7117 -0.017881792 0.043861184 -0.0027533693 -0.019489637 7.071068e-011 7.071068e-011 7.071068e-011 7.071068e-011
7920120120.1201 0.023024173 0.044963863 0.018896209 0.0047389525 7.071068e-011 7.071068e-011 7.071068e-011 7.071068e-011
7928528528.5285 0.023718487 0.0019827234 -0.011470951 0.015720358 7.071068e-011 7.071068e-011 7.071068e-011 7.071068e-011
7936936936.9369 -0.0099701742 0.011072938 -0.010144992 -0.016396349 7.071068e-011 7.071068e-011 7.071068e-011 7.071068e-011
7945345345.3453 0.017756555 0.032148901 0.01902871 -0.003073615 7.071068e-011 7.071068e-011 7.071068e-011 7.071068e-011
