!Keysight Technologies,N5235B,MY61252044,A.15.00.15
!Date: Friday, January 20, 2023 18:57:33
!Correction: S11(Off) 
!S21(Off) 
!S12(Off) 
!S22(Off) 
!S2P File: Measurements: S11, S21, S12, S22:
# Hz S  RI   R 50
6600000000 0.016651196 -0.17439833 0.014421546 -0.0064072339 7.071068e-011 7.071068e-011 7.071068e-011 7.071068e-011
6608400000 -0.12326436 0.16724156 0.0075486321 0.0094230399 7.071068e-011 7.071068e-011 7.071068e-011 7.071068e-011
6616800000 0.30749202 0.090878792 -0.0078931702 0.0055240039 7.071068e-011 7.071068e-011 7.071068e-011 7.071068e-011
6625200000 0.022472449 -0.27301839 -0.0037053113 -0.0087236902 7.071068e-011 7.071068e-011 7.071068e-011 7.071068e-011
6633600000 -0.16515502 0.16235633 0.009031726 -0.0023325144 7.071068e-011 7.071068e-011 7.071068e-011 7.071068e-011
6642000000 0.2907612 0.11310925 8.5261425e-005 0.0094506256 7.071068e-011 7.071068e-011 7.071068e-011 7.071068e-011
6650400000 0.038774651 -0.25262114 -0.011276248 -0.0018912044 7.071068e-011 7.071068e-011 7.071068e-011 7.071068e-011
6658800000 -0.14869054 0.13374707 0.0036166823 -0.012410489 7.071068e-011 7.071068e-011 7.071068e-011 7.071068e-011
6667200000 0.22841041 0.10353392 0.013624826 0.0066660969 7.071068e-011 7.071068e-011 7.071068e-011 7.071068e-011
6675600000 0.043737959 -0.15351357 -0.008819445 0.015642662 7.071068e-011 7.071068e-011 7.071068e-011 7.071068e-011
6684000000 -0.044838697 0.085066624 -0.016785892 -0.010505767 7.071068e-011 7.071068e-011 7.071068e-011 7.071068e-011
6692400000 0.10532241 0.048246 0.011863682 -0.01728064 7.071068e-011 7.071068e-011 7.071068e-011 7.071068e-011
6700800000 0.085944325 0.01707009 0.017119378 0.01261664 7.071068e-011 7.071068e-011 7.071068e-011 7.071068e-011
6709200000 0.078134038 -0.040165152 -0.013180329 0.015541031 7.071068e-011 7.071068e-011 7.071068e-011 7.071068e-011
6717600000 -0.031866863 0.032529056 -0.012760229 -0.014548756 7.071068e-011 7.071068e-011 7.071068e-011 7.071068e-011
6726000000 0.15383199 0.11722758 0.01536302 -0.0096742734 7.071068e-011 7.071068e-011 7.071068e-011 7.071068e-011
6734400000 0.1308642 -0.13837269 0.0060544652 0.01544619 7.071068e-011 7.071068e-011 7.071068e-011 7.071068e-011
6742800000 -0.10768922 0.022095567 -0.015772771 0.0021714377 7.071068e-011 7.071068e-011 7.071068e-011 7.071068e-011
6751200000 0.16752982 0.15563773 0.001274789 -0.015752761 7.071068e-011 7.071068e-011 7.071068e-011 7.071068e-011
6759600000 0.15570539 -0.16912828 0.014085856 0.0050532315 7.071068e-011 7.071068e-011 7.071068e-011 7.071068e-011
6768000000 -0.14725399 -0.011429901 -0.0092377085 0.011840054 7.071068e-011 7.071068e-011 7.071068e-011 7.071068e-011
6776400000 0.12945661 0.18189451 -0.0097849499 -0.012208663 7.071068e-011 7.071068e-011 7.071068e-011 7.071068e-011
6784800000 0.15606184 -0.14278957 0.013830193 -0.005960444 7.071068e-011 7.071068e-011 7.071068e-011 7.071068e-011
6793200000 -0.14670405 -0.013712337 0.0017020539 0.015361144 7.071068e-011 7.071068e-011 7.071068e-011 7.071068e-011
6801600000 0.095643386 0.20530047 -0.016102232 -0.00227851 7.071068e-011 7.071068e-011 7.071068e-011 7.071068e-011
6810000000 0.17644908 -0.090402156 0.0068365117 -0.015349412 7.071068e-011 7.071068e-011 7.071068e-011 7.071068e-011
6818400000 -0.1026551 -0.01780057 0.013523136 0.011657847 7.071068e-011 7.071068e-011 7.071068e-011 7.071068e-011
6826800000 0.080294639 0.18832414 -0.014764011 0.010892306 7.071068e-011 7.071068e-011 7.071068e-011 7.071068e-011
6835200000 0.18603271 -0.045111127 -0.0064069596 -0.017254071 7.071068e-011 7.071068e-011 7.071068e-011 7.071068e-011
6843600000 -0.043184597 -0.032637104 0.020054363 -0.0018804934 7.071068e-011 7.071068e-011 7.071068e-011 7.071068e-011
6852000000 0.069102071 0.1300987 -0.0024749625 0.020616697 7.071068e-011 7.071068e-011 7.071068e-011 7.071068e-011
6860400000 0.14819403 -0.01703332 -0.019363211 -0.0077071632 7.071068e-011 7.071068e-011 7.071068e-011 7.071068e-011
6868800000 0.0060601234 -0.029474672 0.012910566 -0.01729155 7.071068e-011 7.071068e-011 7.071068e-011 7.071068e-011
6877200000 0.050784782 0.071837537 0.014176599 0.016840676 7.071068e-011 7.071068e-011 7.071068e-011 7.071068e-011
6885600000 0.092084453 0.0095373439 -0.019641241 0.009378898 7.071068e-011 7.071068e-011 7.071068e-011 7.071068e-011
6894000000 0.047524724 -0.0026028806 -0.0040359641 -0.021705994 7.071068e-011 7.071068e-011 7.071068e-011 7.071068e-011
6902400000 0.038325679 0.019922107 0.022138251 0.0015738999 7.071068e-011 7.071068e-011 7.071068e-011 7.071068e-011
6910800000 0.031144178 0.035871226 -0.0072923307 0.020758849 7.071068e-011 7.071068e-011 7.071068e-011 7.071068e-011
6919200000 0.07618726 0.051627841 -0.017809289 -0.012395972 7.071068e-011 7.071068e-011 7.071068e-011 7.071068e-011
6927600000 0.054062311 -0.011718272 0.01634972 -0.013856117 7.071068e-011 7.071068e-011 7.071068e-011 7.071068e-011
6936000000 -0.0038351479 0.057711188 0.0084773358 0.018957037 7.071068e-011 7.071068e-011 7.071068e-011 7.071068e-011
6944400000 0.10898969 0.093315803 -0.02065295 0.0023307665 7.071068e-011 7.071068e-011 7.071068e-011 7.071068e-011
6952800000 0.089197531 -0.043760244 0.0034176768 -0.020130549 7.071068e-011 7.071068e-011 7.071068e-011 7.071068e-011
6961200000 -0.028534772 0.048157718 0.017738851 0.0090710875 7.071068e-011 7.071068e-011 7.071068e-011 7.071068e-011
6969600000 0.11797038 0.11011067 -0.013874453 0.014151534 7.071068e-011 7.071068e-011 7.071068e-011 7.071068e-011
6978000000 0.10970661 -0.06647145 -0.0091031259 -0.016968451 7.071068e-011 7.071068e-011 7.071068e-011 7.071068e-011
6986400000 -0.063692346 0.023248285 0.018566485 -0.0030076406 7.071068e-011 7.071068e-011 7.071068e-011 7.071068e-011
6994800000 0.094358519 0.13803531 -0.0029467512 0.018994898 7.071068e-011 7.071068e-011 7.071068e-011 7.071068e-011
7003200000 0.11761858 -0.052149095 -0.01687832 -0.0084157633 7.071068e-011 7.071068e-011 7.071068e-011 7.071068e-011
7011600000 -0.072156705 0.021777377 0.013685606 -0.012806487 7.071068e-011 7.071068e-011 7.071068e-011 7.071068e-011
7020000000 0.079026788 0.16481659 0.0081542758 0.01706261 7.071068e-011 7.071068e-011 7.071068e-011 7.071068e-011
7028400000 0.13895328 -0.022035785 -0.018412616 0.0021975182 7.071068e-011 7.071068e-011 7.071068e-011 7.071068e-011
7036800000 -0.050648428 0.02046014 0.0041710474 -0.01861107 7.071068e-011 7.071068e-011 7.071068e-011 7.071068e-011
7045200000 0.07889685 0.17259476 0.016499467 0.0096356999 7.071068e-011 7.071068e-011 7.071068e-011 7.071068e-011
7053600000 0.17288619 0.0061957762 -0.014539683 0.012081009 7.071068e-011 7.071068e-011 7.071068e-011 7.071068e-011
7062000000 -0.0029095367 -0.012932228 -0.0068060458 -0.018408895 7.071068e-011 7.071068e-011 7.071068e-011 7.071068e-011
7070400000 0.068333179 0.1406458 0.019757278 -0.0011415642 7.071068e-011 7.071068e-011 7.071068e-011 7.071068e-011
7078800000 0.17170256 0.015648447 -0.0055811862 0.018679064 7.071068e-011 7.071068e-011 7.071068e-011 7.071068e-011
7087200000 0.038086087 -0.032402545 -0.016442012 -0.011609457 7.071068e-011 7.071068e-011 7.071068e-011 7.071068e-011
7095600000 0.05284749 0.08784423 0.016083656 -0.012226338 7.071068e-011 7.071068e-011 7.071068e-011 7.071068e-011
7104000000 0.1482877 0.016599944 0.006161279 0.019167358 7.071068e-011 7.071068e-011 7.071068e-011 7.071068e-011
7112400000 0.057213932 -0.045680854 -0.020463696 -0.00059552299 7.071068e-011 7.071068e-011 7.071068e-011 7.071068e-011
7120800000 0.030558525 0.027769299 0.006856651 -0.01954014 7.071068e-011 7.071068e-011 7.071068e-011 7.071068e-011
7129200000 0.089422256 0.019482534 0.016012015 0.012555595 7.071068e-011 7.071068e-011 7.071068e-011 7.071068e-011
7137600000 0.047283374 -0.038522176 -0.017561736 0.011054985 7.071068e-011 7.071068e-011 7.071068e-011 7.071068e-011
7146000000 -0.00029749906 0.010031506 -0.0050531705 -0.020296941 7.071068e-011 7.071068e-011 7.071068e-011 7.071068e-011
7154400000 0.028558794 0.041952457 0.020665731 0.0017333197 7.071068e-011 7.071068e-011 7.071068e-011 7.071068e-011
7162800000 0.045665424 0.016745277 -0.0084831342 0.018631367 7.071068e-011 7.071068e-011 7.071068e-011 7.071068e-011
7171200000 0.0039633126 0.018433411 -0.0150037 -0.014218371 7.071068e-011 7.071068e-011 7.071068e-011 7.071068e-011
7179600000 0.014164038 0.069524758 0.018102868 -0.0094543248 7.071068e-011 7.071068e-011 7.071068e-011 7.071068e-011
7188000000 0.067002431 0.060500953 0.0026436532 0.020507047 7.071068e-011 7.071068e-011 7.071068e-011 7.071068e-011
7196400000 0.04333505 0.0094705187 -0.020275639 -0.0040661255 7.071068e-011 7.071068e-011 7.071068e-011 7.071068e-011
7204800000 0.010341357 0.063404158 0.010675484 -0.01721062 7.071068e-011 7.071068e-011 7.071068e-011 7.071068e-011
7213200000 0.079179898 0.07094688 0.012696725 0.016086919 7.071068e-011 7.071068e-011 7.071068e-011 7.071068e-011
7221600000 0.071423337 -0.0024614623 -0.019516237 0.0067855306 7.071068e-011 7.071068e-011 7.071068e-011 7.071068e-011
7230000000 -0.00031454925 0.028847925 0.00015088251 -0.020505114 7.071068e-011 7.071068e-011 7.071068e-011 7.071068e-011
7238400000 0.064474314 0.078466848 0.019290164 0.0074509499 7.071068e-011 7.071068e-011 7.071068e-011 7.071068e-011
7246800000 0.081608176 -0.0091575356 -0.013408658 0.015804654 7.071068e-011 7.071068e-011 7.071068e-011 7.071068e-011
7255200000 -0.013597305 -0.00032957474 -0.0099655157 -0.017850989 7.071068e-011 7.071068e-011 7.071068e-011 7.071068e-011
7263600000 0.027466863 0.084764816 0.02041558 -0.0034003546 7.071068e-011 7.071068e-011 7.071068e-011 7.071068e-011
7272000000 0.078428723 0.0070815594 -0.0035110316 0.020218369 7.071068e-011 7.071068e-011 7.071068e-011 7.071068e-011
7280400000 -0.023852613 -0.0054951031 -0.017711984 -0.010313205 7.071068e-011 7.071068e-011 7.071068e-011 7.071068e-011
7288800000 -0.0083859051 0.10278114 0.016121941 -0.012848403 7.071068e-011 7.071068e-011 7.071068e-011 7.071068e-011
7297200000 0.08436688 0.059864074 0.00659543 0.019607965 7.071068e-011 7.071068e-011 7.071068e-011 7.071068e-011
7305600000 0.0091985362 0.0044229305 -0.020520518 -0.00073498295 7.071068e-011 7.071068e-011 7.071068e-011 7.071068e-011
7314000000 -0.004488003 0.10627646 0.0077212555 -0.019463355 7.071068e-011 7.071068e-011 7.071068e-011 7.071068e-011
7322400000 0.10937442 0.085765518 0.015431568 0.013637982 7.071068e-011 7.071068e-011 7.071068e-011 7.071068e-011
7330800000 0.059868813 -0.01219706 -0.018548088 0.0093249539 7.071068e-011 7.071068e-011 7.071068e-011 7.071068e-011
7339200000 0.0041580964 0.061607763 -0.0025121837 -0.020979971 7.071068e-011 7.071068e-011 7.071068e-011 7.071068e-011
7347600000 0.09957578 0.071470201 0.02037691 0.0046912706 7.071068e-011 7.071068e-011 7.071068e-011 7.071068e-011
7356000000 0.075402699 -0.033111908 -0.011611888 0.017192077 7.071068e-011 7.071068e-011 7.071068e-011 7.071068e-011
7364400000 -0.009501799 0.012136131 -0.012320356 -0.017088821 7.071068e-011 7.071068e-011 7.071068e-011 7.071068e-011
7372800000 0.054108482 0.054920726 0.020081766 -0.0056945942 7.071068e-011 7.071068e-011 7.071068e-011 7.071068e-011
7381200000 0.053510975 -0.031064691 -0.0021094838 0.020948244 7.071068e-011 7.071068e-011 7.071068e-011 7.071068e-011
7389600000 -0.041464705 0.00044179303 -0.019049458 -0.0091816485 7.071068e-011 7.071068e-011 7.071068e-011 7.071068e-011
7398000000 0.0059151705 0.072420761 0.015238962 -0.0143632 7.071068e-011 7.071068e-011 7.071068e-011 7.071068e-011
7406400000 0.032958165 0.014111429 0.0080911638 0.019429985 7.071068e-011 7.071068e-011 7.071068e-011 7.071068e-011
7414800000 -0.038299575 0.028085288 -0.02121203 0.0008472933 7.071068e-011 7.071068e-011 7.071068e-011 7.071068e-011
7423200000 -0.0011921903 0.10296143 0.0065708961 -0.020109937 7.071068e-011 7.071068e-011 7.071068e-011 7.071068e-011
7431600000 0.05503948 0.061083682 0.016417546 0.0134601 7.071068e-011 7.071068e-011 7.071068e-011 7.071068e-011
7440000000 0.013824381 0.038116083 -0.018362392 0.010860483 7.071068e-011 7.071068e-011 7.071068e-011 7.071068e-011
7448400000 0.023569999 0.085783765 -0.0035912993 -0.020796981 7.071068e-011 7.071068e-011 7.071068e-011 7.071068e-011
7456800000 0.077957168 0.055548195 0.020757342 0.0040807403 7.071068e-011 7.071068e-011 7.071068e-011 7.071068e-011
7465200000 0.045681857 0.013437003 -0.011124748 0.018046873 7.071068e-011 7.071068e-011 7.071068e-011 7.071068e-011
7473600000 0.028706035 0.03769733 -0.012901616 -0.016604479 7.071068e-011 7.071068e-011 7.071068e-011 7.071068e-011
7482000000 0.058553863 0.032451309 0.020072654 -0.0058814315 7.071068e-011 7.071068e-011 7.071068e-011 7.071068e-011
7490400000 0.04321051 -0.010180037 -0.0016309947 0.020916639 7.071068e-011 7.071068e-011 7.071068e-011 7.071068e-011
7498800000 -0.00023166416 -0.002115251 -0.018796446 -0.0089177275 7.071068e-011 7.071068e-011 7.071068e-011 7.071068e-011
7507200000 -4.6494908e-005 0.03138933 0.015051037 -0.014365734 7.071068e-011 7.071068e-011 7.071068e-011 7.071068e-011
7515600000 0.021309678 0.015113527 0.0079864953 0.01910207 7.071068e-011 7.071068e-011 7.071068e-011 7.071068e-011
7524000000 -0.021641005 0.0030553839 -0.020593023 0.00056168583 7.071068e-011 7.071068e-011 7.071068e-011 7.071068e-011
7532400000 -0.033780511 0.060534466 0.0069817472 -0.019332889 7.071068e-011 7.071068e-011 7.071068e-011 7.071068e-011
7540800000 0.022757413 0.072650969 0.015565766 0.013299365 7.071068e-011 7.071068e-011 7.071068e-011 7.071068e-011
7549200000 0.019205816 0.022969346 -0.01769533 0.0093520861 7.071068e-011 7.071068e-011 7.071068e-011 7.071068e-011
7557600000 -0.018038945 0.060482975 -0.0021692296 -0.02002104 7.071068e-011 7.071068e-011 7.071068e-011 7.071068e-011
7566000000 0.047352511 0.084116615 0.019280795 0.0051871557 7.071068e-011 7.071068e-011 7.071068e-011 7.071068e-011
7574400000 0.061545044 0.0073796688 -0.012054195 0.015901772 7.071068e-011 7.071068e-011 7.071068e-011 7.071068e-011
7582800000 -0.010682124 0.015643913 -0.010385044 -0.017034568 7.071068e-011 7.071068e-011 7.071068e-011 7.071068e-011
7591200000 0.037428893 0.064506322 0.019399716 -0.0035060695 7.071068e-011 7.071068e-011 7.071068e-011 7.071068e-011
7599600000 0.058754429 -0.015616866 -0.0040122871 0.018992526 7.071068e-011 7.071068e-011 7.071068e-011 7.071068e-011
7608000000 -0.030883769 -0.019907452 -0.01645698 -0.011150332 7.071068e-011 7.071068e-011 7.071068e-011 7.071068e-011
7616400000 -0.014741108 0.056224383 0.016149953 -0.011461942 7.071068e-011 7.071068e-011 7.071068e-011 7.071068e-011
7624800000 0.031222681 0.0054615983 0.0044226209 0.01914002 7.071068e-011 7.071068e-011 7.071068e-011 7.071068e-011
7633200000 -0.052406657 -0.006484204 -0.019371951 -0.0029002966 7.071068e-011 7.071068e-011 7.071068e-011 7.071068e-011
7641600000 -0.038731758 0.087077171 0.0098648565 -0.0167441 7.071068e-011 7.071068e-011 7.071068e-011 7.071068e-011
7650000000 0.03836463 0.053135581 0.011871828 0.015477063 7.071068e-011 7.071068e-011 7.071068e-011 7.071068e-011
7658400000 -0.021708749 0.011283897 -0.018974595 0.0054548844 7.071068e-011 7.071068e-011 7.071068e-011 7.071068e-011
7666800000 -0.022235027 0.096620128 0.0017175328 -0.019374862 7.071068e-011 7.071068e-011 7.071068e-011 7.071068e-011
7675200000 0.069396779 0.0707082 0.016949851 0.0092347255 7.071068e-011 7.071068e-011 7.071068e-011 7.071068e-011
7683600000 0.031898644 -0.0033421726 -0.015125167 0.012623277 7.071068e-011 7.071068e-011 7.071068e-011 7.071068e-011
7692000000 -0.0051044319 0.04644461 -0.0062466329 -0.018560186 7.071068e-011 7.071068e-011 7.071068e-011 7.071068e-011
7700400000 0.06562949 0.044133376 0.019528538 0.0010361206 7.071068e-011 7.071068e-011 7.071068e-011 7.071068e-011
7708800000 0.03594251 -0.039886963 -0.0083517525 0.017682392 7.071068e-011 7.071068e-011 7.071068e-011 7.071068e-011
7717200000 -0.034088776 0.0006824559 -0.013321584 -0.014394567 7.071068e-011 7.071068e-011 7.071068e-011 7.071068e-011
7725600000 0.017429855 0.034355741 0.018319082 -0.0067859879 7.071068e-011 7.071068e-011 7.071068e-011 7.071068e-011
7734000000 0.01368415 -0.036565397 -0.00032992638 0.019731503 7.071068e-011 7.071068e-011 7.071068e-011 7.071068e-011
7742400000 -0.070774466 -0.011213409 -0.01794013 -0.0075114463 7.071068e-011 7.071068e-011 7.071068e-011 7.071068e-011
7750800000 -0.040330615 0.061576646 0.013948722 -0.013807294 7.071068e-011 7.071068e-011 7.071068e-011 7.071068e-011
7759200000 0.0012197726 0.025900323 0.0077043693 0.01816823 7.071068e-011 7.071068e-011 7.071068e-011 7.071068e-011
7767600000 -0.0531216 0.01898312 -0.019716781 0.00036669578 7.071068e-011 7.071068e-011 7.071068e-011 7.071068e-011
7776000000 -0.038095377 0.091286287 0.0070341132 -0.018248886 7.071068e-011 7.071068e-011 7.071068e-011 7.071068e-011
7784400000 0.031917464 0.068013988 0.014336605 0.013392157 7.071068e-011 7.071068e-011 7.071068e-011 7.071068e-011
7792800000 0.00083342433 0.024425484 -0.017663151 0.0081717614 7.071068e-011 7.071068e-011 7.071068e-011 7.071068e-011
7801200000 -0.0074483291 0.071006276 -0.00074399647 -0.019720808 7.071068e-011 7.071068e-011 7.071068e-011 7.071068e-011
7809600000 0.053319618 0.057663877 0.018589014 0.0064695948 7.071068e-011 7.071068e-011 7.071068e-011 7.071068e-011
7818000000 0.034898028 -0.0035472475 -0.01304269 0.014487307 7.071068e-011 7.071068e-011 7.071068e-011 7.071068e-011
7826400000 -0.0050611305 0.020328231 -0.008610202 -0.017628208 7.071068e-011 7.071068e-011 7.071068e-011 7.071068e-011
7834800000 0.032025114 0.032022126 0.019575337 -0.0013736011 7.071068e-011 7.071068e-011 7.071068e-011 7.071068e-011
7843200000 0.025843497 -0.019957047 -0.0060867472 0.018698277 7.071068e-011 7.071068e-011 7.071068e-011 7.071068e-011
7851600000 -0.02740654 -0.0046441955 -0.015034247 -0.01275657 7.071068e-011 7.071068e-011 7.071068e-011 7.071068e-011
7860000000 -0.0036183249 0.03114764 0.017358091 -0.0092062624 7.071068e-011 7.071068e-011 7.071068e-011 7.071068e-011
7868400000 0.010165494 -0.004205225 0.0017903479 0.019497471 7.071068e-011 7.071068e-011 7.071068e-011 7.071068e-011
7876800000 -0.036358416 -0.0031208105 -0.018953366 -0.0056532202 7.071068e-011 7.071068e-011 7.071068e-011 7.071068e-011
7885200000 -0.030117542 0.042916097 0.012163415 -0.015430314 7.071068e-011 7.071068e-011 7.071068e-011 7.071068e-011
7893600000 0.0083564902 0.036621522 0.009539512 0.016912071 7.071068e-011 7.071068e-011 7.071068e-011 7.071068e-011
7902000000 -0.0077913278 0.0090224855 -0.019386768 0.0022122639 7.071068e-011 7.071068e-011 7.071068e-011 7.071068e-011
7910400000 -0.021961611 0.039171629 0.0051194718 -0.018947981 7.071068e-011 7.071068e-011 7.071068e-011 7.071068e-011
7918800000 0.017628392 0.049302626 0.015413809 0.011715403 7.071068e-011 7.071068e-011 7.071068e-011 7.071068e-011
7927200000 0.028179862 0.0068014078 -0.016687609 0.0097366339 7.071068e-011 7.071068e-011 7.071068e-011 7.071068e-011
7935600000 -0.0079432875 0.0065583726 -0.0026469219 -0.019009855 7.071068e-011 7.071068e-011 7.071068e-011 7.071068e-011
7944000000 0.011174439 0.032532755 0.018539805 0.0048860987 7.071068e-011 7.071068e-011 7.071068e-011 7.071068e-011
7952400000 0.037205499 -0.0051336908 -0.011600295 0.015267442 7.071068e-011 7.071068e-011 7.071068e-011 7.071068e-011
7960800000 -0.014612555 -0.033745192 -0.0097882003 -0.01645603 7.071068e-011 7.071068e-011 7.071068e-011 7.071068e-011
7969200000 -0.029666519 0.021101413 0.018688088 -0.0026735018 7.071068e-011 7.071068e-011 7.071068e-011 7.071068e-011
7977600000 0.020638399 0.0068028229 -0.0047813705 0.018281806 7.071068e-011 7.071068e-011 7.071068e-011 7.071068e-011
7986000000 -0.024806824 -0.040048447 -0.015104363 -0.01133848 7.071068e-011 7.071068e-011 7.071068e-011 7.071068e-011
7994400000 -0.065046117 0.025419239 0.016147636 -0.0096241357 7.071068e-011 7.071068e-011 7.071068e-011 7.071068e-011
