!Keysight Technologies,N5235B,MY61252044,A.15.00.15
!Date: Friday, January 20, 2023 22:03:19
!Correction: S11(Off) 
!S21(Off) 
!S12(Off) 
!S22(Off) 
!S2P File: Measurements: S11, S21, S12, S22:
# Hz S  RI   R 50
6600000000 0.017595824 -0.17484911 0.01548176 -0.0030553523 7.071068e-011 7.071068e-011 7.071068e-011 7.071068e-011
6608408408.4084 -0.12369628 0.16650611 0.0053303051 0.010842725 7.071068e-011 7.071068e-011 7.071068e-011 7.071068e-011
6616816816.8168 0.30649057 0.091440909 -0.0089133652 0.003710469 7.071068e-011 7.071068e-011 7.071068e-011 7.071068e-011
6625225225.2252 0.023165669 -0.27287653 -0.0018002824 -0.0093095209 7.071068e-011 7.071068e-011 7.071068e-011 7.071068e-011
6633633633.6336 -0.16491924 0.16265583 0.0093409335 -0.0004077561 7.071068e-011 7.071068e-011 7.071068e-011 7.071068e-011
6642042042.042 0.29059315 0.11196058 -0.001839934 0.0093267867 7.071068e-011 7.071068e-011 7.071068e-011 7.071068e-011
6650450450.4505 0.037798446 -0.25214097 -0.010733739 -0.004075455 7.071068e-011 7.071068e-011 7.071068e-011 7.071068e-011
6658858858.8589 -0.1478557 0.13549463 0.005956572 -0.011507529 7.071068e-011 7.071068e-011 7.071068e-011 7.071068e-011
6667267267.2673 0.22912495 0.10039841 0.012217433 0.0091530802 7.071068e-011 7.071068e-011 7.071068e-011 7.071068e-011
6675675675.6757 0.042013492 -0.15124057 -0.011519583 0.013844542 7.071068e-011 7.071068e-011 7.071068e-011 7.071068e-011
6684084084.0841 -0.044194672 0.084780462 -0.014620032 -0.013335393 7.071068e-011 7.071068e-011 7.071068e-011 7.071068e-011
6692492492.4925 0.10614458 0.047260109 0.014811587 -0.014944888 7.071068e-011 7.071068e-011 7.071068e-011 7.071068e-011
6700900900.9009 0.085860834 0.018062837 0.014801326 0.015405048 7.071068e-011 7.071068e-011 7.071068e-011 7.071068e-011
6709309309.3093 0.07688117 -0.041810405 -0.01554595 0.013143242 7.071068e-011 7.071068e-011 7.071068e-011 7.071068e-011
6717717717.7177 -0.030984743 0.03483044 -0.010181139 -0.016477613 7.071068e-011 7.071068e-011 7.071068e-011 7.071068e-011
6726126126.1261 0.15554039 0.1158246 0.016801935 -0.007125116 7.071068e-011 7.071068e-011 7.071068e-011 7.071068e-011
6734534534.5345 0.12788382 -0.14092371 0.0035936788 0.016238028 7.071068e-011 7.071068e-011 7.071068e-011 7.071068e-011
6742942942.9429 -0.10777052 0.027516067 -0.015924204 -0.00024366396 7.071068e-011 7.071068e-011 7.071068e-011 7.071068e-011
6751351351.3514 0.17225549 0.15208659 0.0035848422 -0.015388291 7.071068e-011 7.071068e-011 7.071068e-011 7.071068e-011
6759759759.7598 0.14987853 -0.17203334 0.013207773 0.0070437472 7.071068e-011 7.071068e-011 7.071068e-011 7.071068e-011
6768168168.1682 -0.14698458 -0.0045224605 -0.010840516 0.01044193 7.071068e-011 7.071068e-011 7.071068e-011 7.071068e-011
6776576576.5766 0.13493778 0.17852856 -0.0080405343 -0.013461355 7.071068e-011 7.071068e-011 7.071068e-011 7.071068e-011
6784984984.985 0.15046103 -0.14679216 0.014556086 -0.0040536569 7.071068e-011 7.071068e-011 7.071068e-011 7.071068e-011
6793393393.3934 -0.14760959 -0.0056896759 -0.00031251422 0.015528517 7.071068e-011 7.071068e-011 7.071068e-011 7.071068e-011
6801801801.8018 0.10239121 0.20245543 -0.015733931 -0.00426273 7.071068e-011 7.071068e-011 7.071068e-011 7.071068e-011
6810210210.2102 0.17187482 -0.095571108 0.008645555 -0.014457462 7.071068e-011 7.071068e-011 7.071068e-011 7.071068e-011
6818618618.6186 -0.1056174 -0.0095931944 0.012179779 0.013214463 7.071068e-011 7.071068e-011 7.071068e-011 7.071068e-011
6827027027.027 0.088555962 0.1854029 -0.015947375 0.0092485268 7.071068e-011 7.071068e-011 7.071068e-011 7.071068e-011
6835435435.4354 0.18113571 -0.049354535 -0.0045222039 -0.017893156 7.071068e-011 7.071068e-011 7.071068e-011 7.071068e-011
6843843843.8438 -0.04576616 -0.0275166 0.0201797 0.00020121492 7.071068e-011 7.071068e-011 7.071068e-011 7.071068e-011
6852252252.2523 0.075259179 0.12930009 -0.0045379568 0.02031697 7.071068e-011 7.071068e-011 7.071068e-011 7.071068e-011
6860660660.6607 0.14495765 -0.020676376 -0.018633209 -0.0095712785 7.071068e-011 7.071068e-011 7.071068e-011 7.071068e-011
6869069069.0691 0.0038906974 -0.026771516 0.01448604 -0.016129686 7.071068e-011 7.071068e-011 7.071068e-011 7.071068e-011
6877477477.4775 0.054308794 0.072653048 0.012725526 0.018068319 7.071068e-011 7.071068e-011 7.071068e-011 7.071068e-011
6885885885.8859 0.090367548 0.0067094592 -0.020439336 0.0077535491 7.071068e-011 7.071068e-011 7.071068e-011 7.071068e-011
6894294294.2943 0.047118604 -0.0010000505 -0.0023602194 -0.02201722 7.071068e-011 7.071068e-011 7.071068e-011 7.071068e-011
6902702702.7027 0.038226292 0.019473016 0.022003993 0.0031935403 7.071068e-011 7.071068e-011 7.071068e-011 7.071068e-011
6911111111.1111 0.031101653 0.037703499 -0.0087350151 0.020240096 7.071068e-011 7.071068e-011 7.071068e-011 7.071068e-011
6919519519.5195 0.078333467 0.049749676 -0.016984891 -0.013585032 7.071068e-011 7.071068e-011 7.071068e-011 7.071068e-011
6927927927.9279 0.050505087 -0.01237704 0.01721755 -0.012822461 7.071068e-011 7.071068e-011 7.071068e-011 7.071068e-011
6936336336.3363 -0.0020322925 0.062475603 0.0073225368 0.019462937 7.071068e-011 7.071068e-011 7.071068e-011 7.071068e-011
6944744744.7447 0.11267563 0.089072153 -0.020841995 0.0011998129 7.071068e-011 7.071068e-011 7.071068e-011 7.071068e-011
6953153153.1532 0.083883226 -0.045656089 0.0044361558 -0.020014213 7.071068e-011 7.071068e-011 7.071068e-011 7.071068e-011
6961561561.5616 -0.028222591 0.054926924 0.017369522 0.009906942 7.071068e-011 7.071068e-011 7.071068e-011 7.071068e-011
6969969969.97 0.12506159 0.10555544 -0.014481393 0.013589322 7.071068e-011 7.071068e-011 7.071068e-011 7.071068e-011
6978378378.3784 0.10118186 -0.071059115 -0.0084338337 -0.017353507 7.071068e-011 7.071068e-011 7.071068e-011 7.071068e-011
6986786786.7868 -0.064063318 0.033367023 0.018730981 -0.0023329086 7.071068e-011 7.071068e-011 7.071068e-011 7.071068e-011
6995195195.1952 0.10354055 0.13360536 -0.0035024921 0.018931406 7.071068e-011 7.071068e-011 7.071068e-011 7.071068e-011
7003603603.6036 0.10837993 -0.058282726 -0.016633689 -0.0088589769 7.071068e-011 7.071068e-011 7.071068e-011 7.071068e-011
7012012012.012 -0.072784685 0.033153314 0.014089119 -0.01251563 7.071068e-011 7.071068e-011 7.071068e-011 7.071068e-011
7020420420.4204 0.088676572 0.16122046 0.0078439713 0.017307924 7.071068e-011 7.071068e-011 7.071068e-011 7.071068e-011
7028828828.8288 0.13216053 -0.029525779 -0.018527551 0.0018850864 7.071068e-011 7.071068e-011 7.071068e-011 7.071068e-011
7037237237.2372 -0.054202713 0.031344261 0.0043663722 -0.018659882 7.071068e-011 7.071068e-011 7.071068e-011 7.071068e-011
7045645645.6456 0.090688199 0.17081444 0.016479179 0.0097546997 7.071068e-011 7.071068e-011 7.071068e-011 7.071068e-011
7054054054.0541 0.16727364 -0.0036336072 -0.014644307 0.012092305 7.071068e-011 7.071068e-011 7.071068e-011 7.071068e-011
7062462462.4625 -0.0084713735 -0.0034800738 -0.0068879756 -0.018460723 7.071068e-011 7.071068e-011 7.071068e-011 7.071068e-011
7070870870.8709 0.078844249 0.14046736 0.019774938 -0.0012558415 7.071068e-011 7.071068e-011 7.071068e-011 7.071068e-011
7079279279.2793 0.16820893 0.0068480731 -0.0054960512 0.018818745 7.071068e-011 7.071068e-011 7.071068e-011 7.071068e-011
7087687687.6877 0.032145582 -0.026652886 -0.016683437 -0.011446352 7.071068e-011 7.071068e-011 7.071068e-011 7.071068e-011
7096096096.0961 0.059927303 0.08946383 0.015908394 -0.012534208 7.071068e-011 7.071068e-011 7.071068e-011 7.071068e-011
7104504504.5045 0.14779598 0.0099798637 0.0065920991 0.019126657 7.071068e-011 7.071068e-011 7.071068e-011 7.071068e-011
7112912912.9129 0.050523829 -0.044509988 -0.020649625 -6.6082226e-005 7.071068e-011 7.071068e-011 7.071068e-011 7.071068e-011
7121321321.3213 0.034602996 0.032123905 0.006247852 -0.019867379 7.071068e-011 7.071068e-011 7.071068e-011 7.071068e-011
7129729729.7297 0.089438431 0.014243255 0.016487874 0.012033721 7.071068e-011 7.071068e-011 7.071068e-011 7.071068e-011
7138138138.1381 0.043178249 -0.037843779 -0.017157082 0.011756424 7.071068e-011 7.071068e-011 7.071068e-011 7.071068e-011
7146546546.5465 -0.00049030868 0.013833933 -0.005911754 -0.020108482 7.071068e-011 7.071068e-011 7.071068e-011 7.071068e-011
7154954954.955 0.030833272 0.04125651 0.02081137 0.00079081894 7.071068e-011 7.071068e-011 7.071068e-011 7.071068e-011
7163363363.3634 0.044854209 0.015583354 -0.0076057184 0.019127946 7.071068e-011 7.071068e-011 7.071068e-011 7.071068e-011
7171771771.7718 0.0010685402 0.020409118 -0.015793866 -0.01343579 7.071068e-011 7.071068e-011 7.071068e-011 7.071068e-011
7180180180.1802 0.018626999 0.07260783 0.017595295 -0.01045062 7.071068e-011 7.071068e-011 7.071068e-011 7.071068e-011
7188588588.5886 0.067812651 0.055959236 0.0039448887 0.020445826 7.071068e-011 7.071068e-011 7.071068e-011 7.071068e-011
7196996996.997 0.039648864 0.010144848 -0.020626092 -0.0026801014 7.071068e-011 7.071068e-011 7.071068e-011 7.071068e-011
7205405405.4054 0.012420401 0.067337528 0.0094941631 -0.018034574 7.071068e-011 7.071068e-011 7.071068e-011 7.071068e-011
7213813813.8138 0.083367072 0.067041896 0.013897767 0.015156024 7.071068e-011 7.071068e-011 7.071068e-011 7.071068e-011
7222222222.2222 0.065967798 -0.0055716648 -0.018971153 0.008284295 7.071068e-011 7.071068e-011 7.071068e-011 7.071068e-011
7230630630.6306 -0.0012941451 0.035417575 -0.0015018518 -0.020495854 7.071068e-011 7.071068e-011 7.071068e-011 7.071068e-011
7239039039.039 0.071793847 0.075464867 0.019977931 0.0057921018 7.071068e-011 7.071068e-011 7.071068e-011 7.071068e-011
7247447447.4474 0.07503432 -0.014993632 -0.011966488 0.017023366 7.071068e-011 7.071068e-011 7.071068e-011 7.071068e-011
7255855855.8559 -0.016698213 0.0076351292 -0.011655016 -0.016989831 7.071068e-011 7.071068e-011 7.071068e-011 7.071068e-011
7264264264.2643 0.035203706 0.084037371 0.020113597 -0.0054128044 7.071068e-011 7.071068e-011 7.071068e-011 7.071068e-011
7272672672.6727 0.074228838 0.00035051798 -0.0014536011 0.020549679 7.071068e-011 7.071068e-011 7.071068e-011 7.071068e-011
7281081081.0811 -0.030074475 0.001067422 -0.018758718 -0.0083989063 7.071068e-011 7.071068e-011 7.071068e-011 7.071068e-011
7289489489.4895 0.0003110886 0.10770449 0.014659754 -0.014669635 7.071068e-011 7.071068e-011 7.071068e-011 7.071068e-011
7297897897.8979 0.084946543 0.050314013 0.008866596 0.018806539 7.071068e-011 7.071068e-011 7.071068e-011 7.071068e-011
7306306306.3063 0.00076711096 0.0090210941 -0.020580219 0.0016441625 7.071068e-011 7.071068e-011 7.071068e-011 7.071068e-011
7314714714.7147 0.004364159 0.11302119 0.0053371568 -0.020316888 7.071068e-011 7.071068e-011 7.071068e-011 7.071068e-011
7323123123.1231 0.11278486 0.075042576 0.017051376 0.011683481 7.071068e-011 7.071068e-011 7.071068e-011 7.071068e-011
7331531531.5315 0.050885551 -0.011800725 -0.017298343 0.011774902 7.071068e-011 7.071068e-011 7.071068e-011 7.071068e-011
7339939939.9399 0.0080883531 0.068960391 -0.0053890138 -0.020541955 7.071068e-011 7.071068e-011 7.071068e-011 7.071068e-011
7348348348.3483 0.10568789 0.063406713 0.020933338 0.0018590288 7.071068e-011 7.071068e-011 7.071068e-011 7.071068e-011
7356756756.7568 0.065845869 -0.037057251 -0.0091455271 0.018825822 7.071068e-011 7.071068e-011 7.071068e-011 7.071068e-011
7365165165.1652 -0.010173691 0.021190358 -0.014798871 -0.015150888 7.071068e-011 7.071068e-011 7.071068e-011 7.071068e-011
7373573573.5736 0.061804038 0.049670245 0.018991807 -0.0086307051 7.071068e-011 7.071068e-011 7.071068e-011 7.071068e-011
7381981981.982 0.043724738 -0.035543654 0.0011391864 0.021126617 7.071068e-011 7.071068e-011 7.071068e-011 7.071068e-011
7390390390.3904 -0.043141413 0.0099458853 -0.020362364 -0.0060920501 7.071068e-011 7.071068e-011 7.071068e-011 7.071068e-011
7398798798.7988 0.013248377 0.071156599 0.012840905 -0.016749101 7.071068e-011 7.071068e-011 7.071068e-011 7.071068e-011
7407207207.2072 0.027775643 0.0096292663 0.011253748 0.017952304 7.071068e-011 7.071068e-011 7.071068e-011 7.071068e-011
7415615615.6156 -0.041055191 0.035567157 -0.020866644 0.0044632209 7.071068e-011 7.071068e-011 7.071068e-011 7.071068e-011
7424024024.024 0.0069914446 0.10503045 0.0029899559 -0.021055821 7.071068e-011 7.071068e-011 7.071068e-011 7.071068e-011
7432432432.4324 0.054650921 0.053937308 0.018717153 0.010358394 7.071068e-011 7.071068e-011 7.071068e-011 7.071068e-011
7440840840.8408 0.0096556609 0.042461086 -0.016093988 0.014117531 7.071068e-011 7.071068e-011 7.071068e-011 7.071068e-011
7449249249.2492 0.030401479 0.087198682 -0.0073985541 -0.019854818 7.071068e-011 7.071068e-011 7.071068e-011 7.071068e-011
7457657657.6577 0.077973075 0.048829693 0.021266187 9.7142693e-005 7.071068e-011 7.071068e-011 7.071068e-011 7.071068e-011
7466066066.0661 0.041614652 0.014111302 -0.0074548358 0.019971082 7.071068e-011 7.071068e-011 7.071068e-011 7.071068e-011
7474474474.4745 0.030577086 0.039440468 -0.015992055 -0.013784671 7.071068e-011 7.071068e-011 7.071068e-011 7.071068e-011
7482882882.8829 0.059964661 0.029015588 0.018605055 -0.0098690949 7.071068e-011 7.071068e-011 7.071068e-011 7.071068e-011
7491291291.2913 0.038807355 -0.013428332 0.0027166943 0.020927941 7.071068e-011 7.071068e-011 7.071068e-011 7.071068e-011
7499699699.6997 -0.0033543583 0.0025150995 -0.020385863 -0.0048575192 7.071068e-011 7.071068e-011 7.071068e-011 7.071068e-011
7508108108.1081 0.0034161231 0.031950165 0.01169657 -0.017364798 7.071068e-011 7.071068e-011 7.071068e-011 7.071068e-011
7516516516.5165 0.019363508 0.011808126 0.012054111 0.016957067 7.071068e-011 7.071068e-011 7.071068e-011 7.071068e-011
7524924924.9249 -0.026520152 0.0066729812 -0.020019626 0.0051420112 7.071068e-011 7.071068e-011 7.071068e-011 7.071068e-011
7533333333.3333 -0.029695673 0.066082269 0.0024755562 -0.020515043 7.071068e-011 7.071068e-011 7.071068e-011 7.071068e-011
7541741741.7417 0.027903972 0.068726785 0.018289333 0.0094310436 7.071068e-011 7.071068e-011 7.071068e-011 7.071068e-011
7550150150.1502 0.012830514 0.020581339 -0.015180674 0.013272361 7.071068e-011 7.071068e-011 7.071068e-011 7.071068e-011
7558558558.5586 -0.015273171 0.068633661 -0.0069112494 -0.019022837 7.071068e-011 7.071068e-011 7.071068e-011 7.071068e-011
7566966966.967 0.055766739 0.07798446 0.020004939 0.00042615258 7.071068e-011 7.071068e-011 7.071068e-011 7.071068e-011
7575375375.3754 0.053389773 0.00086397177 -0.0078610694 0.018487388 7.071068e-011 7.071068e-011 7.071068e-011 7.071068e-011
7583783783.7838 -0.011896176 0.024247197 -0.014442514 -0.014041302 7.071068e-011 7.071068e-011 7.071068e-011 7.071068e-011
7592192192.1922 0.045708261 0.060552277 0.017987104 -0.0083670532 7.071068e-011 7.071068e-011 7.071068e-011 7.071068e-011
7600600600.6006 0.051614016 -0.024498561 0.00092602876 0.01948479 7.071068e-011 7.071068e-011 7.071068e-011 7.071068e-011
7609009009.009 -0.03805289 -0.010572509 -0.018900279 -0.0064896415 7.071068e-011 7.071068e-011 7.071068e-011 7.071068e-011
7617417417.4174 -0.0049340297 0.058125112 0.012584163 -0.015356272 7.071068e-011 7.071068e-011 7.071068e-011 7.071068e-011
7625825825.8258 0.026307013 -0.0043063471 0.0094750579 0.017379219 7.071068e-011 7.071068e-011 7.071068e-011 7.071068e-011
7634234234.2342 -0.06079378 0.0041633784 -0.019545197 0.0024973233 7.071068e-011 7.071068e-011 7.071068e-011 7.071068e-011
7642642642.6426 -0.026372682 0.091722861 0.004936602 -0.018919121 7.071068e-011 7.071068e-011 7.071068e-011 7.071068e-011
7651051051.0511 0.037518606 0.042249821 0.015784834 0.011664534 7.071068e-011 7.071068e-011 7.071068e-011 7.071068e-011
7659459459.4595 -0.030024704 0.018247869 -0.016752262 0.010709678 7.071068e-011 7.071068e-011 7.071068e-011 7.071068e-011
7667867867.8679 -0.011374649 0.10258534 -0.0039459257 -0.019112503 7.071068e-011 7.071068e-011 7.071068e-011 7.071068e-011
7676276276.2763 0.073891282 0.058801197 0.019108487 0.0039127185 7.071068e-011 7.071068e-011 7.071068e-011 7.071068e-011
7684684684.6847 0.021205517 -0.0038765436 -0.010729969 0.01664944 7.071068e-011 7.071068e-011 7.071068e-011 7.071068e-011
7693093093.0931 0.00077137974 0.054564126 -0.011527235 -0.015940061 7.071068e-011 7.071068e-011 7.071068e-011 7.071068e-011
7701501501.5015 0.071189813 0.032425713 0.019018166 -0.0048890696 7.071068e-011 7.071068e-011 7.071068e-011 7.071068e-011
7709909909.9099 0.023149494 -0.04253922 -0.0025571815 0.01952697 7.071068e-011 7.071068e-011 7.071068e-011 7.071068e-011
7718318318.3183 -0.033136211 0.011064309 -0.017248962 -0.0095458254 7.071068e-011 7.071068e-011 7.071068e-011 7.071068e-011
7726726726.7267 0.024590291 0.027699882 0.015416767 -0.012288049 7.071068e-011 7.071068e-011 7.071068e-011 7.071068e-011
7735135135.1351 0.0027000587 -0.041400272 0.0059922691 0.018946886 7.071068e-011 7.071068e-011 7.071068e-011 7.071068e-011
7743543543.5435 -0.075042278 -4.1911262e-005 -0.019546915 -0.0014006871 7.071068e-011 7.071068e-011 7.071068e-011 7.071068e-011
7751951951.952 -0.030221524 0.064290248 0.0086788926 -0.01772253 7.071068e-011 7.071068e-011 7.071068e-011 7.071068e-011
7760360360.3604 -0.0026926294 0.017305726 0.013302847 0.014627252 7.071068e-011 7.071068e-011 7.071068e-011 7.071068e-011
7768768768.7688 -0.058433175 0.028527264 -0.018573673 0.006932863 7.071068e-011 7.071068e-011 7.071068e-011 7.071068e-011
7777177177.1772 -0.027119255 0.095625147 0.00053155888 -0.019732753 7.071068e-011 7.071068e-011 7.071068e-011 7.071068e-011
7785585585.5856 0.033862717 0.05786676 0.01816201 0.0077654137 7.071068e-011 7.071068e-011 7.071068e-011 7.071068e-011
7793993993.994 -0.0057132486 0.027846372 -0.013871295 0.013747091 7.071068e-011 7.071068e-011 7.071068e-011 7.071068e-011
7802402402.4024 -0.00036100778 0.075011536 -0.0076360535 -0.018360013 7.071068e-011 7.071068e-011 7.071068e-011 7.071068e-011
7810810810.8108 0.058060255 0.048803397 0.019785814 -0.00051550969 7.071068e-011 7.071068e-011 7.071068e-011 7.071068e-011
7819219219.2192 0.025908628 -0.0064300504 -0.0070851655 0.018369343 7.071068e-011 7.071068e-011 7.071068e-011 7.071068e-011
7827627627.6276 -0.0036102235 0.02695463 -0.014456885 -0.013419473 7.071068e-011 7.071068e-011 7.071068e-011 7.071068e-011
7836036036.036 0.037608672 0.025715984 0.017827723 -0.0084065171 7.071068e-011 7.071068e-011 7.071068e-011 7.071068e-011
7844444444.4444 0.016444732 -0.023844903 0.0011835315 0.019726925 7.071068e-011 7.071068e-011 7.071068e-011 7.071068e-011
7852852852.8529 -0.028302984 0.0031276895 -0.018823439 -0.0062978948 7.071068e-011 7.071068e-011 7.071068e-011 7.071068e-011
7861261261.2613 0.0018247516 0.02948904 0.012729187 -0.015097433 7.071068e-011 7.071068e-011 7.071068e-011 7.071068e-011
7869669669.6697 0.0054191179 -0.0093394164 0.0090757785 0.01753776 7.071068e-011 7.071068e-011 7.071068e-011 7.071068e-011
7878078078.0781 -0.040456735 0.0034842601 -0.019814486 0.002025069 7.071068e-011 7.071068e-011 7.071068e-011 7.071068e-011
7886486486.4865 -0.024331136 0.046965595 0.0053265663 -0.019047817 7.071068e-011 7.071068e-011 7.071068e-011 7.071068e-011
7894894894.8949 0.010932719 0.030196611 0.01545502 0.011945608 7.071068e-011 7.071068e-011 7.071068e-011 7.071068e-011
7903303303.3033 -0.013611359 0.011104434 -0.017069839 0.0097528137 7.071068e-011 7.071068e-011 7.071068e-011 7.071068e-011
7911711711.7117 -0.017809406 0.044044591 -0.002830995 -0.019488543 7.071068e-011 7.071068e-011 7.071068e-011 7.071068e-011
7920120120.1201 0.023173481 0.044829588 0.018923778 0.0046664188 7.071068e-011 7.071068e-011 7.071068e-011 7.071068e-011
7928528528.5285 0.023522379 0.0019098172 -0.011413689 0.015772754 7.071068e-011 7.071068e-011 7.071068e-011 7.071068e-011
7936936936.9369 -0.0099731348 0.011286655 -0.010214779 -0.01636216 7.071068e-011 7.071068e-011 7.071068e-011 7.071068e-011
7945345345.3453 0.017941039 0.032105211 0.019022118 -0.0031498244 7.071068e-011 7.071068e-011 7.071068e-011 7.071068e-011
