!Keysight Technologies,N5235B,MY61252044,A.15.00.15
!Date: Friday, January 20, 2023 23:52:32
!Correction: S11(Off) 
!S21(Off) 
!S12(Off) 
!S22(Off) 
!S2P File: Measurements: S11, S21, S12, S22:
# Hz S  RI   R 50
6600000000 0.018994529 -0.17543848 0.015460496 -0.0030426313 7.071068e-011 7.071068e-011 7.071068e-011 7.071068e-011
6608408408.4084 -0.12493236 0.16515742 0.0053010713 0.010843485 7.071068e-011 7.071068e-011 7.071068e-011 7.071068e-011
6616816816.8168 0.30571267 0.093243204 -0.0089175971 0.0036851333 7.071068e-011 7.071068e-011 7.071068e-011 7.071068e-011
6625225225.2252 0.025294671 -0.27293092 -0.0017712909 -0.009313439 7.071068e-011 7.071068e-011 7.071068e-011 7.071068e-011
6633633633.6336 -0.16604559 0.16077127 0.0093449093 -0.00037709335 7.071068e-011 7.071068e-011 7.071068e-011 7.071068e-011
6642042042.042 0.28951287 0.11374361 -0.0018650159 0.0093252091 7.071068e-011 7.071068e-011 7.071068e-011 7.071068e-011
6650450450.4505 0.039800256 -0.25201318 -0.010727576 -0.0041084439 7.071068e-011 7.071068e-011 7.071068e-011 7.071068e-011
6658858858.8589 -0.14867827 0.13386054 0.0059961244 -0.011497128 7.071068e-011 7.071068e-011 7.071068e-011 7.071068e-011
6667267267.2673 0.22821485 0.10163369 0.012202806 0.0091880048 7.071068e-011 7.071068e-011 7.071068e-011 7.071068e-011
6675675675.6757 0.043251541 -0.15098974 -0.011565641 0.013819535 7.071068e-011 7.071068e-011 7.071068e-011 7.071068e-011
6684084084.0841 -0.044401687 0.083836801 -0.014597947 -0.013382022 7.071068e-011 7.071068e-011 7.071068e-011 7.071068e-011
6692492492.4925 0.10554095 0.047592819 0.014844083 -0.014920245 7.071068e-011 7.071068e-011 7.071068e-011 7.071068e-011
6700900900.9009 0.086074136 0.01844612 0.014760533 0.015438889 7.071068e-011 7.071068e-011 7.071068e-011 7.071068e-011
6709309309.3093 0.077346414 -0.041870054 -0.015572736 0.013100747 7.071068e-011 7.071068e-011 7.071068e-011 7.071068e-011
6717717717.7177 -0.031193886 0.034073524 -0.010129246 -0.016497429 7.071068e-011 7.071068e-011 7.071068e-011 7.071068e-011
6726126126.1261 0.15470839 0.11652264 0.016818007 -0.007067801 7.071068e-011 7.071068e-011 7.071068e-011 7.071068e-011
6734534534.5345 0.12909538 -0.14043835 0.003539013 0.016246874 7.071068e-011 7.071068e-011 7.071068e-011 7.071068e-011
6742942942.9429 -0.10796086 0.026079418 -0.015922306 -0.00029673002 7.071068e-011 7.071068e-011 7.071068e-011 7.071068e-011
6751351351.3514 0.17105667 0.15293363 0.0036401912 -0.015378185 7.071068e-011 7.071068e-011 7.071068e-011 7.071068e-011
6759759759.7598 0.15115704 -0.17127356 0.013182619 0.0070898808 7.071068e-011 7.071068e-011 7.071068e-011 7.071068e-011
6768168168.1682 -0.14683686 -0.0060736039 -0.010874568 0.010404699 7.071068e-011 7.071068e-011 7.071068e-011 7.071068e-011
6776576576.5766 0.13344447 0.1791032 -0.0079914397 -0.013492005 7.071068e-011 7.071068e-011 7.071068e-011 7.071068e-011
6784984984.985 0.15164976 -0.14571786 0.014572378 -0.0040007951 7.071068e-011 7.071068e-011 7.071068e-011 7.071068e-011
6793393393.3934 -0.14721817 -0.0072435741 -0.00036441736 0.015530927 7.071068e-011 7.071068e-011 7.071068e-011 7.071068e-011
6801801801.8018 0.1008643 0.20283115 -0.015721792 -0.0043189162 7.071068e-011 7.071068e-011 7.071068e-011 7.071068e-011
6810210210.2102 0.17286843 -0.094460994 0.0087003382 -0.014428946 7.071068e-011 7.071068e-011 7.071068e-011 7.071068e-011
6818618618.6186 -0.10514797 -0.010862294 0.01213334 0.013259685 7.071068e-011 7.071068e-011 7.071068e-011 7.071068e-011
6827027027.027 0.087359317 0.18549092 -0.015982335 0.0091938796 7.071068e-011 7.071068e-011 7.071068e-011 7.071068e-011
6835435435.4354 0.18162344 -0.048363272 -0.0044594421 -0.017911993 7.071068e-011 7.071068e-011 7.071068e-011 7.071068e-011
6843843843.8438 -0.045123328 -0.028346397 0.020183232 0.00027471036 7.071068e-011 7.071068e-011 7.071068e-011 7.071068e-011
6852252252.2523 0.074320711 0.12914284 -0.0046082595 0.02030674 7.071068e-011 7.071068e-011 7.071068e-011 7.071068e-011
6860660660.6607 0.14522049 -0.019886447 -0.018601257 -0.0096345535 7.071068e-011 7.071068e-011 7.071068e-011 7.071068e-011
6869069069.0691 0.0043526902 -0.027302038 0.014546019 -0.016075365 7.071068e-011 7.071068e-011 7.071068e-011 7.071068e-011
6877477477.4775 0.053823508 0.072547875 0.012665861 0.01811442 7.071068e-011 7.071068e-011 7.071068e-011 7.071068e-011
6885885885.8859 0.090384252 0.0069672558 -0.020471757 0.0076786354 7.071068e-011 7.071068e-011 7.071068e-011 7.071068e-011
6894294294.2943 0.047284935 -0.00095615204 -0.0022787047 -0.02203038 7.071068e-011 7.071068e-011 7.071068e-011 7.071068e-011
6902702702.7027 0.038300741 0.019259378 0.022000059 0.0032681993 7.071068e-011 7.071068e-011 7.071068e-011 7.071068e-011
6911111111.1111 0.030838059 0.037648432 -0.0088119246 0.02021143 7.071068e-011 7.071068e-011 7.071068e-011 7.071068e-011
6919519519.5195 0.078323409 0.050038487 -0.016937342 -0.013644384 7.071068e-011 7.071068e-011 7.071068e-011 7.071068e-011
6927927927.9279 0.050822366 -0.012415305 0.017263031 -0.012763111 7.071068e-011 7.071068e-011 7.071068e-011 7.071068e-011
6936336336.3363 -0.0021794625 0.062056351 0.0072479667 0.019492481 7.071068e-011 7.071068e-011 7.071068e-011 7.071068e-011
6944744744.7447 0.11221915 0.08947736 -0.020845255 0.0011224886 7.071068e-011 7.071068e-011 7.071068e-011 7.071068e-011
6953153153.1532 0.084588215 -0.045400895 0.0045130788 -0.019995993 7.071068e-011 7.071068e-011 7.071068e-011 7.071068e-011
6961561561.5616 -0.028401872 0.054081243 0.017329877 0.00998093 7.071068e-011 7.071068e-011 7.071068e-011 7.071068e-011
6969969969.97 0.12440057 0.10614214 -0.014535978 0.01353748 7.071068e-011 7.071068e-011 7.071068e-011 7.071068e-011
6978378378.3784 0.1020026 -0.0707215 -0.0083696609 -0.0173878 7.071068e-011 7.071068e-011 7.071068e-011 7.071068e-011
6986786786.7868 -0.064122759 0.032462779 0.018741883 -0.0022623036 7.071068e-011 7.071068e-011 7.071068e-011 7.071068e-011
6995195195.1952 0.10275186 0.13400784 -0.0035757085 0.018919699 7.071068e-011 7.071068e-011 7.071068e-011 7.071068e-011
7003603603.6036 0.10908596 -0.05767918 -0.01659889 -0.0089254398 7.071068e-011 7.071068e-011 7.071068e-011 7.071068e-011
7012012012.012 -0.072543792 0.032157883 0.014140081 -0.012458463 7.071068e-011 7.071068e-011 7.071068e-011 7.071068e-011
7020420420.4204 0.087653257 0.16147053 0.0077738566 0.017343687 7.071068e-011 7.071068e-011 7.071068e-011 7.071068e-011
7028828828.8288 0.1328789 -0.028717741 -0.018538624 0.0018082721 7.071068e-011 7.071068e-011 7.071068e-011 7.071068e-011
7037237237.2372 -0.053890992 0.030312112 0.0044457382 -0.018650562 7.071068e-011 7.071068e-011 7.071068e-011 7.071068e-011
7045645645.6456 0.089742392 0.17097791 0.016446922 0.0098273633 7.071068e-011 7.071068e-011 7.071068e-011 7.071068e-011
7054054054.0541 0.16772632 -0.0028883882 -0.014695654 0.012038377 7.071068e-011 7.071068e-011 7.071068e-011 7.071068e-011
7062462462.4625 -0.007987855 -0.0041738632 -0.0068184515 -0.01848908 7.071068e-011 7.071068e-011 7.071068e-011 7.071068e-011
7070870870.8709 0.078071572 0.14029773 0.019783868 -0.0011758873 7.071068e-011 7.071068e-011 7.071068e-011 7.071068e-011
7079279279.2793 0.16831443 0.0076037501 -0.0055678431 0.01879843 7.071068e-011 7.071068e-011 7.071068e-011 7.071068e-011
7087687687.6877 0.032795493 -0.027098833 -0.016640224 -0.011509986 7.071068e-011 7.071068e-011 7.071068e-011 7.071068e-011
7096096096.0961 0.059247017 0.089124672 0.015962699 -0.012471247 7.071068e-011 7.071068e-011 7.071068e-011 7.071068e-011
7104504504.5045 0.14780581 0.010625151 0.0065170969 0.019155962 7.071068e-011 7.071068e-011 7.071068e-011 7.071068e-011
7112912912.9129 0.050974648 -0.044766504 -0.020651814 -0.00014913277 7.071068e-011 7.071068e-011 7.071068e-011 7.071068e-011
7121321321.3213 0.034308776 0.031854384 0.0063324501 -0.019846112 7.071068e-011 7.071068e-011 7.071068e-011 7.071068e-011
7129729729.7297 0.089226149 0.014510436 0.016444586 0.012105144 7.071068e-011 7.071068e-011 7.071068e-011 7.071068e-011
7138138138.1381 0.043487459 -0.037696104 -0.017207915 0.011692093 7.071068e-011 7.071068e-011 7.071068e-011 7.071068e-011
7146546546.5465 -0.00046602401 0.013461651 -0.0058345632 -0.020136531 7.071068e-011 7.071068e-011 7.071068e-011 7.071068e-011
7154954954.955 0.030477636 0.04137389 0.020813191 0.00087664975 7.071068e-011 7.071068e-011 7.071068e-011 7.071068e-011
7163363363.3634 0.045083847 0.015835157 -0.0076802131 0.019098977 7.071068e-011 7.071068e-011 7.071068e-011 7.071068e-011
7171771771.7718 0.0011773411 0.020156236 -0.015740398 -0.013503071 7.071068e-011 7.071068e-011 7.071068e-011 7.071068e-011
7180180180.1802 0.018428985 0.072543196 0.017643904 -0.010377989 7.071068e-011 7.071068e-011 7.071068e-011 7.071068e-011
7188588588.5886 0.067700982 0.056189995 0.0038632615 0.020467872 7.071068e-011 7.071068e-011 7.071068e-011 7.071068e-011
7196996996.997 0.040024575 0.010187986 -0.020619871 -0.0027667726 7.071068e-011 7.071068e-011 7.071068e-011 7.071068e-011
7205405405.4054 0.012237102 0.066917509 0.0095698889 -0.018002454 7.071068e-011 7.071068e-011 7.071068e-011 7.071068e-011
7213813813.8138 0.083075918 0.067415088 0.013843494 0.015214641 7.071068e-011 7.071068e-011 7.071068e-011 7.071068e-011
7222222222.2222 0.066421762 -0.0054915794 -0.019011267 0.0082104094 7.071068e-011 7.071068e-011 7.071068e-011 7.071068e-011
7230630630.6306 -0.0013932419 0.034990299 -0.0014236721 -0.020507205 7.071068e-011 7.071068e-011 7.071068e-011 7.071068e-011
7239039039.039 0.071445592 0.075658873 0.019955764 0.0058745132 7.071068e-011 7.071068e-011 7.071068e-011 7.071068e-011
7247447447.4474 0.075304553 -0.014712599 -0.012040716 0.016976675 7.071068e-011 7.071068e-011 7.071068e-011 7.071068e-011
7255855855.8559 -0.016471822 0.0072078989 -0.011586137 -0.017041722 7.071068e-011 7.071068e-011 7.071068e-011 7.071068e-011
7264264264.2643 0.034615312 0.083997019 0.020141773 -0.0053303572 7.071068e-011 7.071068e-011 7.071068e-011 7.071068e-011
7272672672.6727 0.074492447 0.00092766684 -0.0015383322 0.020552797 7.071068e-011 7.071068e-011 7.071068e-011 7.071068e-011
7281081081.0811 -0.029700177 0.00055051764 -0.018733284 -0.0084733982 7.071068e-011 7.071068e-011 7.071068e-011 7.071068e-011
7289489489.4895 -0.00028152918 0.10759421 0.014719226 -0.014612016 7.071068e-011 7.071068e-011 7.071068e-011 7.071068e-011
7297897897.8979 0.085049331 0.050836418 0.0087918155 0.018844955 7.071068e-011 7.071068e-011 7.071068e-011 7.071068e-011
7306306306.3063 0.0011966442 0.0087888306 -0.020589467 0.0015598595 7.071068e-011 7.071068e-011 7.071068e-011 7.071068e-011
7314714714.7147 0.004013163 0.11264179 0.0054210392 -0.02029641 7.071068e-011 7.071068e-011 7.071068e-011 7.071068e-011
7323123123.1231 0.11251967 0.07554248 0.017004428 0.011758446 7.071068e-011 7.071068e-011 7.071068e-011 7.071068e-011
7331531531.5315 0.051514927 -0.011789913 -0.017355602 0.0117013 7.071068e-011 7.071068e-011 7.071068e-011 7.071068e-011
7339939939.9399 0.0077763018 0.068362601 -0.005304473 -0.020577827 7.071068e-011 7.071068e-011 7.071068e-011 7.071068e-011
7348348348.3483 0.1053471 0.063924201 0.020940114 0.0019472586 7.071068e-011 7.071068e-011 7.071068e-011 7.071068e-011
7356756756.7568 0.066386469 -0.037015092 -0.0092246868 0.018797223 7.071068e-011 7.071068e-011 7.071068e-011 7.071068e-011
7365165165.1652 -0.010315714 0.020719487 -0.014741531 -0.015213073 7.071068e-011 7.071068e-011 7.071068e-011 7.071068e-011
7373573573.5736 0.061431028 0.049892668 0.019033227 -0.0085562887 7.071068e-011 7.071068e-011 7.071068e-011 7.071068e-011
7381981981.982 0.044028405 -0.035250369 0.0010503783 0.021133667 7.071068e-011 7.071068e-011 7.071068e-011 7.071068e-011
7390390390.3904 -0.042962134 0.0095024398 -0.020341558 -0.0061829593 7.071068e-011 7.071068e-011 7.071068e-011 7.071068e-011
7398798798.7988 0.012715071 0.071209878 0.012920309 -0.016697131 7.071068e-011 7.071068e-011 7.071068e-011 7.071068e-011
7407207207.2072 0.028089551 0.010053122 0.011183253 0.018008159 7.071068e-011 7.071068e-011 7.071068e-011 7.071068e-011
7415615615.6156 -0.040877778 0.035117723 -0.020896431 0.00437877 7.071068e-011 7.071068e-011 7.071068e-011 7.071068e-011
7424024024.024 0.0065966612 0.10508074 0.0030786032 -0.021051846 7.071068e-011 7.071068e-011 7.071068e-011 7.071068e-011
7432432432.4324 0.054797281 0.054200571 0.018683624 0.010434497 7.071068e-011 7.071068e-011 7.071068e-011 7.071068e-011
7440840840.8408 0.0098504582 0.042304181 -0.016158104 0.014054373 7.071068e-011 7.071068e-011 7.071068e-011 7.071068e-011
7449249249.2492 0.030221565 0.087002769 -0.0073149027 -0.01989078 7.071068e-011 7.071068e-011 7.071068e-011 7.071068e-011
7457657657.6577 0.077837735 0.049096949 0.021268638 0.00018234782 7.071068e-011 7.071068e-011 7.071068e-011 7.071068e-011
7466066066.0661 0.041955575 0.014067587 -0.0075412919 0.019941431 7.071068e-011 7.071068e-011 7.071068e-011 7.071068e-011
7474474474.4745 0.030369423 0.039151151 -0.015935276 -0.013855534 7.071068e-011 7.071068e-011 7.071068e-011 7.071068e-011
7482882882.8829 0.059831049 0.029266801 0.018649237 -0.0097913593 7.071068e-011 7.071068e-011 7.071068e-011 7.071068e-011
7491291291.2913 0.038996525 -0.013423832 0.0026244626 0.020946484 7.071068e-011 7.071068e-011 7.071068e-011 7.071068e-011
7499699699.6997 -0.0033415672 0.0023831076 -0.020371724 -0.0049462295 7.071068e-011 7.071068e-011 7.071068e-011 7.071068e-011
7508108108.1081 0.0032296092 0.03186987 0.011766357 -0.017321777 7.071068e-011 7.071068e-011 7.071068e-011 7.071068e-011
7516516516.5165 0.019343367 0.012102741 0.011981993 0.01701472 7.071068e-011 7.071068e-011 7.071068e-011 7.071068e-011
7524924924.9249 -0.026203115 0.0065092882 -0.020044634 0.0050611766 7.071068e-011 7.071068e-011 7.071068e-011 7.071068e-011
7533333333.3333 -0.03000766 0.065864325 0.0025549973 -0.020506779 7.071068e-011 7.071068e-011 7.071068e-011 7.071068e-011
7541741741.7417 0.027851408 0.069061689 0.018244905 0.0095187481 7.071068e-011 7.071068e-011 7.071068e-011 7.071068e-011
7550150150.1502 0.013132412 0.020504976 -0.015233567 0.013212463 7.071068e-011 7.071068e-011 7.071068e-011 7.071068e-011
7558558558.5586 -0.015373859 0.068361707 -0.006829069 -0.019055348 7.071068e-011 7.071068e-011 7.071068e-011 7.071068e-011
7566966966.967 0.055488791 0.078128383 0.020009607 0.00051902642 7.071068e-011 7.071068e-011 7.071068e-011 7.071068e-011
7575375375.3754 0.053700346 0.0011152114 -0.0079380367 0.018461997 7.071068e-011 7.071068e-011 7.071068e-011 7.071068e-011
7583783783.7838 -0.011794374 0.0237456 -0.014384762 -0.014109717 7.071068e-011 7.071068e-011 7.071068e-011 7.071068e-011
7592192192.1922 0.045194764 0.060717851 0.018028239 -0.0082935048 7.071068e-011 7.071068e-011 7.071068e-011 7.071068e-011
7600600600.6006 0.052010778 -0.024168553 0.00084612524 0.01949344 7.071068e-011 7.071068e-011 7.071068e-011 7.071068e-011
7609009009.009 -0.037962548 -0.011058713 -0.018876541 -0.0065685227 7.071068e-011 7.071068e-011 7.071068e-011 7.071068e-011
7617417417.4174 -0.0053607365 0.058208127 0.012651905 -0.01530604 7.071068e-011 7.071068e-011 7.071068e-011 7.071068e-011
7625825825.8258 0.026497614 -0.0039598509 0.0093980627 0.017420389 7.071068e-011 7.071068e-011 7.071068e-011 7.071068e-011
7634234234.2342 -0.06049208 0.0038553972 -0.019560231 0.002410992 7.071068e-011 7.071068e-011 7.071068e-011 7.071068e-011
7642642642.6426 -0.026803032 0.091501273 0.0050234613 -0.018901132 7.071068e-011 7.071068e-011 7.071068e-011 7.071068e-011
7651051051.0511 0.037508789 0.04279213 0.015740499 0.011739869 7.071068e-011 7.071068e-011 7.071068e-011 7.071068e-011
7659459459.4595 -0.029506007 0.017949153 -0.016803503 0.010646001 7.071068e-011 7.071068e-011 7.071068e-011 7.071068e-011
7667867867.8679 -0.01187205 0.10228431 -0.0038683487 -0.019134406 7.071068e-011 7.071068e-011 7.071068e-011 7.071068e-011
7676276276.2763 0.073868953 0.059307903 0.019091966 0.0039903787 7.071068e-011 7.071068e-011 7.071068e-011 7.071068e-011
7684684684.6847 0.021613071 -0.0040517426 -0.010798273 0.016602414 7.071068e-011 7.071068e-011 7.071068e-011 7.071068e-011
7693093093.0931 0.00053373008 0.054253854 -0.011454134 -0.01599092 7.071068e-011 7.071068e-011 7.071068e-011 7.071068e-011
7701501501.5015 0.070948198 0.0327111 0.019041311 -0.0048012068 7.071068e-011 7.071068e-011 7.071068e-011 7.071068e-011
7709909909.9099 0.023546483 -0.042397346 -0.0026445393 0.019521108 7.071068e-011 7.071068e-011 7.071068e-011 7.071068e-011
7718318318.3183 -0.033176243 0.010546815 -0.017212747 -0.0096296296 7.071068e-011 7.071068e-011 7.071068e-011 7.071068e-011
7726726726.7267 0.024120776 0.027983766 0.015478146 -0.012227544 7.071068e-011 7.071068e-011 7.071068e-011 7.071068e-011
7735135135.1351 0.0031628902 -0.04114753 0.0059191408 0.018978599 7.071068e-011 7.071068e-011 7.071068e-011 7.071068e-011
7743543543.5435 -0.075027496 -0.00052450108 -0.019543508 -0.0014818087 7.071068e-011 7.071068e-011 7.071068e-011 7.071068e-011
7751951951.952 -0.03059586 0.064413942 0.0087547339 -0.017684214 7.071068e-011 7.071068e-011 7.071068e-011 7.071068e-011
7760360360.3604 -0.0025221927 0.017581699 0.013240206 0.01468491 7.071068e-011 7.071068e-011 7.071068e-011 7.071068e-011
7768768768.7688 -0.058174167 0.028316064 -0.018604841 0.0068461476 7.071068e-011 7.071068e-011 7.071068e-011 7.071068e-011
7777177177.1772 -0.027440473 0.09540049 0.00062470557 -0.01973273 7.071068e-011 7.071068e-011 7.071068e-011 7.071068e-011
7785585585.5856 0.033815205 0.058301441 0.018132219 0.0078489808 7.071068e-011 7.071068e-011 7.071068e-011 7.071068e-011
7793993993.994 -0.0052858824 0.02764692 -0.013939296 0.013687282 7.071068e-011 7.071068e-011 7.071068e-011 7.071068e-011
7802402402.4024 -0.00071625074 0.074739009 -0.0075563341 -0.018402906 7.071068e-011 7.071068e-011 7.071068e-011 7.071068e-011
7810810810.8108 0.0580131 0.049157895 0.019793939 -0.00043185227 7.071068e-011 7.071068e-011 7.071068e-011 7.071068e-011
7819219219.2192 0.026188392 -0.0065166638 -0.0071631731 0.018341122 7.071068e-011 7.071068e-011 7.071068e-011 7.071068e-011
7827627627.6276 -0.0036989735 0.026717819 -0.014397742 -0.01348604 7.071068e-011 7.071068e-011 7.071068e-011 7.071068e-011
7836036036.036 0.037374418 0.025819734 0.017865678 -0.0083262799 7.071068e-011 7.071068e-011 7.071068e-011 7.071068e-011
7844444444.4444 0.016671812 -0.023635963 0.0010929696 0.019730933 7.071068e-011 7.071068e-011 7.071068e-011 7.071068e-011
7852852852.8529 -0.028213585 0.0027546214 -0.018795783 -0.0063900365 7.071068e-011 7.071068e-011 7.071068e-011 7.071068e-011
7861261261.2613 0.0014410155 0.029597165 0.012805186 -0.015042648 7.071068e-011 7.071068e-011 7.071068e-011 7.071068e-011
7869669669.6697 0.0056892158 -0.0090934085 0.009001039 0.017586617 7.071068e-011 7.071068e-011 7.071068e-011 7.071068e-011
7878078078.0781 -0.040382814 0.0031982057 -0.01982959 0.0019365529 7.071068e-011 7.071068e-011 7.071068e-011 7.071068e-011
7886486486.4865 -0.02452312 0.046941675 0.0054082884 -0.019029854 7.071068e-011 7.071068e-011 7.071068e-011 7.071068e-011
7894894894.8949 0.010886674 0.030367734 0.015405424 0.012012662 7.071068e-011 7.071068e-011 7.071068e-011 7.071068e-011
7903303303.3033 -0.013360313 0.011129248 -0.01711151 0.009677765 7.071068e-011 7.071068e-011 7.071068e-011 7.071068e-011
7911711711.7117 -0.017882057 0.043720923 -0.0027425594 -0.01950046 7.071068e-011 7.071068e-011 7.071068e-011 7.071068e-011
7920120120.1201 0.022917734 0.045064036 0.018900955 0.0047542728 7.071068e-011 7.071068e-011 7.071068e-011 7.071068e-011
7928528528.5285 0.02385754 0.0019888007 -0.011489682 0.015719011 7.071068e-011 7.071068e-011 7.071068e-011 7.071068e-011
7936936936.9369 -0.010028224 0.010981819 -0.010139853 -0.01641663 7.071068e-011 7.071068e-011 7.071068e-011 7.071068e-011
7945345345.3453 0.017731404 0.032187089 0.019044247 -0.0030638298 7.071068e-011 7.071068e-011 7.071068e-011 7.071068e-011
