!Keysight Technologies,N5235B,MY61252044,A.15.00.15
!Date: Friday, January 20, 2023 23:31:59
!Correction: S11(Off) 
!S21(Off) 
!S12(Off) 
!S22(Off) 
!S2P File: Measurements: S11, S21, S12, S22:
# Hz S  RI   R 50
6600000000 0.018594226 -0.17523375 0.015457482 -0.0030373861 7.071068e-011 7.071068e-011 7.071068e-011 7.071068e-011
6608408408.4084 -0.12457738 0.16551313 0.0052987905 0.010838901 7.071068e-011 7.071068e-011 7.071068e-011 7.071068e-011
6616816816.8168 0.30592579 0.092752069 -0.0089140031 0.003683704 7.071068e-011 7.071068e-011 7.071068e-011 7.071068e-011
6625225225.2252 0.024696354 -0.27293521 -0.0017736611 -0.0093069114 7.071068e-011 7.071068e-011 7.071068e-011 7.071068e-011
6633633633.6336 -0.16572842 0.16132638 0.0093382439 -0.0003796377 7.071068e-011 7.071068e-011 7.071068e-011 7.071068e-011
6642042042.042 0.28982893 0.1132196 -0.001864266 0.0093174642 7.071068e-011 7.071068e-011 7.071068e-011 7.071068e-011
6650450450.4505 0.039211694 -0.25202563 -0.010720479 -0.0041019847 7.071068e-011 7.071068e-011 7.071068e-011 7.071068e-011
6658858858.8589 -0.14840674 0.13430578 0.0059904051 -0.011487724 7.071068e-011 7.071068e-011 7.071068e-011 7.071068e-011
6667267267.2673 0.22843769 0.1012905 0.012193849 0.0091798324 7.071068e-011 7.071068e-011 7.071068e-011 7.071068e-011
6675675675.6757 0.04293308 -0.15105101 -0.011550009 0.013812358 7.071068e-011 7.071068e-011 7.071068e-011 7.071068e-011
6684084084.0841 -0.044379439 0.084107824 -0.014583932 -0.013365855 7.071068e-011 7.071068e-011 7.071068e-011 7.071068e-011
6692492492.4925 0.10576567 0.047492646 0.014831709 -0.014905786 7.071068e-011 7.071068e-011 7.071068e-011 7.071068e-011
6700900900.9009 0.085959405 0.018358704 0.014749237 0.015429365 7.071068e-011 7.071068e-011 7.071068e-011 7.071068e-011
6709309309.3093 0.077271037 -0.041866194 -0.015565574 0.013091743 7.071068e-011 7.071068e-011 7.071068e-011 7.071068e-011
6717717717.7177 -0.031190734 0.034298189 -0.010128679 -0.016487645 7.071068e-011 7.071068e-011 7.071068e-011 7.071068e-011
6726126126.1261 0.15499853 0.11633656 0.016807972 -0.00706761 7.071068e-011 7.071068e-011 7.071068e-011 7.071068e-011
6734534534.5345 0.12870838 -0.14058791 0.0035422056 0.016234204 7.071068e-011 7.071068e-011 7.071068e-011 7.071068e-011
6742942942.9429 -0.10786992 0.026514044 -0.015910722 -0.00028987275 7.071068e-011 7.071068e-011 7.071068e-011 7.071068e-011
6751351351.3514 0.1713703 0.15266114 0.0036336812 -0.01536555 7.071068e-011 7.071068e-011 7.071068e-011 7.071068e-011
6759759759.7598 0.15081339 -0.17145091 0.013175196 0.0070785661 7.071068e-011 7.071068e-011 7.071068e-011 7.071068e-011
6768168168.1682 -0.14688039 -0.0056696152 -0.010864143 0.010398065 7.071068e-011 7.071068e-011 7.071068e-011 7.071068e-011
6776576576.5766 0.13386528 0.17898573 -0.007988641 -0.013480046 7.071068e-011 7.071068e-011 7.071068e-011 7.071068e-011
6784984984.985 0.15132976 -0.14605778 0.014560252 -0.0040038647 7.071068e-011 7.071068e-011 7.071068e-011 7.071068e-011
6793393393.3934 -0.14735162 -0.0067631365 -0.00036209536 0.015519873 7.071068e-011 7.071068e-011 7.071068e-011 7.071068e-011
6801801801.8018 0.10133571 0.20269905 -0.015711345 -0.0043114563 7.071068e-011 7.071068e-011 7.071068e-011 7.071068e-011
6810210210.2102 0.1725494 -0.09475971 0.0086876815 -0.014422424 7.071068e-011 7.071068e-011 7.071068e-011 7.071068e-011
6818618618.6186 -0.10523669 -0.010500928 0.012128578 0.013245878 7.071068e-011 7.071068e-011 7.071068e-011 7.071068e-011
6827027027.027 0.087657765 0.18546028 -0.015966808 0.0091901831 7.071068e-011 7.071068e-011 7.071068e-011 7.071068e-011
6835435435.4354 0.18152922 -0.048621483 -0.0044627036 -0.017896278 7.071068e-011 7.071068e-011 7.071068e-011 7.071068e-011
6843843843.8438 -0.045340583 -0.028147902 0.020167638 0.00026903008 7.071068e-011 7.071068e-011 7.071068e-011 7.071068e-011
6852252252.2523 0.074620165 0.12924114 -0.0046055145 0.020292269 7.071068e-011 7.071068e-011 7.071068e-011 7.071068e-011
6860660660.6607 0.14512706 -0.020164654 -0.018593637 -0.0096233636 7.071068e-011 7.071068e-011 7.071068e-011 7.071068e-011
6869069069.0691 0.0042316532 -0.027088128 0.014531597 -0.016071737 7.071068e-011 7.071068e-011 7.071068e-011 7.071068e-011
6877477477.4775 0.053969678 0.072522856 0.012656991 0.0181028 7.071068e-011 7.071068e-011 7.071068e-011 7.071068e-011
6885885885.8859 0.090360589 0.0069547705 -0.020452866 0.007686608 7.071068e-011 7.071068e-011 7.071068e-011 7.071068e-011
6894294294.2943 0.047280073 -0.0010088721 -0.0022853403 -0.022012306 7.071068e-011 7.071068e-011 7.071068e-011 7.071068e-011
6902702702.7027 0.038231019 0.019351859 0.021980394 0.0032656922 7.071068e-011 7.071068e-011 7.071068e-011 7.071068e-011
6911111111.1111 0.030973429 0.037650116 -0.0087942602 0.020197576 7.071068e-011 7.071068e-011 7.071068e-011 7.071068e-011
6919519519.5195 0.078270756 0.049967386 -0.016927838 -0.013633838 7.071068e-011 7.071068e-011 7.071068e-011 7.071068e-011
6927927927.9279 0.050796717 -0.012397564 0.017252119 -0.012755246 7.071068e-011 7.071068e-011 7.071068e-011 7.071068e-011
6936336336.3363 -0.0021921047 0.06215528 0.0072540422 0.019477298 7.071068e-011 7.071068e-011 7.071068e-011 7.071068e-011
6944744744.7447 0.11239474 0.089405879 -0.020832554 0.0011278595 7.071068e-011 7.071068e-011 7.071068e-011 7.071068e-011
6953153153.1532 0.084360994 -0.045523465 0.0045034187 -0.019985184 7.071068e-011 7.071068e-011 7.071068e-011 7.071068e-011
6961561561.5616 -0.028341791 0.054383717 0.017323852 0.009961498 7.071068e-011 7.071068e-011 7.071068e-011 7.071068e-011
6969969969.97 0.12459864 0.10592936 -0.0145205 0.013529942 7.071068e-011 7.071068e-011 7.071068e-011 7.071068e-011
6978378378.3784 0.10174406 -0.070768684 -0.0083671622 -0.017370127 7.071068e-011 7.071068e-011 7.071068e-011 7.071068e-011
6986786786.7868 -0.064069256 0.032686792 0.018726412 -0.0022641867 7.071068e-011 7.071068e-011 7.071068e-011 7.071068e-011
6995195195.1952 0.10292875 0.13392153 -0.0035694861 0.018908538 7.071068e-011 7.071068e-011 7.071068e-011 7.071068e-011
7003603603.6036 0.10894416 -0.057863135 -0.01659232 -0.0089139389 7.071068e-011 7.071068e-011 7.071068e-011 7.071068e-011
7012012012.012 -0.072669044 0.032441057 0.014124716 -0.012457064 7.071068e-011 7.071068e-011 7.071068e-011 7.071068e-011
7020420420.4204 0.087996624 0.16142838 0.0077742394 0.017329236 7.071068e-011 7.071068e-011 7.071068e-011 7.071068e-011
7028828828.8288 0.13264094 -0.028985906 -0.018522277 0.0018176045 7.071068e-011 7.071068e-011 7.071068e-011 7.071068e-011
7037237237.2372 -0.053958081 0.030659886 0.0044339527 -0.018634446 7.071068e-011 7.071068e-011 7.071068e-011 7.071068e-011
7045645645.6456 0.090009831 0.17088503 0.016433807 0.0098122666 7.071068e-011 7.071068e-011 7.071068e-011 7.071068e-011
7054054054.0541 0.16759124 -0.0030534035 -0.01467857 0.012034327 7.071068e-011 7.071068e-011 7.071068e-011 7.071068e-011
7062462462.4625 -0.008095555 -0.0040128957 -0.0068173739 -0.01847345 7.071068e-011 7.071068e-011 7.071068e-011 7.071068e-011
7070870870.8709 0.078245625 0.14037387 0.019766619 -0.0011799801 7.071068e-011 7.071068e-011 7.071068e-011 7.071068e-011
7079279279.2793 0.16833188 0.0073837857 -0.0055576018 0.018786903 7.071068e-011 7.071068e-011 7.071068e-011 7.071068e-011
7087687687.6877 0.032545775 -0.02697215 -0.016630908 -0.011496308 7.071068e-011 7.071068e-011 7.071068e-011 7.071068e-011
7096096096.0961 0.059499059 0.089244217 0.015945755 -0.01246694 7.071068e-011 7.071068e-011 7.071068e-011 7.071068e-011
7104504504.5045 0.14775389 0.010408613 0.0065187952 0.019138087 7.071068e-011 7.071068e-011 7.071068e-011 7.071068e-011
7112912912.9129 0.050876554 -0.04464449 -0.020636957 -0.00014304323 7.071068e-011 7.071068e-011 7.071068e-011 7.071068e-011
7121321321.3213 0.034381919 0.031879172 0.0063193841 -0.019832514 7.071068e-011 7.071068e-011 7.071068e-011 7.071068e-011
7129729729.7297 0.089273676 0.014491388 0.016436299 0.012087804 7.071068e-011 7.071068e-011 7.071068e-011 7.071068e-011
7138138138.1381 0.043433413 -0.037783559 -0.017190497 0.011683316 7.071068e-011 7.071068e-011 7.071068e-011 7.071068e-011
7146546546.5465 -0.00052259676 0.013608656 -0.0058329985 -0.020119127 7.071068e-011 7.071068e-011 7.071068e-011 7.071068e-011
7154954954.955 0.030636488 0.04132073 0.020799171 0.00086726702 7.071068e-011 7.071068e-011 7.071068e-011 7.071068e-011
7163363363.3634 0.044955928 0.01577043 -0.0076738824 0.019087765 7.071068e-011 7.071068e-011 7.071068e-011 7.071068e-011
7171771771.7718 0.0012075879 0.020245329 -0.015736582 -0.01348453 7.071068e-011 7.071068e-011 7.071068e-011 7.071068e-011
7180180180.1802 0.018435394 0.072530717 0.017624019 -0.010377327 7.071068e-011 7.071068e-011 7.071068e-011 7.071068e-011
7188588588.5886 0.0677692 0.056173634 0.0038663044 0.02044783 7.071068e-011 7.071068e-011 7.071068e-011 7.071068e-011
7196996996.997 0.039904553 0.010117978 -0.0206018 -0.0027529197 7.071068e-011 7.071068e-011 7.071068e-011 7.071068e-011
7205405405.4054 0.012276721 0.067097232 0.0095578665 -0.017986327 7.071068e-011 7.071068e-011 7.071068e-011 7.071068e-011
7213813813.8138 0.083184302 0.067249276 0.013833396 0.015195082 7.071068e-011 7.071068e-011 7.071068e-011 7.071068e-011
7222222222.2222 0.066241473 -0.0054670875 -0.018991262 0.008207052 7.071068e-011 7.071068e-011 7.071068e-011 7.071068e-011
7230630630.6306 -0.0013067872 0.035084095 -0.0014234901 -0.020492384 7.071068e-011 7.071068e-011 7.071068e-011 7.071068e-011
7239039039.039 0.07148163 0.075610548 0.019945052 0.0058597499 7.071068e-011 7.071068e-011 7.071068e-011 7.071068e-011
7247447447.4474 0.075286768 -0.014776901 -0.012022515 0.016967162 7.071068e-011 7.071068e-011 7.071068e-011 7.071068e-011
7255855855.8559 -0.016586641 0.0072950935 -0.011581586 -0.017019417 7.071068e-011 7.071068e-011 7.071068e-011 7.071068e-011
7264264264.2643 0.034815948 0.084061295 0.02011757 -0.0053369263 7.071068e-011 7.071068e-011 7.071068e-011 7.071068e-011
7272672672.6727 0.074405588 0.00070343865 -0.001535167 0.020532094 7.071068e-011 7.071068e-011 7.071068e-011 7.071068e-011
7281081081.0811 -0.02981694 0.00076316565 -0.018716805 -0.0084643243 7.071068e-011 7.071068e-011 7.071068e-011 7.071068e-011
7289489489.4895 -7.8730831e-005 0.1075717 0.014703545 -0.0146071 7.071068e-011 7.071068e-011 7.071068e-011 7.071068e-011
7297897897.8979 0.084973834 0.050733782 0.0087858252 0.018831303 7.071068e-011 7.071068e-011 7.071068e-011 7.071068e-011
7306306306.3063 0.0011364068 0.008831976 -0.020574944 0.0015667127 7.071068e-011 7.071068e-011 7.071068e-011 7.071068e-011
7314714714.7147 0.0040447451 0.11275553 0.0054092403 -0.020285148 7.071068e-011 7.071068e-011 7.071068e-011 7.071068e-011
7323123123.1231 0.11265715 0.07542742 0.016994555 0.011743625 7.071068e-011 7.071068e-011 7.071068e-011 7.071068e-011
7331531531.5315 0.05128891 -0.011835483 -0.017333327 0.01169927 7.071068e-011 7.071068e-011 7.071068e-011 7.071068e-011
7339939939.9399 0.0078897411 0.068590261 -0.0053071473 -0.020552061 7.071068e-011 7.071068e-011 7.071068e-011 7.071068e-011
7348348348.3483 0.10543677 0.063716769 0.020917086 0.0019401013 7.071068e-011 7.071068e-011 7.071068e-011 7.071068e-011
7356756756.7568 0.066215977 -0.036962528 -0.0092127882 0.018777829 7.071068e-011 7.071068e-011 7.071068e-011 7.071068e-011
7365165165.1652 -0.010240842 0.020802351 -0.014730728 -0.015197874 7.071068e-011 7.071068e-011 7.071068e-011 7.071068e-011
7373573573.5736 0.061481662 0.049865354 0.019015001 -0.0085539799 7.071068e-011 7.071068e-011 7.071068e-011 7.071068e-011
7381981981.982 0.044007409 -0.03534114 0.0010559829 0.021116024 7.071068e-011 7.071068e-011 7.071068e-011 7.071068e-011
7390390390.3904 -0.043081257 0.0096168537 -0.020327462 -0.0061679161 7.071068e-011 7.071068e-011 7.071068e-011 7.071068e-011
7398798798.7988 0.012923458 0.071232274 0.012899507 -0.016688522 7.071068e-011 7.071068e-011 7.071068e-011 7.071068e-011
7407207207.2072 0.027956849 0.0098836627 0.011177342 0.017987277 7.071068e-011 7.071068e-011 7.071068e-011 7.071068e-011
7415615615.6156 -0.040907335 0.035312098 -0.020871913 0.0043815658 7.071068e-011 7.071068e-011 7.071068e-011 7.071068e-011
7424024024.024 0.006708723 0.1050031 0.0030690727 -0.021031737 7.071068e-011 7.071068e-011 7.071068e-011 7.071068e-011
7432432432.4324 0.054730237 0.054185692 0.018667061 0.010422308 7.071068e-011 7.071068e-011 7.071068e-011 7.071068e-011
7440840840.8408 0.009840643 0.042306405 -0.016138522 0.014042687 7.071068e-011 7.071068e-011 7.071068e-011 7.071068e-011
7449249249.2492 0.030212125 0.08708366 -0.0073164748 -0.019870246 7.071068e-011 7.071068e-011 7.071068e-011 7.071068e-011
7457657657.6577 0.077948816 0.049024787 0.021251053 0.00017811012 7.071068e-011 7.071068e-011 7.071068e-011 7.071068e-011
7466066066.0661 0.041792788 0.014056348 -0.0075288764 0.019928273 7.071068e-011 7.071068e-011 7.071068e-011 7.071068e-011
7474474474.4745 0.030484103 0.039276373 -0.015927883 -0.013837553 7.071068e-011 7.071068e-011 7.071068e-011 7.071068e-011
7482882882.8829 0.059833422 0.029137507 0.018631184 -0.0097905481 7.071068e-011 7.071068e-011 7.071068e-011 7.071068e-011
7491291291.2913 0.038952939 -0.013360327 0.0026312398 0.020925943 7.071068e-011 7.071068e-011 7.071068e-011 7.071068e-011
7499699699.6997 -0.0033311851 0.0023584065 -0.020353593 -0.0049339612 7.071068e-011 7.071068e-011 7.071068e-011 7.071068e-011
7508108108.1081 0.0032444883 0.031944387 0.011755834 -0.017306654 7.071068e-011 7.071068e-011 7.071068e-011 7.071068e-011
7516516516.5165 0.019401783 0.0119858 0.011977876 0.016994905 7.071068e-011 7.071068e-011 7.071068e-011 7.071068e-011
7524924924.9249 -0.026358232 0.0065640849 -0.020027654 0.0050587147 7.071068e-011 7.071068e-011 7.071068e-011 7.071068e-011
7533333333.3333 -0.029856198 0.065948203 0.0025544979 -0.020491133 7.071068e-011 7.071068e-011 7.071068e-011 7.071068e-011
7541741741.7417 0.027817946 0.068929762 0.018239025 0.009498762 7.071068e-011 7.071068e-011 7.071068e-011 7.071068e-011
7550150150.1502 0.013090597 0.020585744 -0.015222383 0.013203845 7.071068e-011 7.071068e-011 7.071068e-011 7.071068e-011
7558558558.5586 -0.015367356 0.068375327 -0.0068325442 -0.019039188 7.071068e-011 7.071068e-011 7.071068e-011 7.071068e-011
7566966966.967 0.05556396 0.078157455 0.019991076 0.00050653587 7.071068e-011 7.071068e-011 7.071068e-011 7.071068e-011
7575375375.3754 0.05364427 0.00098820217 -0.0079327738 0.018442985 7.071068e-011 7.071068e-011 7.071068e-011 7.071068e-011
7583783783.7838 -0.011876752 0.023930855 -0.014376553 -0.014091142 7.071068e-011 7.071068e-011 7.071068e-011 7.071068e-011
7592192192.1922 0.045400124 0.060657594 0.018009588 -0.0082872855 7.071068e-011 7.071068e-011 7.071068e-011 7.071068e-011
7600600600.6006 0.051842216 -0.024272963 0.00084652903 0.019476984 7.071068e-011 7.071068e-011 7.071068e-011 7.071068e-011
7609009009.009 -0.037938938 -0.010886702 -0.018862881 -0.0065596737 7.071068e-011 7.071068e-011 7.071068e-011 7.071068e-011
7617417417.4174 -0.0052806512 0.058131862 0.012638988 -0.015296506 7.071068e-011 7.071068e-011 7.071068e-011 7.071068e-011
7625825825.8258 0.026463749 -0.0039895894 0.0093981307 0.017404368 7.071068e-011 7.071068e-011 7.071068e-011 7.071068e-011
7634234234.2342 -0.060573079 0.0038747012 -0.019543111 0.0024179281 7.071068e-011 7.071068e-011 7.071068e-011 7.071068e-011
7642642642.6426 -0.026715009 0.091625668 0.0050118258 -0.018885536 7.071068e-011 7.071068e-011 7.071068e-011 7.071068e-011
7651051051.0511 0.037564609 0.042597622 0.015726203 0.011721604 7.071068e-011 7.071068e-011 7.071068e-011 7.071068e-011
7659459459.4595 -0.029716253 0.018051848 -0.016784007 0.010635242 7.071068e-011 7.071068e-011 7.071068e-011 7.071068e-011
7667867867.8679 -0.011667107 0.10237099 -0.0038646001 -0.01911772 7.071068e-011 7.071068e-011 7.071068e-011 7.071068e-011
7676276276.2763 0.073818944 0.05913559 0.019079749 0.0039886204 7.071068e-011 7.071068e-011 7.071068e-011 7.071068e-011
7684684684.6847 0.021537289 -0.0039542438 -0.010788961 0.016594131 7.071068e-011 7.071068e-011 7.071068e-011 7.071068e-011
7693093093.0931 0.00057973544 0.05427745 -0.011451604 -0.015977196 7.071068e-011 7.071068e-011 7.071068e-011 7.071068e-011
7701501501.5015 0.071005844 0.032696452 0.019022856 -0.0048056697 7.071068e-011 7.071068e-011 7.071068e-011 7.071068e-011
7709909909.9099 0.023467273 -0.042496547 -0.0026324892 0.019501794 7.071068e-011 7.071068e-011 7.071068e-011 7.071068e-011
7718318318.3183 -0.033221681 0.010737517 -0.017195402 -0.0096137682 7.071068e-011 7.071068e-011 7.071068e-011 7.071068e-011
7726726726.7267 0.024321174 0.027879143 0.015457429 -0.012214851 7.071068e-011 7.071068e-011 7.071068e-011 7.071068e-011
7735135135.1351 0.0029600353 -0.041220292 0.005913469 0.018958354 7.071068e-011 7.071068e-011 7.071068e-011 7.071068e-011
7743543543.5435 -0.074966535 -0.00036270576 -0.01952488 -0.0014822558 7.071068e-011 7.071068e-011 7.071068e-011 7.071068e-011
7751951951.952 -0.030536236 0.064332858 0.0087459972 -0.017672431 7.071068e-011 7.071068e-011 7.071068e-011 7.071068e-011
7760360360.3604 -0.0025476934 0.017562829 0.013234264 0.014671016 7.071068e-011 7.071068e-011 7.071068e-011 7.071068e-011
7768768768.7688 -0.058240104 0.028307818 -0.018589944 0.0068483669 7.071068e-011 7.071068e-011 7.071068e-011 7.071068e-011
7777177177.1772 -0.027380388 0.09552034 0.00061441725 -0.019714693 7.071068e-011 7.071068e-011 7.071068e-011 7.071068e-011
7785585585.5856 0.033881214 0.058131296 0.018117495 0.0078346506 7.071068e-011 7.071068e-011 7.071068e-011 7.071068e-011
7793993993.994 -0.0054751765 0.027721178 -0.013921829 0.013675101 7.071068e-011 7.071068e-011 7.071068e-011 7.071068e-011
7802402402.4024 -0.00054548937 0.074821569 -0.0075529763 -0.018380692 7.071068e-011 7.071068e-011 7.071068e-011 7.071068e-011
7810810810.8108 0.057961054 0.049025703 0.019773548 -0.00043224444 7.071068e-011 7.071068e-011 7.071068e-011 7.071068e-011
7819219219.2192 0.02615888 -0.0064421776 -0.0071608741 0.01832483 7.071068e-011 7.071068e-011 7.071068e-011 7.071068e-011
7827627627.6276 -0.0036999157 0.02672001 -0.014388951 -0.013473921 7.071068e-011 7.071068e-011 7.071068e-011 7.071068e-011
7836036036.036 0.037437357 0.025859486 0.01785221 -0.0083250562 7.071068e-011 7.071068e-011 7.071068e-011 7.071068e-011
7844444444.4444 0.016640728 -0.023757584 0.0010946331 0.019718597 7.071068e-011 7.071068e-011 7.071068e-011 7.071068e-011
7852852852.8529 -0.028290754 0.0029038237 -0.018783662 -0.0063740909 7.071068e-011 7.071068e-011 7.071068e-011 7.071068e-011
7861261261.2613 0.0016137976 0.029542675 0.012785483 -0.01503249 7.071068e-011 7.071068e-011 7.071068e-011 7.071068e-011
7869669669.6697 0.0055411579 -0.0091701224 0.008991302 0.017565183 7.071068e-011 7.071068e-011 7.071068e-011 7.071068e-011
7878078078.0781 -0.040337451 0.003309316 -0.019808136 0.0019387801 7.071068e-011 7.071068e-011 7.071068e-011 7.071068e-011
7886486486.4865 -0.024519144 0.046891779 0.0054036644 -0.019010505 7.071068e-011 7.071068e-011 7.071068e-011 7.071068e-011
7894894894.8949 0.010922753 0.030383652 0.015390777 0.012006284 7.071068e-011 7.071068e-011 7.071068e-011 7.071068e-011
7903303303.3033 -0.013425292 0.011048763 -0.017101973 0.0096706627 7.071068e-011 7.071068e-011 7.071068e-011 7.071068e-011
7911711711.7117 -0.017897649 0.043871239 -0.0027481399 -0.019488651 7.071068e-011 7.071068e-011 7.071068e-011 7.071068e-011
7920120120.1201 0.023043562 0.044950232 0.018888621 0.0047492227 7.071068e-011 7.071068e-011 7.071068e-011 7.071068e-011
7928528528.5285 0.023695342 0.0019870631 -0.011476901 0.015708698 7.071068e-011 7.071068e-011 7.071068e-011 7.071068e-011
7936936936.9369 -0.0099418927 0.011071078 -0.010141035 -0.01639137 7.071068e-011 7.071068e-011 7.071068e-011 7.071068e-011
7945345345.3453 0.017727166 0.032131992 0.019025195 -0.0030565588 7.071068e-011 7.071068e-011 7.071068e-011 7.071068e-011
