!Keysight Technologies,N5235B,MY61252044,A.15.00.15
!Date: Friday, January 20, 2023 19:37:03
!Correction: S11(Off) 
!S21(Off) 
!S12(Off) 
!S22(Off) 
!S2P File: Measurements: S11, S21, S12, S22:
# Hz S  RI   R 50
6600000000 0.017274635 -0.17457598 0.014888118 -0.0052117901 7.071068e-011 7.071068e-011 7.071068e-011 7.071068e-011
6608400000 -0.12387989 0.16625381 0.0067702127 0.010004014 7.071068e-011 7.071068e-011 7.071068e-011 7.071068e-011
6616800000 0.30667117 0.092112444 -0.0083344337 0.0048621777 7.071068e-011 7.071068e-011 7.071068e-011 7.071068e-011
6625200000 0.024219031 -0.27300358 -0.0029804779 -0.0089945849 7.071068e-011 7.071068e-011 7.071068e-011 7.071068e-011
6633600000 -0.16607425 0.16104417 0.0092059914 -0.0015760415 7.071068e-011 7.071068e-011 7.071068e-011 7.071068e-011
6642000000 0.2900607 0.11439577 -0.00069320173 0.0094522918 7.071068e-011 7.071068e-011 7.071068e-011 7.071068e-011
6650400000 0.040223468 -0.2526947 -0.011112091 -0.0027998323 7.071068e-011 7.071068e-011 7.071068e-011 7.071068e-011
6658800000 -0.14933839 0.13299842 0.0046197725 -0.012095598 7.071068e-011 7.071068e-011 7.071068e-011 7.071068e-011
6667200000 0.22778684 0.10380027 0.013082497 0.0077463263 7.071068e-011 7.071068e-011 7.071068e-011 7.071068e-011
6675600000 0.044820461 -0.15264781 -0.010056985 0.014876978 7.071068e-011 7.071068e-011 7.071068e-011 7.071068e-011
6684000000 -0.045454346 0.083885811 -0.015856823 -0.011864879 7.071068e-011 7.071068e-011 7.071068e-011 7.071068e-011
6692400000 0.10532238 0.048608206 0.01329144 -0.016264796 7.071068e-011 7.071068e-011 7.071068e-011 7.071068e-011
6700800000 0.086123958 0.017279308 0.01604965 0.014014538 7.071068e-011 7.071068e-011 7.071068e-011 7.071068e-011
6709200000 0.078019857 -0.040019136 -0.014435991 0.014405262 7.071068e-011 7.071068e-011 7.071068e-011 7.071068e-011
6717600000 -0.031408593 0.031605899 -0.011505176 -0.015614904 7.071068e-011 7.071068e-011 7.071068e-011 7.071068e-011
6726000000 0.15271808 0.11813249 0.016184932 -0.0084004607 7.071068e-011 7.071068e-011 7.071068e-011 7.071068e-011
6734400000 0.13208345 -0.13842031 0.0047772871 0.015927164 7.071068e-011 7.071068e-011 7.071068e-011 7.071068e-011
6742800000 -0.10807981 0.021419214 -0.015918259 0.00087407388 7.071068e-011 7.071068e-011 7.071068e-011 7.071068e-011
6751200000 0.16695432 0.15594225 0.0025867096 -0.015604018 7.071068e-011 7.071068e-011 7.071068e-011 7.071068e-011
6759600000 0.15624602 -0.16849141 0.013621094 0.0062286588 7.071068e-011 7.071068e-011 7.071068e-011 7.071068e-011
6768000000 -0.1467566 -0.012431914 -0.010211373 0.011028246 7.071068e-011 7.071068e-011 7.071068e-011 7.071068e-011
6776400000 0.12814158 0.18206371 -0.0087237526 -0.013019112 7.071068e-011 7.071068e-011 7.071068e-011 7.071068e-011
6784800000 0.15704849 -0.14177558 0.014319295 -0.0047724103 7.071068e-011 7.071068e-011 7.071068e-011 7.071068e-011
6793200000 -0.14641741 -0.014987992 0.00039276941 0.015504315 7.071068e-011 7.071068e-011 7.071068e-011 7.071068e-011
6801600000 0.094465032 0.20578912 -0.015904862 -0.0036428066 7.071068e-011 7.071068e-011 7.071068e-011 7.071068e-011
6810000000 0.177412 -0.089925922 0.0081301294 -0.014770693 7.071068e-011 7.071068e-011 7.071068e-011 7.071068e-011
6818400000 -0.10272367 -0.018214736 0.012542866 0.012786582 7.071068e-011 7.071068e-011 7.071068e-011 7.071068e-011
6826800000 0.079958014 0.18790318 -0.015659241 0.0096506327 7.071068e-011 7.071068e-011 7.071068e-011 7.071068e-011
6835200000 0.18582828 -0.043989915 -0.0049381661 -0.017754888 7.071068e-011 7.071068e-011 7.071068e-011 7.071068e-011
6843600000 -0.042316832 -0.033485908 0.020175092 -0.00015660354 7.071068e-011 7.071068e-011 7.071068e-011 7.071068e-011
6852000000 0.068192139 0.13005061 -0.0042437324 0.020383703 7.071068e-011 7.071068e-011 7.071068e-011 7.071068e-011
6860400000 0.14851645 -0.016271632 -0.01869593 -0.009370828 7.071068e-011 7.071068e-011 7.071068e-011 7.071068e-011
6868800000 0.0062229005 -0.030345529 0.014400172 -0.016173819 7.071068e-011 7.071068e-011 7.071068e-011 7.071068e-011
6877200000 0.050595727 0.072429106 0.012735571 0.01807767 7.071068e-011 7.071068e-011 7.071068e-011 7.071068e-011
6885600000 0.091941133 0.0088935681 -0.020458641 0.0077206111 7.071068e-011 7.071068e-011 7.071068e-011 7.071068e-011
6894000000 0.047776293 -0.0018232799 -0.0022055223 -0.02203574 7.071068e-011 7.071068e-011 7.071068e-011 7.071068e-011
6902400000 0.038344599 0.019207094 0.021974504 0.003460272 7.071068e-011 7.071068e-011 7.071068e-011 7.071068e-011
6910800000 0.030870356 0.036155742 -0.0090570077 0.02010962 7.071068e-011 7.071068e-011 7.071068e-011 7.071068e-011
6919200000 0.076532818 0.051609688 -0.016731238 -0.013900937 7.071068e-011 7.071068e-011 7.071068e-011 7.071068e-011
6927600000 0.053772967 -0.011687563 0.017536664 -0.012438353 7.071068e-011 7.071068e-011 7.071068e-011 7.071068e-011
6936000000 -0.0031902771 0.057560004 0.0068225232 0.019698365 7.071068e-011 7.071068e-011 7.071068e-011 7.071068e-011
6944400000 0.10791219 0.093368381 -0.020877793 0.00053557527 7.071068e-011 7.071068e-011 7.071068e-011 7.071068e-011
6952800000 0.090351038 -0.04326424 0.0051517254 -0.019862223 7.071068e-011 7.071068e-011 7.071068e-011 7.071068e-011
6961200000 -0.02912149 0.0473185 0.016976265 0.010586532 7.071068e-011 7.071068e-011 7.071068e-011 7.071068e-011
6969600000 0.11775544 0.11076038 -0.015085916 0.012957659 7.071068e-011 7.071068e-011 7.071068e-011 7.071068e-011
6978000000 0.11018783 -0.066492498 -0.0076437904 -0.017751535 7.071068e-011 7.071068e-011 7.071068e-011 7.071068e-011
6986400000 -0.063873582 0.02294779 0.018827461 -0.0014198371 7.071068e-011 7.071068e-011 7.071068e-011 7.071068e-011
6994800000 0.094140679 0.13797458 -0.0045811771 0.018733736 7.071068e-011 7.071068e-011 7.071068e-011 7.071068e-011
7003200000 0.11745571 -0.051508754 -0.016130753 -0.009875508 7.071068e-011 7.071068e-011 7.071068e-011 7.071068e-011
7011600000 -0.071259961 0.020996138 0.014815512 -0.011587995 7.071068e-011 7.071068e-011 7.071068e-011 7.071068e-011
7020000000 0.077712893 0.16489089 0.0066587157 0.01779451 7.071068e-011 7.071068e-011 7.071068e-011 7.071068e-011
7028400000 0.13992006 -0.021264473 -0.018624822 0.00059364474 7.071068e-011 7.071068e-011 7.071068e-011 7.071068e-011
7036800000 -0.05074824 0.019409122 0.0057818522 -0.018279932 7.071068e-011 7.071068e-011 7.071068e-011 7.071068e-011
7045200000 0.078522757 0.17306872 0.015677797 0.011059161 7.071068e-011 7.071068e-011 7.071068e-011 7.071068e-011
7053600000 0.17305738 0.0062451102 -0.015585884 0.010833909 7.071068e-011 7.071068e-011 7.071068e-011 7.071068e-011
7062000000 -0.0025537938 -0.012877272 -0.0052071 -0.018984059 7.071068e-011 7.071068e-011 7.071068e-011 7.071068e-011
7070400000 0.068039283 0.14015618 0.019840425 0.0005864955 7.071068e-011 7.071068e-011 7.071068e-011 7.071068e-011
7078800000 0.17138031 0.016331099 -0.0072210799 0.018180458 7.071068e-011 7.071068e-011 7.071068e-011 7.071068e-011
7087200000 0.038969826 -0.032533884 -0.015420381 -0.013067828 7.071068e-011 7.071068e-011 7.071068e-011 7.071068e-011
7095600000 0.051886581 0.08722312 0.017184075 -0.010818271 7.071068e-011 7.071068e-011 7.071068e-011 7.071068e-011
7104000000 0.14877516 0.017617103 0.0044881282 0.019750468 7.071068e-011 7.071068e-011 7.071068e-011 7.071068e-011
7112400000 0.056902289 -0.046526734 -0.020474972 -0.0023852477 7.071068e-011 7.071068e-011 7.071068e-011 7.071068e-011
7120800000 0.030844949 0.0282721 0.0085544353 -0.01899098 7.071068e-011 7.071068e-011 7.071068e-011 7.071068e-011
7129200000 0.088947423 0.018989062 0.014946272 0.013943684 7.071068e-011 7.071068e-011 7.071068e-011 7.071068e-011
7137600000 0.047585368 -0.037928037 -0.018523961 0.0095186373 7.071068e-011 7.071068e-011 7.071068e-011 7.071068e-011
7146000000 -0.00013526226 0.009536311 -0.0032698247 -0.020741856 7.071068e-011 7.071068e-011 7.071068e-011 7.071068e-011
7154400000 0.028019786 0.041960526 0.020514093 0.0035478277 7.071068e-011 7.071068e-011 7.071068e-011 7.071068e-011
7162800000 0.046328209 0.017209239 -0.010136915 0.017887065 7.071068e-011 7.071068e-011 7.071068e-011 7.071068e-011
7171200000 0.0034289584 0.017794805 -0.013740292 -0.015570227 7.071068e-011 7.071068e-011 7.071068e-011 7.071068e-011
7179600000 0.014722534 0.070113115 0.018975642 -0.0078621944 7.071068e-011 7.071068e-011 7.071068e-011 7.071068e-011
7188000000 0.066326499 0.05993028 0.00083926355 0.020803958 7.071068e-011 7.071068e-011 7.071068e-011 7.071068e-011
7196400000 0.043970961 0.01029154 -0.019973321 -0.0058443099 7.071068e-011 7.071068e-011 7.071068e-011 7.071068e-011
7204800000 0.010038975 0.062435534 0.01217739 -0.016302932 7.071068e-011 7.071068e-011 7.071068e-011 7.071068e-011
7213200000 0.078944385 0.071634702 0.011286909 0.017181434 7.071068e-011 7.071068e-011 7.071068e-011 7.071068e-011
7221600000 0.071925387 -0.0026220547 -0.020122221 0.0050629466 7.071068e-011 7.071068e-011 7.071068e-011 7.071068e-011
7230000000 -0.00079720531 0.028562697 0.0019679656 -0.020500068 7.071068e-011 7.071068e-011 7.071068e-011 7.071068e-011
7238400000 0.064784251 0.078694187 0.018632671 0.0091765588 7.071068e-011 7.071068e-011 7.071068e-011 7.071068e-011
7246800000 0.08116506 -0.0093348352 -0.014838815 0.014613418 7.071068e-011 7.071068e-011 7.071068e-011 7.071068e-011
7255200000 -0.012864702 -3.7656639e-005 -0.0083958842 -0.018786319 7.071068e-011 7.071068e-011 7.071068e-011 7.071068e-011
7263600000 0.026727363 0.08398892 0.020764507 -0.0016016837 7.071068e-011 7.071068e-011 7.071068e-011 7.071068e-011
7272000000 0.078711659 0.0081975702 -0.0052919402 0.019952057 7.071068e-011 7.071068e-011 7.071068e-011 7.071068e-011
7280400000 -0.023443479 -0.0064096525 -0.016813666 -0.011892026 7.071068e-011 7.071068e-011 7.071068e-011 7.071068e-011
7288800000 -0.0090701859 0.1031464 0.017258117 -0.011449761 7.071068e-011 7.071068e-011 7.071068e-011 7.071068e-011
7297200000 0.084892452 0.05994869 0.0048675942 0.020197703 7.071068e-011 7.071068e-011 7.071068e-011 7.071068e-011
7305600000 0.0088152383 0.0044508758 -0.020458532 -0.0025561741 7.071068e-011 7.071068e-011 7.071068e-011 7.071068e-011
7314000000 -0.0040231659 0.10606956 0.009479776 -0.018767102 7.071068e-011 7.071068e-011 7.071068e-011 7.071068e-011
7322400000 0.10855483 0.085764021 0.014223144 0.015045153 7.071068e-011 7.071068e-011 7.071068e-011 7.071068e-011
7330800000 0.060604773 -0.011653474 -0.019412935 0.0076803137 7.071068e-011 7.071068e-011 7.071068e-011 7.071068e-011
7339200000 0.0039544236 0.060544182 -0.00064445107 -0.021239744 7.071068e-011 7.071068e-011 7.071068e-011 7.071068e-011
7347600000 0.09904591 0.072313614 0.019995816 0.0065145642 7.071068e-011 7.071068e-011 7.071068e-011 7.071068e-011
7356000000 0.076193832 -0.03361021 -0.013139713 0.016199647 7.071068e-011 7.071068e-011 7.071068e-011 7.071068e-011
7364400000 -0.010164205 0.012289657 -0.010803662 -0.018200064 7.071068e-011 7.071068e-011 7.071068e-011 7.071068e-011
7372800000 0.054536857 0.054742809 0.020574542 -0.0039136847 7.071068e-011 7.071068e-011 7.071068e-011 7.071068e-011
7381200000 0.053013306 -0.030749185 -0.0039912825 0.020746708 7.071068e-011 7.071068e-011 7.071068e-011 7.071068e-011
7389600000 -0.040744256 0.00039458508 -0.018219724 -0.010912444 7.071068e-011 7.071068e-011 7.071068e-011 7.071068e-011
7398000000 0.0052550514 0.071991123 0.016570363 -0.012985375 7.071068e-011 7.071068e-011 7.071068e-011 7.071068e-011
7406400000 0.033138961 0.01506012 0.0063401028 0.020206247 7.071068e-011 7.071068e-011 7.071068e-011 7.071068e-011
7414800000 -0.037987966 0.027082799 -0.021328084 -0.0010610928 7.071068e-011 7.071068e-011 7.071068e-011 7.071068e-011
7423200000 -0.0018337632 0.10361904 0.0083815977 -0.019558452 7.071068e-011 7.071068e-011 7.071068e-011 7.071068e-011
7431600000 0.055610359 0.06068182 0.015235019 0.014933566 7.071068e-011 7.071068e-011 7.071068e-011 7.071068e-011
7440000000 0.01337636 0.038381983 -0.01933831 0.009221903 7.071068e-011 7.071068e-011 7.071068e-011 7.071068e-011
7448400000 0.024073647 0.08548297 -0.001707946 -0.021114437 7.071068e-011 7.071068e-011 7.071068e-011 7.071068e-011
7456800000 0.077358887 0.055487115 0.02039231 0.0059722676 7.071068e-011 7.071068e-011 7.071068e-011 7.071068e-011
7465200000 0.046267401 0.013905196 -0.012779579 0.017048992 7.071068e-011 7.071068e-011 7.071068e-011 7.071068e-011
7473600000 0.028470328 0.036842477 -0.011392196 -0.017796973 7.071068e-011 7.071068e-011 7.071068e-011 7.071068e-011
7482000000 0.058321744 0.033344522 0.020641185 -0.0040501859 7.071068e-011 7.071068e-011 7.071068e-011 7.071068e-011
7490400000 0.043672096 -0.010860231 -0.0035590027 0.020805463 7.071068e-011 7.071068e-011 7.071068e-011 7.071068e-011
7498800000 -0.00076032785 -0.0015377846 -0.018018397 -0.010654222 7.071068e-011 7.071068e-011 7.071068e-011 7.071068e-011
7507200000 0.00045995807 0.030866425 0.016379625 -0.013024961 7.071068e-011 7.071068e-011 7.071068e-011 7.071068e-011
7515600000 0.020608211 0.015492274 0.0062876074 0.019848295 7.071068e-011 7.071068e-011 7.071068e-011 7.071068e-011
7524000000 -0.020902103 0.0030678087 -0.020656383 -0.0013115314 7.071068e-011 7.071068e-011 7.071068e-011 7.071068e-011
7532400000 -0.034272764 0.059987802 0.0087597882 -0.018687218 7.071068e-011 7.071068e-011 7.071068e-011 7.071068e-011
7540800000 0.022741064 0.073361292 0.014362098 0.014742318 7.071068e-011 7.071068e-011 7.071068e-011 7.071068e-011
7549200000 0.019593382 0.022314491 -0.018573452 0.007745503 7.071068e-011 7.071068e-011 7.071068e-011 7.071068e-011
7557600000 -0.018441414 0.06093239 -0.00032515565 -0.020237394 7.071068e-011 7.071068e-011 7.071068e-011 7.071068e-011
7566000000 0.047768168 0.083594732 0.018818971 0.0069780713 7.071068e-011 7.071068e-011 7.071068e-011 7.071068e-011
7574400000 0.061005499 0.007959391 -0.013544627 0.014808444 7.071068e-011 7.071068e-011 7.071068e-011 7.071068e-011
7582800000 -0.0098447092 0.015200483 -0.0088320943 -0.018021282 7.071068e-011 7.071068e-011 7.071068e-011 7.071068e-011
7591200000 0.036466915 0.064409122 0.019743031 -0.0017447399 7.071068e-011 7.071068e-011 7.071068e-011 7.071068e-011
7599600000 0.059329327 -0.014953773 -0.0057555865 0.018644255 7.071068e-011 7.071068e-011 7.071068e-011 7.071068e-011
7608000000 -0.030951925 -0.020710658 -0.015427992 -0.012662979 7.071068e-011 7.071068e-011 7.071068e-011 7.071068e-011
7616400000 -0.01507605 0.056751639 0.017214118 -0.0099690082 7.071068e-011 7.071068e-011 7.071068e-011 7.071068e-011
7624800000 0.031530265 0.0051575066 0.0026451326 0.019552976 7.071068e-011 7.071068e-011 7.071068e-011 7.071068e-011
7633200000 -0.052572213 -0.0062919348 -0.019100469 -0.0047020405 7.071068e-011 7.071068e-011 7.071068e-011 7.071068e-011
7641600000 -0.038426701 0.086721845 0.011426927 -0.015829185 7.071068e-011 7.071068e-011 7.071068e-011 7.071068e-011
7650000000 0.037701227 0.053290028 0.010432435 0.016609851 7.071068e-011 7.071068e-011 7.071068e-011 7.071068e-011
7658400000 -0.020720819 0.011614057 -0.019533109 0.0037012594 7.071068e-011 7.071068e-011 7.071068e-011 7.071068e-011
7666800000 -0.022956843 0.095702164 0.0035037671 -0.019248063 7.071068e-011 7.071068e-011 7.071068e-011 7.071068e-011
7675200000 0.069590792 0.071817711 0.016115688 0.01078967 7.071068e-011 7.071068e-011 7.071068e-011 7.071068e-011
7683600000 0.032074381 -0.0041337833 -0.01627752 0.011223389 7.071068e-011 7.071068e-011 7.071068e-011 7.071068e-011
7692000000 -0.0053032152 0.046833329 -0.0045083733 -0.019145332 7.071068e-011 7.071068e-011 7.071068e-011 7.071068e-011
7700400000 0.065664232 0.043870095 0.019434376 0.0028753693 7.071068e-011 7.071068e-011 7.071068e-011 7.071068e-011
7708800000 0.035770029 -0.039678182 -0.010033976 0.016901588 7.071068e-011 7.071068e-011 7.071068e-011 7.071068e-011
7717200000 -0.033648532 0.00057453435 -0.011977976 -0.015654156 7.071068e-011 7.071068e-011 7.071068e-011 7.071068e-011
7725600000 0.016720258 0.033869755 0.01899955 -0.0050584693 7.071068e-011 7.071068e-011 7.071068e-011 7.071068e-011
7734000000 0.014175512 -0.035537519 -0.0021929427 0.01973623 7.071068e-011 7.071068e-011 7.071068e-011 7.071068e-011
7742400000 -0.070714965 -0.01241461 -0.017264321 -0.0092031509 7.071068e-011 7.071068e-011 7.071068e-011 7.071068e-011
7750800000 -0.040697947 0.062458433 0.015239483 -0.012509083 7.071068e-011 7.071068e-011 7.071068e-011 7.071068e-011
7759200000 0.0015551005 0.025361378 0.0059810742 0.01888952 7.071068e-011 7.071068e-011 7.071068e-011 7.071068e-011
7767600000 -0.053258728 0.019452807 -0.019758953 -0.0015286168 7.071068e-011 7.071068e-011 7.071068e-011 7.071068e-011
7776000000 -0.037856463 0.090869442 0.0087878592 -0.017589847 7.071068e-011 7.071068e-011 7.071068e-011 7.071068e-011
7784400000 0.031432513 0.068173707 0.013059014 0.014786034 7.071068e-011 7.071068e-011 7.071068e-011 7.071068e-011
7792800000 0.0013938256 0.02474666 -0.018467132 0.0064896927 7.071068e-011 7.071068e-011 7.071068e-011 7.071068e-011
7801200000 -0.0077034216 0.070116244 0.0011397292 -0.019832235 7.071068e-011 7.071068e-011 7.071068e-011 7.071068e-011
7809600000 0.05307452 0.058551818 0.018013315 0.0082588624 7.071068e-011 7.071068e-011 7.071068e-011 7.071068e-011
7818000000 0.035415012 -0.004334331 -0.014433608 0.013278457 7.071068e-011 7.071068e-011 7.071068e-011 7.071068e-011
7826400000 -0.0055641574 0.02075248 -0.0069383238 -0.018454395 7.071068e-011 7.071068e-011 7.071068e-011 7.071068e-011
7834800000 0.03248246 0.031613491 0.019708706 0.00049008953 7.071068e-011 7.071068e-011 7.071068e-011 7.071068e-011
7843200000 0.025334854 -0.019628624 -0.0078945551 0.018124461 7.071068e-011 7.071068e-011 7.071068e-011 7.071068e-011
7851600000 -0.026771069 -0.0047195335 -0.013819595 -0.014215247 7.071068e-011 7.071068e-011 7.071068e-011 7.071068e-011
7860000000 -0.0042323349 0.030778052 0.01828043 -0.0075185527 7.071068e-011 7.071068e-011 7.071068e-011 7.071068e-011
7868400000 0.010406045 -0.0034415231 -0.00011113937 0.019712709 7.071068e-011 7.071068e-011 7.071068e-011 7.071068e-011
7876800000 -0.036155216 -0.0038848957 -0.018447036 -0.0075155855 7.071068e-011 7.071068e-011 7.071068e-011 7.071068e-011
7885200000 -0.030620946 0.043441538 0.0136945 -0.014297902 7.071068e-011 7.071068e-011 7.071068e-011 7.071068e-011
7893600000 0.0088241473 0.036218453 0.0079363137 0.017869338 7.071068e-011 7.071068e-011 7.071068e-011 7.071068e-011
7902000000 -0.0082183685 0.009316314 -0.019640028 0.00033972852 7.071068e-011 7.071068e-011 7.071068e-011 7.071068e-011
7910400000 -0.02140804 0.038966145 0.0069746901 -0.018472349 7.071068e-011 7.071068e-011 7.071068e-011 7.071068e-011
7918800000 0.017026331 0.04902203 0.01429648 0.013233993 7.071068e-011 7.071068e-011 7.071068e-011 7.071068e-011
7927200000 0.028638542 0.0074369903 -0.017663077 0.0081295455 7.071068e-011 7.071068e-011 7.071068e-011 7.071068e-011
7935600000 -0.0079689622 0.0057199621 -0.00079576188 -0.019314468 7.071068e-011 7.071068e-011 7.071068e-011 7.071068e-011
7944000000 0.010868696 0.03318835 0.018120626 0.0067266719 7.071068e-011 7.071068e-011 7.071068e-011 7.071068e-011
7952400000 0.03755657 -0.0055309557 -0.013145098 0.014173395 7.071068e-011 7.071068e-011 7.071068e-011 7.071068e-011
7960800000 -0.01495886 -0.033427697 -0.0082153976 -0.017469348 7.071068e-011 7.071068e-011 7.071068e-011 7.071068e-011
7969200000 -0.029286999 0.020738754 0.018995019 -0.0008614519 7.071068e-011 7.071068e-011 7.071068e-011 7.071068e-011
7977600000 0.019970279 0.0069484897 -0.0065863538 0.017861204 7.071068e-011 7.071068e-011 7.071068e-011 7.071068e-011
7986000000 -0.024074536 -0.039764106 -0.014034502 -0.012859977 7.071068e-011 7.071068e-011 7.071068e-011 7.071068e-011
7994400000 -0.065423526 0.024658183 0.017146938 -0.0080762943 7.071068e-011 7.071068e-011 7.071068e-011 7.071068e-011
