!Keysight Technologies,N5235B,MY61252044,A.15.00.15
!Date: Friday, January 20, 2023 23:10:48
!Correction: S11(Off) 
!S21(Off) 
!S12(Off) 
!S22(Off) 
!S2P File: Measurements: S11, S21, S12, S22:
# Hz S  RI   R 50
6600000000 0.018364297 -0.17512894 0.015462906 -0.0030404206 7.071068e-011 7.071068e-011 7.071068e-011 7.071068e-011
6608408408.4084 -0.12437961 0.16573845 0.0053068134 0.010838469 7.071068e-011 7.071068e-011 7.071068e-011 7.071068e-011
6616816816.8168 0.30603623 0.092449851 -0.0089115622 0.0036905087 7.071068e-011 7.071068e-011 7.071068e-011 7.071068e-011
6625225225.2252 0.02434171 -0.2728945 -0.0017780464 -0.0093059102 7.071068e-011 7.071068e-011 7.071068e-011 7.071068e-011
6633633633.6336 -0.16553786 0.16162458 0.0093362993 -0.0003880201 7.071068e-011 7.071068e-011 7.071068e-011 7.071068e-011
6642042042.042 0.289978 0.11292216 -0.0018564683 0.0093182484 7.071068e-011 7.071068e-011 7.071068e-011 7.071068e-011
6650450450.4505 0.038879998 -0.25202981 -0.010720177 -0.0040975683 7.071068e-011 7.071068e-011 7.071068e-011 7.071068e-011
6658858858.8589 -0.14827089 0.13457003 0.0059776446 -0.011492822 7.071068e-011 7.071068e-011 7.071068e-011 7.071068e-011
6667267267.2673 0.2285827 0.10108145 0.012197435 0.0091721173 7.071068e-011 7.071068e-011 7.071068e-011 7.071068e-011
6675675675.6757 0.042722154 -0.15109859 -0.011541808 0.013817144 7.071068e-011 7.071068e-011 7.071068e-011 7.071068e-011
6684084084.0841 -0.044345066 0.084262274 -0.014593321 -0.013353238 7.071068e-011 7.071068e-011 7.071068e-011 7.071068e-011
6692492492.4925 0.10584777 0.047437545 0.014825986 -0.014909326 7.071068e-011 7.071068e-011 7.071068e-011 7.071068e-011
6700900900.9009 0.085923821 0.018283188 0.014758785 0.015420329 7.071068e-011 7.071068e-011 7.071068e-011 7.071068e-011
6709309309.3093 0.077169955 -0.04184271 -0.01555745 0.013104079 7.071068e-011 7.071068e-011 7.071068e-011 7.071068e-011
6717717717.7177 -0.031137856 0.034417454 -0.010137627 -0.016483232 7.071068e-011 7.071068e-011 7.071068e-011 7.071068e-011
6726126126.1261 0.15510692 0.11620937 0.01680308 -0.007080337 7.071068e-011 7.071068e-011 7.071068e-011 7.071068e-011
6734534534.5345 0.12850377 -0.14064787 0.0035553027 0.016232103 7.071068e-011 7.071068e-011 7.071068e-011 7.071068e-011
6742942942.9429 -0.10783539 0.026744286 -0.01591187 -0.00027856254 7.071068e-011 7.071068e-011 7.071068e-011 7.071068e-011
6751351351.3514 0.17154944 0.15250999 0.0036212495 -0.015367997 7.071068e-011 7.071068e-011 7.071068e-011 7.071068e-011
6759759759.7598 0.15058108 -0.1715707 0.013181955 0.0070677088 7.071068e-011 7.071068e-011 7.071068e-011 7.071068e-011
6768168168.1682 -0.14689773 -0.0054029385 -0.010856383 0.010408126 7.071068e-011 7.071068e-011 7.071068e-011 7.071068e-011
6776576576.5766 0.13410333 0.17886716 -0.0079991398 -0.013472212 7.071068e-011 7.071068e-011 7.071068e-011 7.071068e-011
6784984984.985 0.15111625 -0.14621848 0.01455494 -0.0040154811 7.071068e-011 7.071068e-011 7.071068e-011 7.071068e-011
6793393393.3934 -0.14740288 -0.006515895 -0.00034884113 0.015519108 7.071068e-011 7.071068e-011 7.071068e-011 7.071068e-011
6801801801.8018 0.10157233 0.20262772 -0.015713703 -0.0042995843 7.071068e-011 7.071068e-011 7.071068e-011 7.071068e-011
6810210210.2102 0.17237203 -0.094941303 0.0086747482 -0.014428217 7.071068e-011 7.071068e-011 7.071068e-011 7.071068e-011
6818618618.6186 -0.10532001 -0.010290934 0.012140932 0.013235522 7.071068e-011 7.071068e-011 7.071068e-011 7.071068e-011
6827027027.027 0.087860473 0.1854382 -0.01595971 0.0092030894 7.071068e-011 7.071068e-011 7.071068e-011 7.071068e-011
6835435435.4354 0.18142705 -0.048794046 -0.0044761817 -0.01789334 7.071068e-011 7.071068e-011 7.071068e-011 7.071068e-011
6843843843.8438 -0.045440387 -0.027999129 0.020166151 0.0002512194 7.071068e-011 7.071068e-011 7.071068e-011 7.071068e-011
6852252252.2523 0.074759208 0.12924369 -0.0045870761 0.020293169 7.071068e-011 7.071068e-011 7.071068e-011 7.071068e-011
6860660660.6607 0.14508131 -0.02028315 -0.018598743 -0.0096100587 7.071068e-011 7.071068e-011 7.071068e-011 7.071068e-011
6869069069.0691 0.004145877 -0.027015334 0.014517493 -0.01608322 7.071068e-011 7.071068e-011 7.071068e-011 7.071068e-011
6877477477.4775 0.054046709 0.072550826 0.01267443 0.018090352 7.071068e-011 7.071068e-011 7.071068e-011 7.071068e-011
6885885885.8859 0.090358652 0.0068958527 -0.020448389 0.0076991837 7.071068e-011 7.071068e-011 7.071068e-011 7.071068e-011
6894294294.2943 0.047236733 -0.0010087929 -0.0023049859 -0.022010861 7.071068e-011 7.071068e-011 7.071068e-011 7.071068e-011
6902702702.7027 0.038224965 0.019381626 0.021983014 0.0032456922 7.071068e-011 7.071068e-011 7.071068e-011 7.071068e-011
6911111111.1111 0.03100244 0.037658643 -0.0087808678 0.020205364 7.071068e-011 7.071068e-011 7.071068e-011 7.071068e-011
6919519519.5195 0.078279294 0.049914543 -0.016940122 -0.013618184 7.071068e-011 7.071068e-011 7.071068e-011 7.071068e-011
6927927927.9279 0.050721329 -0.01239228 0.017240042 -0.012769783 7.071068e-011 7.071068e-011 7.071068e-011 7.071068e-011
6936336336.3363 -0.0021538711 0.062224761 0.0072688265 0.019470714 7.071068e-011 7.071068e-011 7.071068e-011 7.071068e-011
6944744744.7447 0.11245096 0.089319646 -0.020833245 0.0011473808 7.071068e-011 7.071068e-011 7.071068e-011 7.071068e-011
6953153153.1532 0.084239505 -0.04554987 0.0044861203 -0.019989543 7.071068e-011 7.071068e-011 7.071068e-011 7.071068e-011
6961561561.5616 -0.028310694 0.054504793 0.017330503 0.0099461759 7.071068e-011 7.071068e-011 7.071068e-011 7.071068e-011
6969969969.97 0.12469453 0.10583661 -0.01450827 0.013545403 7.071068e-011 7.071068e-011 7.071068e-011 7.071068e-011
6978378378.3784 0.10160971 -0.070830949 -0.0083824536 -0.017366329 7.071068e-011 7.071068e-011 7.071068e-011 7.071068e-011
6986786786.7868 -0.064068824 0.032842699 0.018726638 -0.00228146 7.071068e-011 7.071068e-011 7.071068e-011 7.071068e-011
6995195195.1952 0.1030672 0.13384475 -0.0035503607 0.01891456 7.071068e-011 7.071068e-011 7.071068e-011 7.071068e-011
7003603603.6036 0.10881215 -0.05796054 -0.016602701 -0.0089017469 7.071068e-011 7.071068e-011 7.071068e-011 7.071068e-011
7012012012.012 -0.072698139 0.032603953 0.014116814 -0.012470325 7.071068e-011 7.071068e-011 7.071068e-011 7.071068e-011
7020420420.4204 0.08814501 0.16137826 0.007795678 0.017322812 7.071068e-011 7.071068e-011 7.071068e-011 7.071068e-011
7028828828.8288 0.13251589 -0.029107066 -0.018522447 0.0018311029 7.071068e-011 7.071068e-011 7.071068e-011 7.071068e-011
7037237237.2372 -0.054014165 0.030816684 0.0044149077 -0.018640263 7.071068e-011 7.071068e-011 7.071068e-011 7.071068e-011
7045645645.6456 0.090162933 0.17086464 0.01644695 0.0097940769 7.071068e-011 7.071068e-011 7.071068e-011 7.071068e-011
7054054054.0541 0.16751464 -0.0031893672 -0.014672095 0.012044497 7.071068e-011 7.071068e-011 7.071068e-011 7.071068e-011
7062462462.4625 -0.0081888577 -0.0038884163 -0.0068380642 -0.018468792 7.071068e-011 7.071068e-011 7.071068e-011 7.071068e-011
7070870870.8709 0.0783865 0.14039886 0.0197681 -0.0012001541 7.071068e-011 7.071068e-011 7.071068e-011 7.071068e-011
7079279279.2793 0.16830646 0.007259354 -0.0055443542 0.018794954 7.071068e-011 7.071068e-011 7.071068e-011 7.071068e-011
7087687687.6877 0.032451417 -0.026901243 -0.016647909 -0.01148229 7.071068e-011 7.071068e-011 7.071068e-011 7.071068e-011
7096096096.0961 0.059597138 0.089295849 0.015939133 -0.012484391 7.071068e-011 7.071068e-011 7.071068e-011 7.071068e-011
7104504504.5045 0.14776368 0.010309088 0.0065379273 0.019135242 7.071068e-011 7.071068e-011 7.071068e-011 7.071068e-011
7112912912.9129 0.050795726 -0.044614881 -0.020639403 -0.00012182092 7.071068e-011 7.071068e-011 7.071068e-011 7.071068e-011
7121321321.3213 0.034431603 0.031935528 0.0063015684 -0.019841162 7.071068e-011 7.071068e-011 7.071068e-011 7.071068e-011
7129729729.7297 0.089314662 0.014433977 0.016447296 0.012071848 7.071068e-011 7.071068e-011 7.071068e-011 7.071068e-011
7138138138.1381 0.043372095 -0.037801456 -0.017180752 0.011703066 7.071068e-011 7.071068e-011 7.071068e-011 7.071068e-011
7146546546.5465 -0.00051495072 0.013659171 -0.0058529121 -0.020117113 7.071068e-011 7.071068e-011 7.071068e-011 7.071068e-011
7154954954.955 0.030680817 0.041305974 0.020802101 0.00084991788 7.071068e-011 7.071068e-011 7.071068e-011 7.071068e-011
7163363363.3634 0.044933949 0.015725126 -0.0076533426 0.019099405 7.071068e-011 7.071068e-011 7.071068e-011 7.071068e-011
7171771771.7718 0.0011723561 0.020283237 -0.015750552 -0.013472259 7.071068e-011 7.071068e-011 7.071068e-011 7.071068e-011
7180180180.1802 0.01848118 0.072549909 0.017618202 -0.010395922 7.071068e-011 7.071068e-011 7.071068e-011 7.071068e-011
7188588588.5886 0.0677775 0.05612395 0.0038876114 0.020445149 7.071068e-011 7.071068e-011 7.071068e-011 7.071068e-011
7196996996.997 0.039839439 0.010122989 -0.020606084 -0.0027343177 7.071068e-011 7.071068e-011 7.071068e-011 7.071068e-011
7205405405.4054 0.012308 0.067152403 0.0095396545 -0.017997583 7.071068e-011 7.071068e-011 7.071068e-011 7.071068e-011
7213813813.8138 0.083225779 0.067204803 0.013847605 0.015184293 7.071068e-011 7.071068e-011 7.071068e-011 7.071068e-011
7222222222.2222 0.066177152 -0.0054909759 -0.018983597 0.0082254885 7.071068e-011 7.071068e-011 7.071068e-011 7.071068e-011
7230630630.6306 -0.0013054832 0.035161629 -0.0014435089 -0.020491306 7.071068e-011 7.071068e-011 7.071068e-011 7.071068e-011
7239039039.039 0.071550138 0.075576164 0.019951778 0.0058435346 7.071068e-011 7.071068e-011 7.071068e-011 7.071068e-011
7247447447.4474 0.075225107 -0.014825273 -0.012007413 0.016980786 7.071068e-011 7.071068e-011 7.071068e-011 7.071068e-011
7255855855.8559 -0.01661133 0.0073734373 -0.011601767 -0.01701113 7.071068e-011 7.071068e-011 7.071068e-011 7.071068e-011
7264264264.2643 0.034902774 0.084057927 0.020114722 -0.0053540552 7.071068e-011 7.071068e-011 7.071068e-011 7.071068e-011
7272672672.6727 0.074361339 0.00062282057 -0.0015126651 0.020533146 7.071068e-011 7.071068e-011 7.071068e-011 7.071068e-011
7281081081.0811 -0.029878339 0.00083106162 -0.018726192 -0.0084442692 7.071068e-011 7.071068e-011 7.071068e-011 7.071068e-011
7289489489.4895 9.4344014e-006 0.10760229 0.0146918 -0.014620742 7.071068e-011 7.071068e-011 7.071068e-011 7.071068e-011
7297897897.8979 0.084962018 0.050634284 0.00880781 0.018822968 7.071068e-011 7.071068e-011 7.071068e-011 7.071068e-011
7306306306.3063 0.0010483714 0.0088731283 -0.020575862 0.0015882005 7.071068e-011 7.071068e-011 7.071068e-011 7.071068e-011
7314714714.7147 0.0041141938 0.11281592 0.0053909272 -0.020292267 7.071068e-011 7.071068e-011 7.071068e-011 7.071068e-011
7323123123.1231 0.11267971 0.075334884 0.017009107 0.011727521 7.071068e-011 7.071068e-011 7.071068e-011 7.071068e-011
7331531531.5315 0.05119155 -0.011825649 -0.017321546 0.011719513 7.071068e-011 7.071068e-011 7.071068e-011 7.071068e-011
7339939939.9399 0.0079341782 0.068675905 -0.0053263512 -0.020548312 7.071068e-011 7.071068e-011 7.071068e-011 7.071068e-011
7348348348.3483 0.10548874 0.063648164 0.020921599 0.0019195884 7.071068e-011 7.071068e-011 7.071068e-011 7.071068e-011
7356756756.7568 0.066130459 -0.036982942 -0.0091925533 0.018791182 7.071068e-011 7.071068e-011 7.071068e-011 7.071068e-011
7365165165.1652 -0.010225222 0.02089292 -0.014749529 -0.015185776 7.071068e-011 7.071068e-011 7.071068e-011 7.071068e-011
7373573573.5736 0.061556172 0.049821824 0.019009242 -0.0085717933 7.071068e-011 7.071068e-011 7.071068e-011 7.071068e-011
7381981981.982 0.043940905 -0.035387583 0.001077606 0.021117827 7.071068e-011 7.071068e-011 7.071068e-011 7.071068e-011
7390390390.3904 -0.04309494 0.0096890572 -0.020334387 -0.0061486759 7.071068e-011 7.071068e-011 7.071068e-011 7.071068e-011
7398798798.7988 0.012996471 0.071208887 0.012882524 -0.016701318 7.071068e-011 7.071068e-011 7.071068e-011 7.071068e-011
7407207207.2072 0.027911885 0.009822187 0.011197886 0.017974148 7.071068e-011 7.071068e-011 7.071068e-011 7.071068e-011
7415615615.6156 -0.040943023 0.035364941 -0.020869387 0.0044013388 7.071068e-011 7.071068e-011 7.071068e-011 7.071068e-011
7424024024.024 0.0067706737 0.10500968 0.0030473324 -0.021036446 7.071068e-011 7.071068e-011 7.071068e-011 7.071068e-011
7432432432.4324 0.054708116 0.054126497 0.01867901 0.01040539 7.071068e-011 7.071068e-011 7.071068e-011 7.071068e-011
7440840840.8408 0.0097929277 0.042342559 -0.016127026 0.014062079 7.071068e-011 7.071068e-011 7.071068e-011 7.071068e-011
7449249249.2492 0.030249508 0.087110557 -0.0073371953 -0.019863835 7.071068e-011 7.071068e-011 7.071068e-011 7.071068e-011
7457657657.6577 0.077949546 0.048979342 0.0212522 0.00015669969 7.071068e-011 7.071068e-011 7.071068e-011 7.071068e-011
7466066066.0661 0.041744921 0.014070106 -0.007507835 0.019936893 7.071068e-011 7.071068e-011 7.071068e-011 7.071068e-011
7474474474.4745 0.03050144 0.039310575 -0.015942551 -0.013821889 7.071068e-011 7.071068e-011 7.071068e-011 7.071068e-011
7482882882.8829 0.059862103 0.029110914 0.01862151 -0.0098091373 7.071068e-011 7.071068e-011 7.071068e-011 7.071068e-011
7491291291.2913 0.038918383 -0.013376495 0.0026527629 0.020923236 7.071068e-011 7.071068e-011 7.071068e-011 7.071068e-011
7499699699.6997 -0.0033354983 0.0023944192 -0.020358698 -0.0049135177 7.071068e-011 7.071068e-011 7.071068e-011 7.071068e-011
7508108108.1081 0.0032848094 0.0319454 0.011739036 -0.017319717 7.071068e-011 7.071068e-011 7.071068e-011 7.071068e-011
7516516516.5165 0.019391533 0.011943556 0.011996714 0.016984724 7.071068e-011 7.071068e-011 7.071068e-011 7.071068e-011
7524924924.9249 -0.026393147 0.0065868516 -0.020022111 0.0050811102 7.071068e-011 7.071068e-011 7.071068e-011 7.071068e-011
7533333333.3333 -0.029819503 0.065974526 0.0025346717 -0.020493688 7.071068e-011 7.071068e-011 7.071068e-011 7.071068e-011
7541741741.7417 0.027833011 0.06887684 0.018248906 0.0094771674 7.071068e-011 7.071068e-011 7.071068e-011 7.071068e-011
7550150150.1502 0.013027052 0.020582566 -0.015207401 0.013218818 7.071068e-011 7.071068e-011 7.071068e-011 7.071068e-011
7558558558.5586 -0.01534819 0.068432234 -0.006850617 -0.019030055 7.071068e-011 7.071068e-011 7.071068e-011 7.071068e-011
7566966966.967 0.05560641 0.078112096 0.01999205 0.00048393573 7.071068e-011 7.071068e-011 7.071068e-011 7.071068e-011
7575375375.3754 0.053581104 0.0009592736 -0.0079114083 0.018451996 7.071068e-011 7.071068e-011 7.071068e-011 7.071068e-011
7583783783.7838 -0.011880981 0.024005117 -0.014391321 -0.014075966 7.071068e-011 7.071068e-011 7.071068e-011 7.071068e-011
7592192192.1922 0.045469873 0.060634874 0.018000027 -0.0083085848 7.071068e-011 7.071068e-011 7.071068e-011 7.071068e-011
7600600600.6006 0.051787317 -0.024323925 0.00086747238 0.019474901 7.071068e-011 7.071068e-011 7.071068e-011 7.071068e-011
7609009009.009 -0.037965238 -0.010814464 -0.01887068 -0.0065409276 7.071068e-011 7.071068e-011 7.071068e-011 7.071068e-011
7617417417.4174 -0.0051997253 0.058130361 0.012620835 -0.015310204 7.071068e-011 7.071068e-011 7.071068e-011 7.071068e-011
7625825825.8258 0.026428301 -0.0040650694 0.0094170012 0.01739509 7.071068e-011 7.071068e-011 7.071068e-011 7.071068e-011
7634234234.2342 -0.060625352 0.0039392663 -0.019540811 0.0024381706 7.071068e-011 7.071068e-011 7.071068e-011 7.071068e-011
7642642642.6426 -0.026635533 0.0916434 0.0049911994 -0.018890936 7.071068e-011 7.071068e-011 7.071068e-011 7.071068e-011
7651051051.0511 0.037551664 0.042514998 0.015739603 0.011703668 7.071068e-011 7.071068e-011 7.071068e-011 7.071068e-011
7659459459.4595 -0.029791119 0.018096944 -0.016773069 0.010652215 7.071068e-011 7.071068e-011 7.071068e-011 7.071068e-011
7667867867.8679 -0.011603662 0.10242324 -0.0038850876 -0.019113166 7.071068e-011 7.071068e-011 7.071068e-011 7.071068e-011
7676276276.2763 0.073833466 0.059059374 0.01908553 0.0039676228 7.071068e-011 7.071068e-011 7.071068e-011 7.071068e-011
7684684684.6847 0.021459488 -0.0039353762 -0.010773915 0.016607011 7.071068e-011 7.071068e-011 7.071068e-011 7.071068e-011
7693093093.0931 0.00062205037 0.05434693 -0.011470805 -0.015965184 7.071068e-011 7.071068e-011 7.071068e-011 7.071068e-011
7701501501.5015 0.071050301 0.03263814 0.019020906 -0.0048263064 7.071068e-011 7.071068e-011 7.071068e-011 7.071068e-011
7709909909.9099 0.023394139 -0.04250598 -0.0026124169 0.019507183 7.071068e-011 7.071068e-011 7.071068e-011 7.071068e-011
7718318318.3183 -0.033201341 0.010813823 -0.017206609 -0.009595002 7.071068e-011 7.071068e-011 7.071068e-011 7.071068e-011
7726726726.7267 0.024385221 0.027838686 0.015445337 -0.0122321 7.071068e-011 7.071068e-011 7.071068e-011 7.071068e-011
7735135135.1351 0.0029025329 -0.04126399 0.0059343176 0.018952455 7.071068e-011 7.071068e-011 7.071068e-011 7.071068e-011
7743543543.5435 -0.074987568 -0.00029182975 -0.01952821 -0.0014631095 7.071068e-011 7.071068e-011 7.071068e-011 7.071068e-011
7751951951.952 -0.030464098 0.06432128 0.0087265391 -0.01768419 7.071068e-011 7.071068e-011 7.071068e-011 7.071068e-011
7760360360.3604 -0.0025822893 0.017502831 0.013249392 0.014658319 7.071068e-011 7.071068e-011 7.071068e-011 7.071068e-011
7768768768.7688 -0.058291968 0.028356697 -0.01858522 0.0068670637 7.071068e-011 7.071068e-011 7.071068e-011 7.071068e-011
7777177177.1772 -0.027325138 0.095549345 0.00059060717 -0.019716743 7.071068e-011 7.071068e-011 7.071068e-011 7.071068e-011
7785585585.5856 0.033873733 0.058074322 0.018126208 0.0078180265 7.071068e-011 7.071068e-011 7.071068e-011 7.071068e-011
7793993993.994 -0.0055345693 0.027751334 -0.013906392 0.013690922 7.071068e-011 7.071068e-011 7.071068e-011 7.071068e-011
7802402402.4024 -0.00050740119 0.074871123 -0.0075750621 -0.018371722 7.071068e-011 7.071068e-011 7.071068e-011 7.071068e-011
7810810810.8108 0.057983905 0.048980962 0.019774314 -0.0004511615 7.071068e-011 7.071068e-011 7.071068e-011 7.071068e-011
7819219219.2192 0.02609906 -0.0064385575 -0.0071394639 0.018333925 7.071068e-011 7.071068e-011 7.071068e-011 7.071068e-011
7827627627.6276 -0.0036805191 0.026777633 -0.014405739 -0.013458449 7.071068e-011 7.071068e-011 7.071068e-011 7.071068e-011
7836036036.036 0.037476525 0.025829721 0.017844237 -0.0083434852 7.071068e-011 7.071068e-011 7.071068e-011 7.071068e-011
7844444444.4444 0.016597021 -0.023778327 0.0011181108 0.019718491 7.071068e-011 7.071068e-011 7.071068e-011 7.071068e-011
7852852852.8529 -0.02829482 0.0029547059 -0.018793009 -0.006355288 7.071068e-011 7.071068e-011 7.071068e-011 7.071068e-011
7861261261.2613 0.0016640682 0.029530531 0.012770202 -0.015047356 7.071068e-011 7.071068e-011 7.071068e-011 7.071068e-011
7869669669.6697 0.00551293 -0.0092122331 0.0090125501 0.017557479 7.071068e-011 7.071068e-011 7.071068e-011 7.071068e-011
7878078078.0781 -0.040366858 0.0033481065 -0.019807588 0.001962696 7.071068e-011 7.071068e-011 7.071068e-011 7.071068e-011
7886486486.4865 -0.024478398 0.046910416 0.0053843702 -0.019017966 7.071068e-011 7.071068e-011 7.071068e-011 7.071068e-011
7894894894.8949 0.010924408 0.030339319 0.015405567 0.011988837 7.071068e-011 7.071068e-011 7.071068e-011 7.071068e-011
7903303303.3033 -0.013471575 0.011062181 -0.017090071 0.009692668 7.071068e-011 7.071068e-011 7.071068e-011 7.071068e-011
7911711711.7117 -0.017880345 0.043913007 -0.0027641 -0.019485349 7.071068e-011 7.071068e-011 7.071068e-011 7.071068e-011
7920120120.1201 0.023070548 0.044921856 0.018894961 0.004724158 7.071068e-011 7.071068e-011 7.071068e-011 7.071068e-011
7928528528.5285 0.0236539 0.0019724786 -0.011456787 0.015723767 7.071068e-011 7.071068e-011 7.071068e-011 7.071068e-011
7936936936.9369 -0.0099507412 0.011122641 -0.010154154 -0.016384916 7.071068e-011 7.071068e-011 7.071068e-011 7.071068e-011
7945345345.3453 0.01777604 0.03212684 0.019019427 -0.0030848486 7.071068e-011 7.071068e-011 7.071068e-011 7.071068e-011
