!Keysight Technologies,N5235B,MY61252044,A.15.00.15
!Date: Friday, January 20, 2023 23:59:48
!Correction: S11(Off) 
!S21(Off) 
!S12(Off) 
!S22(Off) 
!S2P File: Measurements: S11, S21, S12, S22:
# Hz S  RI   R 50
6600000000 0.019056026 -0.1754072 0.015449743 -0.0030344818 7.071068e-011 7.071068e-011 7.071068e-011 7.071068e-011
6608408408.4084 -0.12499171 0.16504969 0.0052913618 0.0108379 7.071068e-011 7.071068e-011 7.071068e-011 7.071068e-011
6616816816.8168 0.30566573 0.093357585 -0.0089146439 0.00367576 7.071068e-011 7.071068e-011 7.071068e-011 7.071068e-011
6625225225.2252 0.02540336 -0.27296504 -0.0017648976 -0.0093068741 7.071068e-011 7.071068e-011 7.071068e-011 7.071068e-011
6633633633.6336 -0.16612159 0.16072312 0.0093383193 -0.00037213456 7.071068e-011 7.071068e-011 7.071068e-011 7.071068e-011
6642042042.042 0.2894848 0.11379889 -0.0018729378 0.0093170833 7.071068e-011 7.071068e-011 7.071068e-011 7.071068e-011
6650450450.4505 0.039862454 -0.2519854 -0.010719034 -0.0041123866 7.071068e-011 7.071068e-011 7.071068e-011 7.071068e-011
6658858858.8589 -0.14866911 0.13375466 0.0059983479 -0.011488589 7.071068e-011 7.071068e-011 7.071068e-011 7.071068e-011
6667267267.2673 0.22811711 0.10170528 0.012188212 0.0091925804 7.071068e-011 7.071068e-011 7.071068e-011 7.071068e-011
6675675675.6757 0.043361589 -0.15098436 -0.011561395 0.013807326 7.071068e-011 7.071068e-011 7.071068e-011 7.071068e-011
6684084084.0841 -0.044469964 0.083797038 -0.014577549 -0.013375231 7.071068e-011 7.071068e-011 7.071068e-011 7.071068e-011
6692492492.4925 0.10558803 0.047597472 0.014844541 -0.014893578 7.071068e-011 7.071068e-011 7.071068e-011 7.071068e-011
6700900900.9009 0.085997306 0.018478854 0.014738169 0.015435025 7.071068e-011 7.071068e-011 7.071068e-011 7.071068e-011
6709309309.3093 0.077450022 -0.041888081 -0.01557273 0.013079332 7.071068e-011 7.071068e-011 7.071068e-011 7.071068e-011
6717717717.7177 -0.031283233 0.034047011 -0.01010992 -0.016492482 7.071068e-011 7.071068e-011 7.071068e-011 7.071068e-011
6726126126.1261 0.15473983 0.11656389 0.016809309 -0.0070524449 7.071068e-011 7.071068e-011 7.071068e-011 7.071068e-011
6734534534.5345 0.12908792 -0.14042969 0.0035270131 0.016234415 7.071068e-011 7.071068e-011 7.071068e-011 7.071068e-011
6742942942.9429 -0.1079099 0.026045535 -0.01590725 -0.00030745624 7.071068e-011 7.071068e-011 7.071068e-011 7.071068e-011
6751351351.3514 0.17094578 0.15291576 0.0036460578 -0.015359757 7.071068e-011 7.071068e-011 7.071068e-011 7.071068e-011
6759759759.7598 0.15123142 -0.17118277 0.013166581 0.0070906593 7.071068e-011 7.071068e-011 7.071068e-011 7.071068e-011
6768168168.1682 -0.14683174 -0.0062011047 -0.010874154 0.010385376 7.071068e-011 7.071068e-011 7.071068e-011 7.071068e-011
6776576576.5766 0.13336875 0.17919378 -0.0079749823 -0.013486641 7.071068e-011 7.071068e-011 7.071068e-011 7.071068e-011
6784984984.985 0.15172851 -0.14571936 0.014563709 -0.0039876574 7.071068e-011 7.071068e-011 7.071068e-011 7.071068e-011
6793393393.3934 -0.14723055 -0.0072645852 -0.00037861516 0.015518514 7.071068e-011 7.071068e-011 7.071068e-011 7.071068e-011
6801801801.8018 0.10084128 0.2028009 -0.01570721 -0.0043276465 7.071068e-011 7.071068e-011 7.071068e-011 7.071068e-011
6810210210.2102 0.17284702 -0.094383508 0.0087023862 -0.01441331 7.071068e-011 7.071068e-011 7.071068e-011 7.071068e-011
6818618618.6186 -0.10505991 -0.010925281 0.012115098 0.013259572 7.071068e-011 7.071068e-011 7.071068e-011 7.071068e-011
6827027027.027 0.087239712 0.18548243 -0.015975865 0.0091745527 7.071068e-011 7.071068e-011 7.071068e-011 7.071068e-011
6835435435.4354 0.18170877 -0.04828785 -0.0044444487 -0.017900523 7.071068e-011 7.071068e-011 7.071068e-011 7.071068e-011
6843843843.8438 -0.045141324 -0.028435923 0.020166865 0.00029096811 7.071068e-011 7.071068e-011 7.071068e-011 7.071068e-011
6852252252.2523 0.074316435 0.12919466 -0.0046229381 0.020286893 7.071068e-011 7.071068e-011 7.071068e-011 7.071068e-011
6860660660.6607 0.14519644 -0.019931104 -0.018581554 -0.0096403481 7.071068e-011 7.071068e-011 7.071068e-011 7.071068e-011
6869069069.0691 0.0043841032 -0.027236488 0.014548647 -0.0160545 7.071068e-011 7.071068e-011 7.071068e-011 7.071068e-011
6877477477.4775 0.053813383 0.072454616 0.012641893 0.018113902 7.071068e-011 7.071068e-011 7.071068e-011 7.071068e-011
6885885885.8859 0.090346918 0.007059426 -0.020457381 0.0076631033 7.071068e-011 7.071068e-011 7.071068e-011 7.071068e-011
6894294294.2943 0.047349233 -0.0010184515 -0.0022608447 -0.022011656 7.071068e-011 7.071068e-011 7.071068e-011 7.071068e-011
6902702702.7027 0.038229961 0.019296316 0.021974133 0.0032858388 7.071068e-011 7.071068e-011 7.071068e-011 7.071068e-011
6911111111.1111 0.030910004 0.037618138 -0.0088158101 0.020186462 7.071068e-011 7.071068e-011 7.071068e-011 7.071068e-011
6919519519.5195 0.078234121 0.050060216 -0.016908357 -0.013651039 7.071068e-011 7.071068e-011 7.071068e-011 7.071068e-011
6927927927.9279 0.050924998 -0.012401634 0.017262282 -0.012738056 7.071068e-011 7.071068e-011 7.071068e-011 7.071068e-011
6936336336.3363 -0.0022695456 0.061998397 0.007231235 0.019481663 7.071068e-011 7.071068e-011 7.071068e-011 7.071068e-011
6944744744.7447 0.1122587 0.089549676 -0.020830525 0.0011046161 7.071068e-011 7.071068e-011 7.071068e-011 7.071068e-011
6953153153.1532 0.084579296 -0.045453575 0.0045232647 -0.019976085 7.071068e-011 7.071068e-011 7.071068e-011 7.071068e-011
6961561561.5616 -0.028400945 0.054123465 0.017309552 0.0099806739 7.071068e-011 7.071068e-011 7.071068e-011 7.071068e-011
6969969969.97 0.12437683 0.10608955 -0.014534155 0.013511761 7.071068e-011 7.071068e-011 7.071068e-011 7.071068e-011
6978378378.3784 0.10200062 -0.070629343 -0.0083471397 -0.017379927 7.071068e-011 7.071068e-011 7.071068e-011 7.071068e-011
6986786786.7868 -0.06407018 0.032360155 0.018727247 -0.002244419 7.071068e-011 7.071068e-011 7.071068e-011 7.071068e-011
6995195195.1952 0.10263911 0.13405821 -0.0035895824 0.018902147 7.071068e-011 7.071068e-011 7.071068e-011 7.071068e-011
7003603603.6036 0.10919232 -0.057662219 -0.016578775 -0.0089340406 7.071068e-011 7.071068e-011 7.071068e-011 7.071068e-011
7012012012.012 -0.072610259 0.032097127 0.014137463 -0.012438882 7.071068e-011 7.071068e-011 7.071068e-011 7.071068e-011
7020420420.4204 0.087665789 0.16150828 0.0077551464 0.017334254 7.071068e-011 7.071068e-011 7.071068e-011 7.071068e-011
7028828828.8288 0.13285266 -0.028733291 -0.01852276 0.0017939343 7.071068e-011 7.071068e-011 7.071068e-011 7.071068e-011
7037237237.2372 -0.053842925 0.03033242 0.0044539873 -0.018628534 7.071068e-011 7.071068e-011 7.071068e-011 7.071068e-011
7045645645.6456 0.089685686 0.17091046 0.01642157 0.0098319799 7.071068e-011 7.071068e-011 7.071068e-011 7.071068e-011
7054054054.0541 0.16771188 -0.0027809129 -0.014692922 0.012014366 7.071068e-011 7.071068e-011 7.071068e-011 7.071068e-011
7062462462.4625 -0.0079169534 -0.0042664781 -0.0067962902 -0.018480418 7.071068e-011 7.071068e-011 7.071068e-011 7.071068e-011
7070870870.8709 0.077962391 0.14033061 0.019770738 -0.001154225 7.071068e-011 7.071068e-011 7.071068e-011 7.071068e-011
7079279279.2793 0.16838638 0.0076246271 -0.0055791019 0.018781066 7.071068e-011 7.071068e-011 7.071068e-011 7.071068e-011
7087687687.6877 0.032735281 -0.027122186 -0.016617659 -0.011515391 7.071068e-011 7.071068e-011 7.071068e-011 7.071068e-011
7096096096.0961 0.059295103 0.089138582 0.015964342 -0.01244385 7.071068e-011 7.071068e-011 7.071068e-011 7.071068e-011
7104504504.5045 0.14773373 0.010600796 0.0065010893 0.019143552 7.071068e-011 7.071068e-011 7.071068e-011 7.071068e-011
7112912912.9129 0.05103673 -0.04470142 -0.020634223 -0.00016600121 7.071068e-011 7.071068e-011 7.071068e-011 7.071068e-011
7121321321.3213 0.034279451 0.031759433 0.0063474621 -0.019823601 7.071068e-011 7.071068e-011 7.071068e-011 7.071068e-011
7129729729.7297 0.089200072 0.014606127 0.016423019 0.012102846 7.071068e-011 7.071068e-011 7.071068e-011 7.071068e-011
7138138138.1381 0.043548152 -0.037757993 -0.017203892 0.011663367 7.071068e-011 7.071068e-011 7.071068e-011 7.071068e-011
7146546546.5465 -0.00053661794 0.013497313 -0.0058074743 -0.02012535 7.071068e-011 7.071068e-011 7.071068e-011 7.071068e-011
7154954954.955 0.030546684 0.041351385 0.020796854 0.00089038338 7.071068e-011 7.071068e-011 7.071068e-011 7.071068e-011
7163363363.3634 0.044997416 0.015852267 -0.0076962179 0.019078279 7.071068e-011 7.071068e-011 7.071068e-011 7.071068e-011
7171771771.7718 0.0012724242 0.020169022 -0.015718391 -0.013507215 7.071068e-011 7.071068e-011 7.071068e-011 7.071068e-011
7180180180.1802 0.018340159 0.072487205 0.017635448 -0.010358647 7.071068e-011 7.071068e-011 7.071068e-011 7.071068e-011
7188588588.5886 0.067743711 0.056273229 0.0038417517 0.020451058 7.071068e-011 7.071068e-011 7.071068e-011 7.071068e-011
7196996996.997 0.040015619 0.010105257 -0.020595528 -0.0027811355 7.071068e-011 7.071068e-011 7.071068e-011 7.071068e-011
7205405405.4054 0.012214268 0.066980869 0.0095780762 -0.017974418 7.071068e-011 7.071068e-011 7.071068e-011 7.071068e-011
7213813813.8138 0.083096683 0.067350075 0.013813132 0.015211067 7.071068e-011 7.071068e-011 7.071068e-011 7.071068e-011
7222222222.2222 0.066369787 -0.0054269419 -0.019001449 0.0081825014 7.071068e-011 7.071068e-011 7.071068e-011 7.071068e-011
7230630630.6306 -0.0013111132 0.034933295 -0.0013973602 -0.020491755 7.071068e-011 7.071068e-011 7.071068e-011 7.071068e-011
7239039039.039 0.071327813 0.075670384 0.019935727 0.0058864038 7.071068e-011 7.071068e-011 7.071068e-011 7.071068e-011
7247447447.4474 0.075408004 -0.014671474 -0.012043593 0.016950654 7.071068e-011 7.071068e-011 7.071068e-011 7.071068e-011
7255855855.8559 -0.016535947 0.0071327593 -0.011560564 -0.017036073 7.071068e-011 7.071068e-011 7.071068e-011 7.071068e-011
7264264264.2643 0.034635618 0.084071837 0.020126307 -0.0053091208 7.071068e-011 7.071068e-011 7.071068e-011 7.071068e-011
7272672672.6727 0.074484296 0.00086383201 -0.0015574466 0.020530203 7.071068e-011 7.071068e-011 7.071068e-011 7.071068e-011
7281081081.0811 -0.029695638 0.00061723986 -0.018703088 -0.0084873661 7.071068e-011 7.071068e-011 7.071068e-011 7.071068e-011
7289489489.4895 -0.00026587539 0.10751367 0.014723706 -0.014585501 7.071068e-011 7.071068e-011 7.071068e-011 7.071068e-011
7297897897.8979 0.084984347 0.050920974 0.008765717 0.018839974 7.071068e-011 7.071068e-011 7.071068e-011 7.071068e-011
7306306306.3063 0.0013047677 0.0087486785 -0.020576188 0.0015383419 7.071068e-011 7.071068e-011 7.071068e-011 7.071068e-011
7314714714.7147 0.0038992735 0.11262161 0.0054362868 -0.020277912 7.071068e-011 7.071068e-011 7.071068e-011 7.071068e-011
7323123123.1231 0.11258879 0.075607128 0.016981168 0.011765205 7.071068e-011 7.071068e-011 7.071068e-011 7.071068e-011
7331531531.5315 0.05147519 -0.011855881 -0.01734809 0.011675524 7.071068e-011 7.071068e-011 7.071068e-011 7.071068e-011
7339939939.9399 0.0078018862 0.068418935 -0.0052782893 -0.020560069 7.071068e-011 7.071068e-011 7.071068e-011 7.071068e-011
7348348348.3483 0.10531351 0.063856497 0.020914923 0.0019667575 7.071068e-011 7.071068e-011 7.071068e-011 7.071068e-011
7356756756.7568 0.066386752 -0.036914807 -0.0092364 0.018766686 7.071068e-011 7.071068e-011 7.071068e-011 7.071068e-011
7365165165.1652 -0.010267828 0.020620534 -0.014710953 -0.015220485 7.071068e-011 7.071068e-011 7.071068e-011 7.071068e-011
7373573573.5736 0.061328486 0.049958304 0.019027842 -0.0085284552 7.071068e-011 7.071068e-011 7.071068e-011 7.071068e-011
7381981981.982 0.044133987 -0.035247322 0.0010271918 0.021118855 7.071068e-011 7.071068e-011 7.071068e-011 7.071068e-011
7390390390.3904 -0.043047704 0.0094595402 -0.020318488 -0.0061963815 7.071068e-011 7.071068e-011 7.071068e-011 7.071068e-011
7398798798.7988 0.012767256 0.071264885 0.01292236 -0.016671151 7.071068e-011 7.071068e-011 7.071068e-011 7.071068e-011
7407207207.2072 0.028040795 0.0099971276 0.011152885 0.018000942 7.071068e-011 7.071068e-011 7.071068e-011 7.071068e-011
7415615615.6156 -0.040841065 0.03518727 -0.02087968 0.0043524918 7.071068e-011 7.071068e-011 7.071068e-011 7.071068e-011
7424024024.024 0.0065758019 0.10498526 0.0030996557 -0.021027165 7.071068e-011 7.071068e-011 7.071068e-011 7.071068e-011
7432432432.4324 0.05476043 0.054301921 0.018652325 0.010449198 7.071068e-011 7.071068e-011 7.071068e-011 7.071068e-011
7440840840.8408 0.0099261981 0.042228762 -0.016157674 0.014024939 7.071068e-011 7.071068e-011 7.071068e-011 7.071068e-011
7449249249.2492 0.030122444 0.087034099 -0.0072866529 -0.019881042 7.071068e-011 7.071068e-011 7.071068e-011 7.071068e-011
7457657657.6577 0.077928208 0.049114488 0.021251628 0.0002084942 7.071068e-011 7.071068e-011 7.071068e-011 7.071068e-011
7466066066.0661 0.041878678 0.01403108 -0.0075515071 0.019918237 7.071068e-011 7.071068e-011 7.071068e-011 7.071068e-011
7474474474.4745 0.030433945 0.039205972 -0.015906267 -0.013859349 7.071068e-011 7.071068e-011 7.071068e-011 7.071068e-011
7482882882.8829 0.059774421 0.029190602 0.018642586 -0.0097624017 7.071068e-011 7.071068e-011 7.071068e-011 7.071068e-011
7491291291.2913 0.039020136 -0.013323301 0.0026048259 0.020925477 7.071068e-011 7.071068e-011 7.071068e-011 7.071068e-011
7499699699.6997 -0.0033187815 0.0022826062 -0.020344609 -0.0049628532 7.071068e-011 7.071068e-011 7.071068e-011 7.071068e-011
7508108108.1081 0.0031635682 0.03194119 0.011779577 -0.017288534 7.071068e-011 7.071068e-011 7.071068e-011 7.071068e-011
7516516516.5165 0.019421371 0.012068782 0.011955545 0.01700726 7.071068e-011 7.071068e-011 7.071068e-011 7.071068e-011
7524924924.9249 -0.026282644 0.0065125166 -0.020031229 0.0050295969 7.071068e-011 7.071068e-011 7.071068e-011 7.071068e-011
7533333333.3333 -0.029930726 0.06587749 0.0025832693 -0.020484569 7.071068e-011 7.071068e-011 7.071068e-011 7.071068e-011
7541741741.7417 0.027765304 0.069025882 0.018223105 0.0095203165 7.071068e-011 7.071068e-011 7.071068e-011 7.071068e-011
7550150150.1502 0.013203137 0.020585453 -0.015238287 0.013179037 7.071068e-011 7.071068e-011 7.071068e-011 7.071068e-011
7558558558.5586 -0.015406947 0.068256229 -0.0068024914 -0.019044425 7.071068e-011 7.071068e-011 7.071068e-011 7.071068e-011
7566966966.967 0.055461522 0.078238867 0.019988958 0.00053141534 7.071068e-011 7.071068e-011 7.071068e-011 7.071068e-011
7575375375.3754 0.053763196 0.0010477982 -0.0079564415 0.018430149 7.071068e-011 7.071068e-011 7.071068e-011 7.071068e-011
7583783783.7838 -0.011866015 0.023778476 -0.014355049 -0.014109186 7.071068e-011 7.071068e-011 7.071068e-011 7.071068e-011
7592192192.1922 0.045257024 0.060708717 0.018020105 -0.0082654394 7.071068e-011 7.071068e-011 7.071068e-011 7.071068e-011
7600600600.6006 0.051936757 -0.02416621 0.00082000979 0.019476358 7.071068e-011 7.071068e-011 7.071068e-011 7.071068e-011
7609009009.009 -0.037878092 -0.01103473 -0.018851839 -0.0065853153 7.071068e-011 7.071068e-011 7.071068e-011 7.071068e-011
7617417417.4174 -0.0054470003 0.058135785 0.012656515 -0.01527758 7.071068e-011 7.071068e-011 7.071068e-011 7.071068e-011
7625825825.8258 0.026533661 -0.0038493678 0.009373391 0.017416414 7.071068e-011 7.071068e-011 7.071068e-011 7.071068e-011
7634234234.2342 -0.060469821 0.0037417163 -0.019544721 0.0023914343 7.071068e-011 7.071068e-011 7.071068e-011 7.071068e-011
7642642642.6426 -0.026880845 0.091577835 0.0050356491 -0.018878009 7.071068e-011 7.071068e-011 7.071068e-011 7.071068e-011
7651051051.0511 0.037585188 0.042758428 0.015709631 0.011742637 7.071068e-011 7.071068e-011 7.071068e-011 7.071068e-011
7659459459.4595 -0.029577415 0.01796446 -0.016800568 0.010611109 7.071068e-011 7.071068e-011 7.071068e-011 7.071068e-011
7667867867.8679 -0.011805138 0.10227638 -0.0038407461 -0.019121354 7.071068e-011 7.071068e-011 7.071068e-011 7.071068e-011
7676276276.2763 0.073783711 0.059291266 0.019074012 0.0040146085 7.071068e-011 7.071068e-011 7.071068e-011 7.071068e-011
7684684684.6847 0.021693313 -0.0039841994 -0.010814052 0.016576396 7.071068e-011 7.071068e-011 7.071068e-011 7.071068e-011
7693093093.0931 0.00049274432 0.054145351 -0.011433261 -0.01598818 7.071068e-011 7.071068e-011 7.071068e-011 7.071068e-011
7701501501.5015 0.070923291 0.032820527 0.019030374 -0.0047792313 7.071068e-011 7.071068e-011 7.071068e-011 7.071068e-011
7709909909.9099 0.023612266 -0.042474747 -0.0026622058 0.019498073 7.071068e-011 7.071068e-011 7.071068e-011 7.071068e-011
7718318318.3183 -0.033257287 0.010585697 -0.017184589 -0.0096316785 7.071068e-011 7.071068e-011 7.071068e-011 7.071068e-011
7726726726.7267 0.024194848 0.027965052 0.015477288 -0.012192324 7.071068e-011 7.071068e-011 7.071068e-011 7.071068e-011
7735135135.1351 0.0030822784 -0.041138608 0.0058852248 0.018965269 7.071068e-011 7.071068e-011 7.071068e-011 7.071068e-011
7743543543.5435 -0.07493373 -0.00050711306 -0.019521279 -0.0015060336 7.071068e-011 7.071068e-011 7.071068e-011 7.071068e-011
7751951951.952 -0.030685157 0.064349025 0.0087718554 -0.017658785 7.071068e-011 7.071068e-011 7.071068e-011 7.071068e-011
7760360360.3604 -0.0024816904 0.01768855 0.013211674 0.014690889 7.071068e-011 7.071068e-011 7.071068e-011 7.071068e-011
7768768768.7688 -0.058161944 0.028211324 -0.018600473 0.0068215192 7.071068e-011 7.071068e-011 7.071068e-011 7.071068e-011
7777177177.1772 -0.027506521 0.095484763 0.0006410022 -0.019714717 7.071068e-011 7.071068e-011 7.071068e-011 7.071068e-011
7785585585.5856 0.033891138 0.058263201 0.018105052 0.0078616086 7.071068e-011 7.071068e-011 7.071068e-011 7.071068e-011
7793993993.994 -0.0053653978 0.027668284 -0.013938156 0.013655724 7.071068e-011 7.071068e-011 7.071068e-011 7.071068e-011
7802402402.4024 -0.00063220243 0.074742369 -0.007527791 -0.018388996 7.071068e-011 7.071068e-011 7.071068e-011 7.071068e-011
7810810810.8108 0.057917863 0.049136218 0.019771723 -0.00040215824 7.071068e-011 7.071068e-011 7.071068e-011 7.071068e-011
7819219219.2192 0.026273042 -0.0064458842 -0.0071835043 0.018312806 7.071068e-011 7.071068e-011 7.071068e-011 7.071068e-011
7827627627.6276 -0.0037411151 0.026611028 -0.01436993 -0.013492549 7.071068e-011 7.071068e-011 7.071068e-011 7.071068e-011
7836036036.036 0.037359051 0.025924915 0.017864166 -0.008298032 7.071068e-011 7.071068e-011 7.071068e-011 7.071068e-011
7844444444.4444 0.016727801 -0.023716435 0.0010701667 0.019716984 7.071068e-011 7.071068e-011 7.071068e-011 7.071068e-011
7852852852.8529 -0.028288944 0.0028001259 -0.018773487 -0.006400086 7.071068e-011 7.071068e-011 7.071068e-011 7.071068e-011
7861261261.2613 0.001520269 0.029571448 0.012806318 -0.015011573 7.071068e-011 7.071068e-011 7.071068e-011 7.071068e-011
7869669669.6697 0.0055957567 -0.0090903454 0.0089670569 0.017574497 7.071068e-011 7.071068e-011 7.071068e-011 7.071068e-011
7878078078.0781 -0.040283721 0.0032312018 -0.019806417 0.0019114568 7.071068e-011 7.071068e-011 7.071068e-011 7.071068e-011
7886486486.4865 -0.024602285 0.046859492 0.0054289703 -0.0189995 7.071068e-011 7.071068e-011 7.071068e-011 7.071068e-011
7894894894.8949 0.010914526 0.030473409 0.015369879 0.01202373 7.071068e-011 7.071068e-011 7.071068e-011 7.071068e-011
7903303303.3033 -0.013340529 0.01102677 -0.017110979 0.0096457638 7.071068e-011 7.071068e-011 7.071068e-011 7.071068e-011
7911711711.7117 -0.017933493 0.043796435 -0.0027156302 -0.0194884 7.071068e-011 7.071068e-011 7.071068e-011 7.071068e-011
7920120120.1201 0.022984425 0.045006476 0.018878816 0.0047728675 7.071068e-011 7.071068e-011 7.071068e-011 7.071068e-011
7928528528.5285 0.0237746 0.0020239023 -0.011494437 0.015691295 7.071068e-011 7.071068e-011 7.071068e-011 7.071068e-011
7936936936.9369 -0.0099267056 0.010977832 -0.010109207 -0.016409952 7.071068e-011 7.071068e-011 7.071068e-011 7.071068e-011
7945345345.3453 0.017629104 0.032143187 0.019025479 -0.0030359589 7.071068e-011 7.071068e-011 7.071068e-011 7.071068e-011
