!Keysight Technologies,N5235B,MY61252044,A.15.00.15
!Date: Friday, January 20, 2023 19:02:59
!Correction: S11(Off) 
!S21(Off) 
!S12(Off) 
!S22(Off) 
!S2P File: Measurements: S11, S21, S12, S22:
# Hz S  RI   R 50
6600000000 0.016836584 -0.17441049 0.014909948 -0.005220301 7.071068e-011 7.071068e-011 7.071068e-011 7.071068e-011
6608400000 -0.12350526 0.16671623 0.0067856647 0.010004604 7.071068e-011 7.071068e-011 7.071068e-011 7.071068e-011
6616800000 0.30694172 0.091542035 -0.0083338711 0.0048771272 7.071068e-011 7.071068e-011 7.071068e-011 7.071068e-011
6625200000 0.023525236 -0.27300176 -0.0029933427 -0.0089887371 7.071068e-011 7.071068e-011 7.071068e-011 7.071068e-011
6633600000 -0.16574951 0.16162768 0.0092193438 -0.0015811134 7.071068e-011 7.071068e-011 7.071068e-011 7.071068e-011
6642000000 0.29039839 0.11382754 -0.00067998189 0.0094649447 7.071068e-011 7.071068e-011 7.071068e-011 7.071068e-011
6650400000 0.039588846 -0.25277638 -0.011122823 -0.002797585 7.071068e-011 7.071068e-011 7.071068e-011 7.071068e-011
6658800000 -0.14911126 0.13352133 0.0046194308 -0.0121124 7.071068e-011 7.071068e-011 7.071068e-011 7.071068e-011
6667200000 0.22810595 0.10341911 0.013094698 0.0077477745 7.071068e-011 7.071068e-011 7.071068e-011 7.071068e-011
6675600000 0.044406701 -0.15274435 -0.010031645 0.014896938 7.071068e-011 7.071068e-011 7.071068e-011 7.071068e-011
6684000000 -0.045394715 0.084182687 -0.015868809 -0.011861242 7.071068e-011 7.071068e-011 7.071068e-011 7.071068e-011
6692400000 0.10548626 0.04851187 0.013291991 -0.016275639 7.071068e-011 7.071068e-011 7.071068e-011 7.071068e-011
6700800000 0.086077593 0.017145507 0.016068298 0.014003212 7.071068e-011 7.071068e-011 7.071068e-011 7.071068e-011
6709200000 0.077856898 -0.040001623 -0.01443334 0.014429828 7.071068e-011 7.071068e-011 7.071068e-011 7.071068e-011
6717600000 -0.031319078 0.031832002 -0.011527309 -0.015623068 7.071068e-011 7.071068e-011 7.071068e-011 7.071068e-011
6726000000 0.15296309 0.11790255 0.016188037 -0.008430901 7.071068e-011 7.071068e-011 7.071068e-011 7.071068e-011
6734400000 0.13173781 -0.1385843 0.0047962498 0.01594476 7.071068e-011 7.071068e-011 7.071068e-011 7.071068e-011
6742800000 -0.10806811 0.021866497 -0.015927626 0.00088121317 7.071068e-011 7.071068e-011 7.071068e-011 7.071068e-011
6751200000 0.16738968 0.15573728 0.0025751693 -0.015607276 7.071068e-011 7.071068e-011 7.071068e-011 7.071068e-011
6759600000 0.15582776 -0.16876519 0.013636395 0.0062256427 7.071068e-011 7.071068e-011 7.071068e-011 7.071068e-011
6768000000 -0.14683595 -0.011932655 -0.010214686 0.01103946 7.071068e-011 7.071068e-011 7.071068e-011 7.071068e-011
6776400000 0.12863252 0.18190177 -0.0087446058 -0.013012473 7.071068e-011 7.071068e-011 7.071068e-011 7.071068e-011
6784800000 0.15668392 -0.14213979 0.014322164 -0.0047945459 7.071068e-011 7.071068e-011 7.071068e-011 7.071068e-011
6793200000 -0.1465653 -0.014523301 0.00041371403 0.015512316 7.071068e-011 7.071068e-011 7.071068e-011 7.071068e-011
6801600000 0.094924815 0.20572032 -0.015917726 -0.0036267128 7.071068e-011 7.071068e-011 7.071068e-011 7.071068e-011
6810000000 0.17714413 -0.09029711 0.0081182076 -0.014780723 7.071068e-011 7.071068e-011 7.071068e-011 7.071068e-011
6818400000 -0.10293455 -0.017820397 0.012567458 0.012779936 7.071068e-011 7.071068e-011 7.071068e-011 7.071068e-011
6826800000 0.080370136 0.18790831 -0.015659271 0.0096674394 7.071068e-011 7.071068e-011 7.071068e-011 7.071068e-011
6835200000 0.18566756 -0.044332087 -0.004949166 -0.017758422 7.071068e-011 7.071068e-011 7.071068e-011 7.071068e-011
6843600000 -0.042528752 -0.033235963 0.020184398 -0.00018270666 7.071068e-011 7.071068e-011 7.071068e-011 7.071068e-011
6852000000 0.068464741 0.13010806 -0.0042278273 0.020398762 7.071068e-011 7.071068e-011 7.071068e-011 7.071068e-011
6860400000 0.14844617 -0.016520051 -0.018712506 -0.0093583064 7.071068e-011 7.071068e-011 7.071068e-011 7.071068e-011
6868800000 0.0060621463 -0.030216636 0.014392617 -0.016196251 7.071068e-011 7.071068e-011 7.071068e-011 7.071068e-011
6877200000 0.050752278 0.072505593 0.012763986 0.018065205 7.071068e-011 7.071068e-011 7.071068e-011 7.071068e-011
6885600000 0.091954194 0.0087807989 -0.020453747 0.0077379006 7.071068e-011 7.071068e-011 7.071068e-011 7.071068e-011
6894000000 0.047721028 -0.0018353565 -0.0022349276 -0.022046486 7.071068e-011 7.071068e-011 7.071068e-011 7.071068e-011
6902400000 0.038340233 0.019253602 0.021987027 0.0034502868 7.071068e-011 7.071068e-011 7.071068e-011 7.071068e-011
6910800000 0.030919248 0.036194749 -0.0090380926 0.020134619 7.071068e-011 7.071068e-011 7.071068e-011 7.071068e-011
6919200000 0.076563753 0.051523887 -0.016749503 -0.013885336 7.071068e-011 7.071068e-011 7.071068e-011 7.071068e-011
6927600000 0.053649303 -0.011690645 0.017527323 -0.01246383 7.071068e-011 7.071068e-011 7.071068e-011 7.071068e-011
6936000000 -0.003118145 0.057707049 0.006850163 0.019705897 7.071068e-011 7.071068e-011 7.071068e-011 7.071068e-011
6944400000 0.10805612 0.093231268 -0.020891642 0.00055601087 7.071068e-011 7.071068e-011 7.071068e-011 7.071068e-011
6952800000 0.090155117 -0.043349445 0.0051258337 -0.019887628 7.071068e-011 7.071068e-011 7.071068e-011 7.071068e-011
6961200000 -0.029102186 0.047560357 0.016997937 0.010573246 7.071068e-011 7.071068e-011 7.071068e-011 7.071068e-011
6969600000 0.11799394 0.11062193 -0.015083502 0.012983492 7.071068e-011 7.071068e-011 7.071068e-011 7.071068e-011
6978000000 0.10995891 -0.066642955 -0.0076584304 -0.017746964 7.071068e-011 7.071068e-011 7.071068e-011 7.071068e-011
6986400000 -0.063902803 0.023256468 0.01883046 -0.0014472832 7.071068e-011 7.071068e-011 7.071068e-011 7.071068e-011
6994800000 0.094439916 0.13786414 -0.0045577534 0.018747101 7.071068e-011 7.071068e-011 7.071068e-011 7.071068e-011
7003200000 0.11722866 -0.051730633 -0.016153665 -0.0098546492 7.071068e-011 7.071068e-011 7.071068e-011 7.071068e-011
7011600000 -0.071352378 0.021303806 0.014807506 -0.01160828 7.071068e-011 7.071068e-011 7.071068e-011 7.071068e-011
7020000000 0.078013465 0.16484092 0.0066814069 0.017800977 7.071068e-011 7.071068e-011 7.071068e-011 7.071068e-011
7028400000 0.13973066 -0.02152735 -0.01863347 0.00062352122 7.071068e-011 7.071068e-011 7.071068e-011 7.071068e-011
7036800000 -0.050908852 0.019690217 0.0057625454 -0.018300299 7.071068e-011 7.071068e-011 7.071068e-011 7.071068e-011
7045200000 0.078815751 0.17307971 0.015702752 0.011049752 7.071068e-011 7.071068e-011 7.071068e-011 7.071068e-011
7053600000 0.17295569 0.0059543815 -0.015578323 0.010861884 7.071068e-011 7.071068e-011 7.071068e-011 7.071068e-011
7062000000 -0.0027411701 -0.01266318 -0.0052350401 -0.018983815 7.071068e-011 7.071068e-011 7.071068e-011 7.071068e-011
7070400000 0.068299428 0.14022405 0.019848816 0.00054995966 7.071068e-011 7.071068e-011 7.071068e-011 7.071068e-011
7078800000 0.17135391 0.016087579 -0.0072141238 0.018193698 7.071068e-011 7.071068e-011 7.071068e-011 7.071068e-011
7087200000 0.038792014 -0.032421395 -0.01545076 -0.013054868 7.071068e-011 7.071068e-011 7.071068e-011 7.071068e-011
7095600000 0.052057926 0.087351047 0.01718257 -0.010836893 7.071068e-011 7.071068e-011 7.071068e-011 7.071068e-011
7104000000 0.14884287 0.017428571 0.0045139636 0.019753247 7.071068e-011 7.071068e-011 7.071068e-011 7.071068e-011
7112400000 0.056747355 -0.046501134 -0.020490533 -0.0023600997 7.071068e-011 7.071068e-011 7.071068e-011 7.071068e-011
7120800000 0.030943971 0.028382879 0.0085353106 -0.019011941 7.071068e-011 7.071068e-011 7.071068e-011 7.071068e-011
7129200000 0.08903414 0.018891135 0.014974594 0.013935781 7.071068e-011 7.071068e-011 7.071068e-011 7.071068e-011
7137600000 0.04748432 -0.037970424 -0.018517544 0.0095402384 7.071068e-011 7.071068e-011 7.071068e-011 7.071068e-011
7146000000 -0.00013236815 0.0096333018 -0.0032919545 -0.020745937 7.071068e-011 7.071068e-011 7.071068e-011 7.071068e-011
7154400000 0.02811214 0.041947447 0.020530073 0.0035310602 7.071068e-011 7.071068e-011 7.071068e-011 7.071068e-011
7162800000 0.046298932 0.017113563 -0.010117453 0.017907368 7.071068e-011 7.071068e-011 7.071068e-011 7.071068e-011
7171200000 0.0033561084 0.017871195 -0.013763425 -0.015555487 7.071068e-011 7.071068e-011 7.071068e-011 7.071068e-011
7179600000 0.014812422 0.070169643 0.018982384 -0.0078835851 7.071068e-011 7.071068e-011 7.071068e-011 7.071068e-011
7188000000 0.066365384 0.059860472 0.00085872092 0.020807546 7.071068e-011 7.071068e-011 7.071068e-011 7.071068e-011
7196400000 0.043882318 0.01030576 -0.01999025 -0.0058181752 7.071068e-011 7.071068e-011 7.071068e-011 7.071068e-011
7204800000 0.010081589 0.062546059 0.012160011 -0.016332209 7.071068e-011 7.071068e-011 7.071068e-011 7.071068e-011
7213200000 0.07903868 0.071565986 0.011312884 0.017181795 7.071068e-011 7.071068e-011 7.071068e-011 7.071068e-011
7221600000 0.071805462 -0.0026823611 -0.020130666 0.0050873021 7.071068e-011 7.071068e-011 7.071068e-011 7.071068e-011
7230000000 -0.00081193523 0.028712211 0.0019410462 -0.02052689 7.071068e-011 7.071068e-011 7.071068e-011 7.071068e-011
7238400000 0.064933218 0.078645051 0.018658914 0.0091666598 7.071068e-011 7.071068e-011 7.071068e-011 7.071068e-011
7246800000 0.081058547 -0.0094481036 -0.014835487 0.01463698 7.071068e-011 7.071068e-011 7.071068e-011 7.071068e-011
7255200000 -0.012934269 0.00010096704 -0.008430426 -0.018789614 7.071068e-011 7.071068e-011 7.071068e-011 7.071068e-011
7263600000 0.026893079 0.083999246 0.020773718 -0.0016206634 7.071068e-011 7.071068e-011 7.071068e-011 7.071068e-011
7272000000 0.078654535 0.0080257645 -0.0052640205 0.019964345 7.071068e-011 7.071068e-011 7.071068e-011 7.071068e-011
7280400000 -0.023581557 -0.0063110618 -0.016847121 -0.011880883 7.071068e-011 7.071068e-011 7.071068e-011 7.071068e-011
7288800000 -0.0089032575 0.10324772 0.017251601 -0.011473785 7.071068e-011 7.071068e-011 7.071068e-011 7.071068e-011
7297200000 0.084910266 0.059753746 0.0048971944 0.020204052 7.071068e-011 7.071068e-011 7.071068e-011 7.071068e-011
7305600000 0.0086452309 0.0045101619 -0.020466549 -0.0025372086 7.071068e-011 7.071068e-011 7.071068e-011 7.071068e-011
7314000000 -0.0039027322 0.10621013 0.0094606616 -0.018793019 7.071068e-011 7.071068e-011 7.071068e-011 7.071068e-011
7322400000 0.1086539 0.085609496 0.014244192 0.015031998 7.071068e-011 7.071068e-011 7.071068e-011 7.071068e-011
7330800000 0.060427357 -0.01167076 -0.019414153 0.0077063213 7.071068e-011 7.071068e-011 7.071068e-011 7.071068e-011
7339200000 0.0039985217 0.060712293 -0.00067090313 -0.021254778 7.071068e-011 7.071068e-011 7.071068e-011 7.071068e-011
7347600000 0.099207632 0.072239123 0.020019572 0.0064900811 7.071068e-011 7.071068e-011 7.071068e-011 7.071068e-011
7356000000 0.076060295 -0.03370079 -0.013124429 0.016228728 7.071068e-011 7.071068e-011 7.071068e-011 7.071068e-011
7364400000 -0.010173124 0.012469368 -0.010838718 -0.018199518 7.071068e-011 7.071068e-011 7.071068e-011 7.071068e-011
7372800000 0.054716706 0.054682374 0.020582106 -0.003942579 7.071068e-011 7.071068e-011 7.071068e-011 7.071068e-011
7381200000 0.052926455 -0.030854061 -0.0039719865 0.020766705 7.071068e-011 7.071068e-011 7.071068e-011 7.071068e-011
7389600000 -0.040793885 0.0005365262 -0.018248226 -0.010894698 7.071068e-011 7.071068e-011 7.071068e-011 7.071068e-011
7398000000 0.0054097958 0.071999609 0.01655047 -0.013009683 7.071068e-011 7.071068e-011 7.071068e-011 7.071068e-011
7406400000 0.033087604 0.014934206 0.0063680219 0.02019731 7.071068e-011 7.071068e-011 7.071068e-011 7.071068e-011
7414800000 -0.038083583 0.027183188 -0.021329563 -0.0010378555 7.071068e-011 7.071068e-011 7.071068e-011 7.071068e-011
7423200000 -0.0017252754 0.10366888 0.0083603729 -0.01957565 7.071068e-011 7.071068e-011 7.071068e-011 7.071068e-011
7431600000 0.055607468 0.060576506 0.015259499 0.014927861 7.071068e-011 7.071068e-011 7.071068e-011 7.071068e-011
7440000000 0.01327289 0.038445059 -0.019344844 0.0092573082 7.071068e-011 7.071068e-011 7.071068e-011 7.071068e-011
7448400000 0.024136484 0.085542187 -0.0017411845 -0.021117296 7.071068e-011 7.071068e-011 7.071068e-011 7.071068e-011
7456800000 0.077392831 0.055412628 0.020412112 0.0059392541 7.071068e-011 7.071068e-011 7.071068e-011 7.071068e-011
7465200000 0.046177763 0.013917654 -0.012760111 0.017072475 7.071068e-011 7.071068e-011 7.071068e-011 7.071068e-011
7473600000 0.028504279 0.0369264 -0.011420101 -0.017793603 7.071068e-011 7.071068e-011 7.071068e-011 7.071068e-011
7482000000 0.058414847 0.03330994 0.020654624 -0.0040723765 7.071068e-011 7.071068e-011 7.071068e-011 7.071068e-011
7490400000 0.043621484 -0.010910395 -0.0035261437 0.020828048 7.071068e-011 7.071068e-011 7.071068e-011 7.071068e-011
7498800000 -0.00077597273 -0.0014599174 -0.018044287 -0.010631621 7.071068e-011 7.071068e-011 7.071068e-011 7.071068e-011
7507200000 0.00053677039 0.030879555 0.016365135 -0.013049798 7.071068e-011 7.071068e-011 7.071068e-011 7.071068e-011
7515600000 0.020613542 0.015425397 0.0063196621 0.019849285 7.071068e-011 7.071068e-011 7.071068e-011 7.071068e-011
7524000000 -0.020979978 0.0030935353 -0.02066106 -0.0012820211 7.071068e-011 7.071068e-011 7.071068e-011 7.071068e-011
7532400000 -0.034211759 0.060060434 0.0087327063 -0.018708492 7.071068e-011 7.071068e-011 7.071068e-011 7.071068e-011
7540800000 0.0228063 0.073295958 0.014394652 0.014735458 7.071068e-011 7.071068e-011 7.071068e-011 7.071068e-011
7549200000 0.019487623 0.022285767 -0.018568847 0.0077684843 7.071068e-011 7.071068e-011 7.071068e-011 7.071068e-011
7557600000 -0.018425265 0.06106846 -0.00035439778 -0.020245273 7.071068e-011 7.071068e-011 7.071068e-011 7.071068e-011
7566000000 0.047867965 0.083553776 0.018833481 0.0069586895 7.071068e-011 7.071068e-011 7.071068e-011 7.071068e-011
7574400000 0.060909893 0.0079032257 -0.013530176 0.014837568 7.071068e-011 7.071068e-011 7.071068e-011 7.071068e-011
7582800000 -0.0098776417 0.015337735 -0.0088628875 -0.0180209 7.071068e-011 7.071068e-011 7.071068e-011 7.071068e-011
7591200000 0.036607824 0.064412214 0.019754078 -0.0017756398 7.071068e-011 7.071068e-011 7.071068e-011 7.071068e-011
7599600000 0.059246153 -0.015067329 -0.0057145706 0.018662971 7.071068e-011 7.071068e-011 7.071068e-011 7.071068e-011
7608000000 -0.031044085 -0.020585321 -0.015457976 -0.012639084 7.071068e-011 7.071068e-011 7.071068e-011 7.071068e-011
7616400000 -0.014934364 0.056798588 0.017210418 -0.010005586 7.071068e-011 7.071068e-011 7.071068e-011 7.071068e-011
7624800000 0.031481422 0.0050128675 0.0026791587 0.019557701 7.071068e-011 7.071068e-011 7.071068e-011 7.071068e-011
7633200000 -0.052693568 -0.0061837728 -0.019115433 -0.0046797856 7.071068e-011 7.071068e-011 7.071068e-011 7.071068e-011
7641600000 -0.03829708 0.086790062 0.011412785 -0.015855508 7.071068e-011 7.071068e-011 7.071068e-011 7.071068e-011
7650000000 0.03771792 0.053149179 0.01045709 0.016598802 7.071068e-011 7.071068e-011 7.071068e-011 7.071068e-011
7658400000 -0.020875389 0.011676378 -0.0195243 0.0037363125 7.071068e-011 7.071068e-011 7.071068e-011 7.071068e-011
7666800000 -0.022859557 0.095839776 0.0034727817 -0.019255649 7.071068e-011 7.071068e-011 7.071068e-011 7.071068e-011
7675200000 0.069674037 0.071687862 0.016140325 0.010768784 7.071068e-011 7.071068e-011 7.071068e-011 7.071068e-011
7683600000 0.031920034 -0.0041402597 -0.016278537 0.011248628 7.071068e-011 7.071068e-011 7.071068e-011 7.071068e-011
7692000000 -0.0052588475 0.046991672 -0.0045405817 -0.019141626 7.071068e-011 7.071068e-011 7.071068e-011 7.071068e-011
7700400000 0.065767765 0.043782406 0.0194488 0.0028448431 7.071068e-011 7.071068e-011 7.071068e-011 7.071068e-011
7708800000 0.03562995 -0.039718583 -0.010006208 0.016927401 7.071068e-011 7.071068e-011 7.071068e-011 7.071068e-011
7717200000 -0.033645317 0.00072888337 -0.012009873 -0.015660679 7.071068e-011 7.071068e-011 7.071068e-011 7.071068e-011
7725600000 0.016840741 0.033826146 0.019007416 -0.0050861924 7.071068e-011 7.071068e-011 7.071068e-011 7.071068e-011
7734000000 0.014085593 -0.035658531 -0.0021616332 0.01975009 7.071068e-011 7.071068e-011 7.071068e-011 7.071068e-011
7742400000 -0.070789389 -0.012282955 -0.017288551 -0.0091787502 7.071068e-011 7.071068e-011 7.071068e-011 7.071068e-011
7750800000 -0.040572323 0.062473875 0.015223492 -0.012533181 7.071068e-011 7.071068e-011 7.071068e-011 7.071068e-011
7759200000 0.0015330801 0.025238357 0.0060030031 0.018892515 7.071068e-011 7.071068e-011 7.071068e-011 7.071068e-011
7767600000 -0.053384468 0.019533159 -0.019770045 -0.0014951052 7.071068e-011 7.071068e-011 7.071068e-011 7.071068e-011
7776000000 -0.037770577 0.090945348 0.0087616397 -0.017607659 7.071068e-011 7.071068e-011 7.071068e-011 7.071068e-011
7784400000 0.031439811 0.068060018 0.013085053 0.014775643 7.071068e-011 7.071068e-011 7.071068e-011 7.071068e-011
7792800000 0.0012698357 0.024774121 -0.018459078 0.0065145809 7.071068e-011 7.071068e-011 7.071068e-011 7.071068e-011
7801200000 -0.0076660886 0.070232943 0.0011120121 -0.019843718 7.071068e-011 7.071068e-011 7.071068e-011 7.071068e-011
7809600000 0.053146333 0.058477912 0.018037688 0.008214673 7.071068e-011 7.071068e-011 7.071068e-011 7.071068e-011
7818000000 0.035308853 -0.0043549417 -0.014427387 0.013303332 7.071068e-011 7.071068e-011 7.071068e-011 7.071068e-011
7826400000 -0.0055641187 0.020870484 -0.006961694 -0.018452525 7.071068e-011 7.071068e-011 7.071068e-011 7.071068e-011
7834800000 0.032565549 0.031588968 0.019719791 0.00047381312 7.071068e-011 7.071068e-011 7.071068e-011 7.071068e-011
7843200000 0.025272049 -0.019672429 -0.0078674173 0.018153725 7.071068e-011 7.071068e-011 7.071068e-011 7.071068e-011
7851600000 -0.026793953 -0.0046287267 -0.013837261 -0.014195292 7.071068e-011 7.071068e-011 7.071068e-011 7.071068e-011
7860000000 -0.0041374923 0.030779591 0.018273961 -0.0075623882 7.071068e-011 7.071068e-011 7.071068e-011 7.071068e-011
7868400000 0.010388539 -0.0035076835 -8.9693225e-005 0.019724956 7.071068e-011 7.071068e-011 7.071068e-011 7.071068e-011
7876800000 -0.036251735 -0.0038199364 -0.018457282 -0.0074917078 7.071068e-011 7.071068e-011 7.071068e-011 7.071068e-011
7885200000 -0.030559275 0.043491647 0.013667037 -0.014321136 7.071068e-011 7.071068e-011 7.071068e-011 7.071068e-011
7893600000 0.0088556735 0.036144577 0.0079696625 0.017861132 7.071068e-011 7.071068e-011 7.071068e-011 7.071068e-011
7902000000 -0.0083060944 0.009308801 -0.019651057 0.00036558943 7.071068e-011 7.071068e-011 7.071068e-011 7.071068e-011
7910400000 -0.021386972 0.039053477 0.0069545656 -0.01849895 7.071068e-011 7.071068e-011 7.071068e-011 7.071068e-011
7918800000 0.01708121 0.049002271 0.014325124 0.013223864 7.071068e-011 7.071068e-011 7.071068e-011 7.071068e-011
7927200000 0.028596986 0.0073901699 -0.017667435 0.0081637762 7.071068e-011 7.071068e-011 7.071068e-011 7.071068e-011
7935600000 -0.0080172876 0.0058121444 -0.00083154067 -0.019320687 7.071068e-011 7.071068e-011 7.071068e-011 7.071068e-011
7944000000 0.010961851 0.033211339 0.01814016 0.0067155496 7.071068e-011 7.071068e-011 7.071068e-011 7.071068e-011
7952400000 0.037535425 -0.0055993036 -0.013140001 0.014198972 7.071068e-011 7.071068e-011 7.071068e-011 7.071068e-011
7960800000 -0.015048439 -0.033359345 -0.0082515199 -0.017463539 7.071068e-011 7.071068e-011 7.071068e-011 7.071068e-011
7969200000 -0.029195407 0.020810572 0.019008446 -0.00088448083 7.071068e-011 7.071068e-011 7.071068e-011 7.071068e-011
7977600000 0.020009071 0.0068378067 -0.0065649259 0.017870968 7.071068e-011 7.071068e-011 7.071068e-011 7.071068e-011
7986000000 -0.024207646 -0.039741646 -0.014051287 -0.012841568 7.071068e-011 7.071068e-011 7.071068e-011 7.071068e-011
7994400000 -0.065377623 0.024798533 0.017143017 -0.0081167342 7.071068e-011 7.071068e-011 7.071068e-011 7.071068e-011
