!Keysight Technologies,N5235B,MY61252044,A.15.00.15
!Date: Friday, January 20, 2023 23:54:00
!Correction: S11(Off) 
!S21(Off) 
!S12(Off) 
!S22(Off) 
!S2P File: Measurements: S11, S21, S12, S22:
# Hz S  RI   R 50
6600000000 0.019002711 -0.17539451 0.015450311 -0.0030350224 7.071068e-011 7.071068e-011 7.071068e-011 7.071068e-011
6608408408.4084 -0.12494377 0.1651033 0.0052918284 0.010837369 7.071068e-011 7.071068e-011 7.071068e-011 7.071068e-011
6616816816.8168 0.30569777 0.093286693 -0.0089139864 0.0036793128 7.071068e-011 7.071068e-011 7.071068e-011 7.071068e-011
6625225225.2252 0.025320508 -0.27296451 -0.0017667226 -0.0093070734 7.071068e-011 7.071068e-011 7.071068e-011 7.071068e-011
6633633633.6336 -0.16606842 0.16078758 0.0093375016 -0.00037324755 7.071068e-011 7.071068e-011 7.071068e-011 7.071068e-011
6642042042.042 0.28952181 0.1137287 -0.0018696565 0.0093176048 7.071068e-011 7.071068e-011 7.071068e-011 7.071068e-011
6650450450.4505 0.039789528 -0.25198895 -0.010719521 -0.0041092956 7.071068e-011 7.071068e-011 7.071068e-011 7.071068e-011
6658858858.8589 -0.14864282 0.13382076 0.005995844 -0.011487242 7.071068e-011 7.071068e-011 7.071068e-011 7.071068e-011
6667267267.2673 0.22815818 0.10165613 0.012189814 0.0091878492 7.071068e-011 7.071068e-011 7.071068e-011 7.071068e-011
6675675675.6757 0.043313202 -0.15100302 -0.011556837 0.013807364 7.071068e-011 7.071068e-011 7.071068e-011 7.071068e-011
6684084084.0841 -0.044464562 0.08383745 -0.014578969 -0.013373979 7.071068e-011 7.071068e-011 7.071068e-011 7.071068e-011
6692492492.4925 0.1056157 0.047584102 0.014840715 -0.01489607 7.071068e-011 7.071068e-011 7.071068e-011 7.071068e-011
6700900900.9009 0.08599706 0.018461406 0.014741901 0.015434121 7.071068e-011 7.071068e-011 7.071068e-011 7.071068e-011
6709309309.3093 0.07743036 -0.041883055 -0.015570372 0.01308096 7.071068e-011 7.071068e-011 7.071068e-011 7.071068e-011
6717717717.7177 -0.031270299 0.034070257 -0.010113907 -0.01649352 7.071068e-011 7.071068e-011 7.071068e-011 7.071068e-011
6726126126.1261 0.15477262 0.11654331 0.016809136 -0.0070563243 7.071068e-011 7.071068e-011 7.071068e-011 7.071068e-011
6734534534.5345 0.12905061 -0.14045461 0.0035292027 0.016234072 7.071068e-011 7.071068e-011 7.071068e-011 7.071068e-011
6742942942.9429 -0.10791206 0.026096683 -0.015907135 -0.000304115 7.071068e-011 7.071068e-011 7.071068e-011 7.071068e-011
6751351351.3514 0.17100209 0.152897 0.0036427928 -0.015362005 7.071068e-011 7.071068e-011 7.071068e-011 7.071068e-011
6759759759.7598 0.15119421 -0.17122211 0.013168104 0.0070903585 7.071068e-011 7.071068e-011 7.071068e-011 7.071068e-011
6768168168.1682 -0.14683858 -0.0061389939 -0.01087166 0.010388489 7.071068e-011 7.071068e-011 7.071068e-011 7.071068e-011
6776576576.5766 0.13343136 0.17916287 -0.0079783564 -0.01348561 7.071068e-011 7.071068e-011 7.071068e-011 7.071068e-011
6784984984.985 0.15167734 -0.14576273 0.014564466 -0.0039895088 7.071068e-011 7.071068e-011 7.071068e-011 7.071068e-011
6793393393.3934 -0.14724597 -0.0072104884 -0.00037393419 0.015520251 7.071068e-011 7.071068e-011 7.071068e-011 7.071068e-011
6801801801.8018 0.10090146 0.20278917 -0.015707802 -0.0043238136 7.071068e-011 7.071068e-011 7.071068e-011 7.071068e-011
6810210210.2102 0.17281212 -0.09443219 0.0087008839 -0.014414956 7.071068e-011 7.071068e-011 7.071068e-011 7.071068e-011
6818618618.6186 -0.105083 -0.010877795 0.012119075 0.013255469 7.071068e-011 7.071068e-011 7.071068e-011 7.071068e-011
6827027027.027 0.087289207 0.18547723 -0.015973764 0.0091794552 7.071068e-011 7.071068e-011 7.071068e-011 7.071068e-011
6835435435.4354 0.18168828 -0.048330292 -0.0044456818 -0.01789934 7.071068e-011 7.071068e-011 7.071068e-011 7.071068e-011
6843843843.8438 -0.0451704 -0.028402707 0.020166822 0.00028361019 7.071068e-011 7.071068e-011 7.071068e-011 7.071068e-011
6852252252.2523 0.074355721 0.12920402 -0.0046184943 0.020285601 7.071068e-011 7.071068e-011 7.071068e-011 7.071068e-011
6860660660.6607 0.14519714 -0.019966163 -0.018582284 -0.00964077 7.071068e-011 7.071068e-011 7.071068e-011 7.071068e-011
6869069069.0691 0.0043617096 -0.027222341 0.014543258 -0.01606195 7.071068e-011 7.071068e-011 7.071068e-011 7.071068e-011
6877477477.4775 0.053834256 0.072461292 0.012645788 0.018111965 7.071068e-011 7.071068e-011 7.071068e-011 7.071068e-011
6885885885.8859 0.090352789 0.0070456066 -0.02046019 0.0076643988 7.071068e-011 7.071068e-011 7.071068e-011 7.071068e-011
6894294294.2943 0.047340956 -0.0010231363 -0.0022706187 -0.022011865 7.071068e-011 7.071068e-011 7.071068e-011 7.071068e-011
6902702702.7027 0.038229842 0.019301962 0.021975042 0.003284123 7.071068e-011 7.071068e-011 7.071068e-011 7.071068e-011
6911111111.1111 0.030922445 0.037622202 -0.008812082 0.020186285 7.071068e-011 7.071068e-011 7.071068e-011 7.071068e-011
6919519519.5195 0.078240454 0.050046738 -0.016914509 -0.013642714 7.071068e-011 7.071068e-011 7.071068e-011 7.071068e-011
6927927927.9279 0.050914273 -0.012403348 0.017260663 -0.012737881 7.071068e-011 7.071068e-011 7.071068e-011 7.071068e-011
6936336336.3363 -0.0022581534 0.062016666 0.0072341408 0.01948202 7.071068e-011 7.071068e-011 7.071068e-011 7.071068e-011
6944744744.7447 0.11228098 0.089534134 -0.020830583 0.0011125687 7.071068e-011 7.071068e-011 7.071068e-011 7.071068e-011
6953153153.1532 0.08455763 -0.045468628 0.0045207571 -0.019977983 7.071068e-011 7.071068e-011 7.071068e-011 7.071068e-011
6961561561.5616 -0.028389465 0.054153755 0.017310103 0.0099774431 7.071068e-011 7.071068e-011 7.071068e-011 7.071068e-011
6969969969.97 0.12440949 0.10607244 -0.014529292 0.013518394 7.071068e-011 7.071068e-011 7.071068e-011 7.071068e-011
6978378378.3784 0.10197313 -0.070649892 -0.0083491132 -0.017377157 7.071068e-011 7.071068e-011 7.071068e-011 7.071068e-011
6986786786.7868 -0.064069681 0.032398451 0.018726585 -0.0022464597 7.071068e-011 7.071068e-011 7.071068e-011 7.071068e-011
6995195195.1952 0.10267892 0.13404118 -0.0035817248 0.018903976 7.071068e-011 7.071068e-011 7.071068e-011 7.071068e-011
7003603603.6036 0.10916738 -0.057692129 -0.016582428 -0.0089310454 7.071068e-011 7.071068e-011 7.071068e-011 7.071068e-011
7012012012.012 -0.072615802 0.032137491 0.014137163 -0.012441061 7.071068e-011 7.071068e-011 7.071068e-011 7.071068e-011
7020420420.4204 0.087708928 0.16150139 0.0077638598 0.017333416 7.071068e-011 7.071068e-011 7.071068e-011 7.071068e-011
7028828828.8288 0.13283281 -0.028767271 -0.018523337 0.001798028 7.071068e-011 7.071068e-011 7.071068e-011 7.071068e-011
7037237237.2372 -0.053858779 0.030372648 0.0044523957 -0.018629372 7.071068e-011 7.071068e-011 7.071068e-011 7.071068e-011
7045645645.6456 0.089736298 0.17090982 0.016427604 0.0098247472 7.071068e-011 7.071068e-011 7.071068e-011 7.071068e-011
7054054054.0541 0.16771075 -0.002818984 -0.014692462 0.012017486 7.071068e-011 7.071068e-011 7.071068e-011 7.071068e-011
7062462462.4625 -0.0079381885 -0.0042405156 -0.0068019303 -0.018480349 7.071068e-011 7.071068e-011 7.071068e-011 7.071068e-011
7070870870.8709 0.078001328 0.14033712 0.019768877 -0.001163085 7.071068e-011 7.071068e-011 7.071068e-011 7.071068e-011
7079279279.2793 0.16839121 0.0075914767 -0.005576611 0.018783027 7.071068e-011 7.071068e-011 7.071068e-011 7.071068e-011
7087687687.6877 0.032715015 -0.027108351 -0.016622433 -0.011512679 7.071068e-011 7.071068e-011 7.071068e-011 7.071068e-011
7096096096.0961 0.059320081 0.089149274 0.015958956 -0.01245339 7.071068e-011 7.071068e-011 7.071068e-011 7.071068e-011
7104504504.5045 0.14774194 0.010575264 0.0065027596 0.019143464 7.071068e-011 7.071068e-011 7.071068e-011 7.071068e-011
7112912912.9129 0.051018126 -0.044697516 -0.020634145 -0.00015980276 7.071068e-011 7.071068e-011 7.071068e-011 7.071068e-011
7121321321.3213 0.034291174 0.031770837 0.0063381298 -0.019823678 7.071068e-011 7.071068e-011 7.071068e-011 7.071068e-011
7129729729.7297 0.089208625 0.014589193 0.016422903 0.012101215 7.071068e-011 7.071068e-011 7.071068e-011 7.071068e-011
7138138138.1381 0.043533541 -0.037763324 -0.017198734 0.011668891 7.071068e-011 7.071068e-011 7.071068e-011 7.071068e-011
7146546546.5465 -0.00053354516 0.013510295 -0.0058143134 -0.020123722 7.071068e-011 7.071068e-011 7.071068e-011 7.071068e-011
7154954954.955 0.030559171 0.04134471 0.020796571 0.00088760036 7.071068e-011 7.071068e-011 7.071068e-011 7.071068e-011
7163363363.3634 0.044992868 0.015837632 -0.0076889778 0.019081023 7.071068e-011 7.071068e-011 7.071068e-011 7.071068e-011
7171771771.7718 0.0012660151 0.020178553 -0.015722146 -0.01350193 7.071068e-011 7.071068e-011 7.071068e-011 7.071068e-011
7180180180.1802 0.018352937 0.072488189 0.017634148 -0.010363936 7.071068e-011 7.071068e-011 7.071068e-011 7.071068e-011
7188588588.5886 0.067748897 0.056258585 0.0038482915 0.020449219 7.071068e-011 7.071068e-011 7.071068e-011 7.071068e-011
7196996996.997 0.040002804 0.010103599 -0.020596983 -0.0027743343 7.071068e-011 7.071068e-011 7.071068e-011 7.071068e-011
7205405405.4054 0.012226112 0.066991955 0.0095721548 -0.01797645 7.071068e-011 7.071068e-011 7.071068e-011 7.071068e-011
7213813813.8138 0.083105519 0.067336008 0.013818973 0.01520739 7.071068e-011 7.071068e-011 7.071068e-011 7.071068e-011
7222222222.2222 0.066353545 -0.0054343487 -0.018997457 0.0081880167 7.071068e-011 7.071068e-011 7.071068e-011 7.071068e-011
7230630630.6306 -0.0013095954 0.034950204 -0.0014041462 -0.020490997 7.071068e-011 7.071068e-011 7.071068e-011 7.071068e-011
7239039039.039 0.071348786 0.075656809 0.019937182 0.0058779148 7.071068e-011 7.071068e-011 7.071068e-011 7.071068e-011
7247447447.4474 0.075393915 -0.014686132 -0.012040563 0.016954467 7.071068e-011 7.071068e-011 7.071068e-011 7.071068e-011
7255855855.8559 -0.016541926 0.0071509024 -0.011566528 -0.017033953 7.071068e-011 7.071068e-011 7.071068e-011 7.071068e-011
7264264264.2643 0.034659855 0.084066711 0.020124346 -0.005316806 7.071068e-011 7.071068e-011 7.071068e-011 7.071068e-011
7272672672.6727 0.074476026 0.00084197411 -0.0015538462 0.020531682 7.071068e-011 7.071068e-011 7.071068e-011 7.071068e-011
7281081081.0811 -0.029707722 0.00063380692 -0.01870792 -0.0084801782 7.071068e-011 7.071068e-011 7.071068e-011 7.071068e-011
7289489489.4895 -0.00024001823 0.10751477 0.014717638 -0.014590187 7.071068e-011 7.071068e-011 7.071068e-011 7.071068e-011
7297897897.8979 0.084983617 0.050895821 0.0087677212 0.018838994 7.071068e-011 7.071068e-011 7.071068e-011 7.071068e-011
7306306306.3063 0.0012856006 0.0087562734 -0.020575045 0.0015462614 7.071068e-011 7.071068e-011 7.071068e-011 7.071068e-011
7314714714.7147 0.0039224122 0.11263774 0.0054270606 -0.020280378 7.071068e-011 7.071068e-011 7.071068e-011 7.071068e-011
7323123123.1231 0.11260238 0.075581782 0.016982706 0.011762252 7.071068e-011 7.071068e-011 7.071068e-011 7.071068e-011
7331531531.5315 0.051457219 -0.011856986 -0.017343691 0.011684051 7.071068e-011 7.071068e-011 7.071068e-011 7.071068e-011
7339939939.9399 0.0078162253 0.068440996 -0.0052867555 -0.020557372 7.071068e-011 7.071068e-011 7.071068e-011 7.071068e-011
7348348348.3483 0.10533094 0.063833758 0.020916089 0.0019639353 7.071068e-011 7.071068e-011 7.071068e-011 7.071068e-011
7356756756.7568 0.06636814 -0.03692428 -0.0092265494 0.018770983 7.071068e-011 7.071068e-011 7.071068e-011 7.071068e-011
7365165165.1652 -0.010264876 0.020641213 -0.014715143 -0.015212053 7.071068e-011 7.071068e-011 7.071068e-011 7.071068e-011
7373573573.5736 0.061351832 0.049946327 0.019023895 -0.0085332068 7.071068e-011 7.071068e-011 7.071068e-011 7.071068e-011
7381981981.982 0.044119839 -0.03526355 0.0010329902 0.021117046 7.071068e-011 7.071068e-011 7.071068e-011 7.071068e-011
7390390390.3904 -0.043051235 0.0094784433 -0.020322371 -0.0061840499 7.071068e-011 7.071068e-011 7.071068e-011 7.071068e-011
7398798798.7988 0.012789353 0.071257569 0.012918509 -0.016673444 7.071068e-011 7.071068e-011 7.071068e-011 7.071068e-011
7407207207.2072 0.028033026 0.0099800648 0.011153845 0.018001184 7.071068e-011 7.071068e-011 7.071068e-011 7.071068e-011
7415615615.6156 -0.040848341 0.035204638 -0.020875409 0.0043722363 7.071068e-011 7.071068e-011 7.071068e-011 7.071068e-011
7424024024.024 0.0065933117 0.10498533 0.0031007845 -0.021028006 7.071068e-011 7.071068e-011 7.071068e-011 7.071068e-011
7432432432.4324 0.054758035 0.054284099 0.018656963 0.010441858 7.071068e-011 7.071068e-011 7.071068e-011 7.071068e-011
7440840840.8408 0.0099195698 0.042239334 -0.016146868 0.014036776 7.071068e-011 7.071068e-011 7.071068e-011 7.071068e-011
7449249249.2492 0.030137734 0.087037787 -0.0072841989 -0.019883092 7.071068e-011 7.071068e-011 7.071068e-011 7.071068e-011
7457657657.6577 0.077934645 0.049097892 0.021253843 0.00019420889 7.071068e-011 7.071068e-011 7.071068e-011 7.071068e-011
7466066066.0661 0.041868404 0.014031718 -0.0075424407 0.019922715 7.071068e-011 7.071068e-011 7.071068e-011 7.071068e-011
7474474474.4745 0.03044151 0.03921036 -0.015908385 -0.013858574 7.071068e-011 7.071068e-011 7.071068e-011 7.071068e-011
7482882882.8829 0.059786178 0.029182522 0.018638961 -0.0097711515 7.071068e-011 7.071068e-011 7.071068e-011 7.071068e-011
7491291291.2913 0.039012369 -0.013329678 0.0026117619 0.020927936 7.071068e-011 7.071068e-011 7.071068e-011 7.071068e-011
7499699699.6997 -0.0033203519 0.0022915998 -0.020348327 -0.0049565881 7.071068e-011 7.071068e-011 7.071068e-011 7.071068e-011
7508108108.1081 0.0031765497 0.031941261 0.011774157 -0.017295174 7.071068e-011 7.071068e-011 7.071068e-011 7.071068e-011
7516516516.5165 0.019421211 0.012056202 0.011963268 0.017006468 7.071068e-011 7.071068e-011 7.071068e-011 7.071068e-011
7524924924.9249 -0.026291294 0.0065197125 -0.020033196 0.0050381068 7.071068e-011 7.071068e-011 7.071068e-011 7.071068e-011
7533333333.3333 -0.029920472 0.065889031 0.0025758301 -0.020489229 7.071068e-011 7.071068e-011 7.071068e-011 7.071068e-011
7541741741.7417 0.027778257 0.069017552 0.018229751 0.0095149577 7.071068e-011 7.071068e-011 7.071068e-011 7.071068e-011
7550150150.1502 0.013192751 0.020586872 -0.015236818 0.01318661 7.071068e-011 7.071068e-011 7.071068e-011 7.071068e-011
7558558558.5586 -0.015401654 0.068274625 -0.0068102316 -0.019045873 7.071068e-011 7.071068e-011 7.071068e-011 7.071068e-011
7566966966.967 0.055480074 0.078234114 0.019990191 0.00052456313 7.071068e-011 7.071068e-011 7.071068e-011 7.071068e-011
7575375375.3754 0.053755522 0.0010411323 -0.0079495581 0.018434085 7.071068e-011 7.071068e-011 7.071068e-011 7.071068e-011
7583783783.7838 -0.011865841 0.023800151 -0.014360208 -0.014107152 7.071068e-011 7.071068e-011 7.071068e-011 7.071068e-011
7592192192.1922 0.045280915 0.060707305 0.018017963 -0.008272049 7.071068e-011 7.071068e-011 7.071068e-011 7.071068e-011
7600600600.6006 0.051930688 -0.02418126 0.00082690734 0.019476071 7.071068e-011 7.071068e-011 7.071068e-011 7.071068e-011
7609009009.009 -0.037887115 -0.011016968 -0.018855911 -0.006580181 7.071068e-011 7.071068e-011 7.071068e-011 7.071068e-011
7617417417.4174 -0.0054237531 0.058138538 0.012652671 -0.015284363 7.071068e-011 7.071068e-011 7.071068e-011 7.071068e-011
7625825825.8258 0.026527094 -0.0038676499 0.0093783438 0.017414019 7.071068e-011 7.071068e-011 7.071068e-011 7.071068e-011
7634234234.2342 -0.060484301 0.0037582899 -0.019544281 0.0023984697 7.071068e-011 7.071068e-011 7.071068e-011 7.071068e-011
7642642642.6426 -0.026858525 0.091587871 0.0050288127 -0.018880744 7.071068e-011 7.071068e-011 7.071068e-011 7.071068e-011
7651051051.0511 0.03758629 0.042742152 0.01571398 0.011739546 7.071068e-011 7.071068e-011 7.071068e-011 7.071068e-011
7659459459.4595 -0.029595308 0.017976055 -0.01679671 0.010616687 7.071068e-011 7.071068e-011 7.071068e-011 7.071068e-011
7667867867.8679 -0.011787442 0.10229773 -0.0038478468 -0.019120667 7.071068e-011 7.071068e-011 7.071068e-011 7.071068e-011
7676276276.2763 0.073792987 0.059276938 0.019074477 0.0040079961 7.071068e-011 7.071068e-011 7.071068e-011 7.071068e-011
7684684684.6847 0.021676039 -0.0039828527 -0.010807458 0.01658239 7.071068e-011 7.071068e-011 7.071068e-011 7.071068e-011
7693093093.0931 0.00050461019 0.054164529 -0.011435787 -0.01598662 7.071068e-011 7.071068e-011 7.071068e-011 7.071068e-011
7701501501.5015 0.070939094 0.03280567 0.019027365 -0.0047864886 7.071068e-011 7.071068e-011 7.071068e-011 7.071068e-011
7709909909.9099 0.023598319 -0.042483583 -0.0026546717 0.019499691 7.071068e-011 7.071068e-011 7.071068e-011 7.071068e-011
7718318318.3183 -0.033255052 0.010603998 -0.017186919 -0.0096303187 7.071068e-011 7.071068e-011 7.071068e-011 7.071068e-011
7726726726.7267 0.02421378 0.027958624 0.015470565 -0.012198901 7.071068e-011 7.071068e-011 7.071068e-011 7.071068e-011
7735135135.1351 0.0030679447 -0.041154645 0.0058909766 0.01896406 7.071068e-011 7.071068e-011 7.071068e-011 7.071068e-011
7743543543.5435 -0.074941278 -0.00048659681 -0.019523852 -0.0015007982 7.071068e-011 7.071068e-011 7.071068e-011 7.071068e-011
7751951951.952 -0.030665373 0.064348795 0.0087645212 -0.017664315 7.071068e-011 7.071068e-011 7.071068e-011 7.071068e-011
7760360360.3604 -0.0024886869 0.017673887 0.01321568 0.014689076 7.071068e-011 7.071068e-011 7.071068e-011 7.071068e-011
7768768768.7688 -0.058172099 0.028225418 -0.01859826 0.006830804 7.071068e-011 7.071068e-011 7.071068e-011 7.071068e-011
7777177177.1772 -0.027487919 0.095492706 0.00063480664 -0.019715345 7.071068e-011 7.071068e-011 7.071068e-011 7.071068e-011
7785585585.5856 0.033891916 0.058249004 0.018107409 0.007856641 7.071068e-011 7.071068e-011 7.071068e-011 7.071068e-011
7793993993.994 -0.0053776251 0.02767626 -0.013931935 0.013662516 7.071068e-011 7.071068e-011 7.071068e-011 7.071068e-011
7802402402.4024 -0.00061950984 0.074755095 -0.0075322376 -0.018389096 7.071068e-011 7.071068e-011 7.071068e-011 7.071068e-011
7810810810.8108 0.057926606 0.049120493 0.019772803 -0.00040827866 7.071068e-011 7.071068e-011 7.071068e-011 7.071068e-011
7819219219.2192 0.026259551 -0.0064442619 -0.0071776812 0.018316787 7.071068e-011 7.071068e-011 7.071068e-011 7.071068e-011
7827627627.6276 -0.0037345015 0.026624953 -0.01437282 -0.013489419 7.071068e-011 7.071068e-011 7.071068e-011 7.071068e-011
7836036036.036 0.037371825 0.025917368 0.017859802 -0.0083049126 7.071068e-011 7.071068e-011 7.071068e-011 7.071068e-011
7844444444.4444 0.016717458 -0.023724044 0.0010754596 0.019718263 7.071068e-011 7.071068e-011 7.071068e-011 7.071068e-011
7852852852.8529 -0.028290352 0.0028147702 -0.018776067 -0.006394688 7.071068e-011 7.071068e-011 7.071068e-011 7.071068e-011
7861261261.2613 0.0015335453 0.029568212 0.012801396 -0.015016361 7.071068e-011 7.071068e-011 7.071068e-011 7.071068e-011
7869669669.6697 0.0055909869 -0.0091028772 0.0089738583 0.017573418 7.071068e-011 7.071068e-011 7.071068e-011 7.071068e-011
7878078078.0781 -0.040292032 0.0032399744 -0.019809291 0.0019187058 7.071068e-011 7.071068e-011 7.071068e-011 7.071068e-011
7886486486.4865 -0.024593055 0.046867341 0.0054253535 -0.019002739 7.071068e-011 7.071068e-011 7.071068e-011 7.071068e-011
7894894894.8949 0.010919075 0.0304651 0.01537714 0.012019871 7.071068e-011 7.071068e-011 7.071068e-011 7.071068e-011
7903303303.3033 -0.013350257 0.011031219 -0.017109312 0.0096538523 7.071068e-011 7.071068e-011 7.071068e-011 7.071068e-011
7911711711.7117 -0.017928155 0.043809433 -0.0027222889 -0.019490065 7.071068e-011 7.071068e-011 7.071068e-011 7.071068e-011
7920120120.1201 0.022994595 0.045000333 0.018883169 0.0047637522 7.071068e-011 7.071068e-011 7.071068e-011 7.071068e-011
7928528528.5285 0.023766028 0.0020185832 -0.011490404 0.015696343 7.071068e-011 7.071068e-011 7.071068e-011 7.071068e-011
7936936936.9369 -0.0099279229 0.010989227 -0.010116082 -0.016405065 7.071068e-011 7.071068e-011 7.071068e-011 7.071068e-011
7945345345.3453 0.017642841 0.032140445 0.01902502 -0.0030420907 7.071068e-011 7.071068e-011 7.071068e-011 7.071068e-011
