!Keysight Technologies,N5235B,MY61252044,A.15.00.15
!Date: Friday, January 20, 2023 19:07:23
!Correction: S11(Off) 
!S21(Off) 
!S12(Off) 
!S22(Off) 
!S2P File: Measurements: S11, S21, S12, S22:
# Hz S  RI   R 50
6600000000 0.017008578 -0.17443563 0.014905612 -0.0052142311 7.071068e-011 7.071068e-011 7.071068e-011 7.071068e-011
6608400000 -0.12362886 0.16650127 0.0067836968 0.010008032 7.071068e-011 7.071068e-011 7.071068e-011 7.071068e-011
6616800000 0.3068077 0.091764502 -0.0083444947 0.0048619467 7.071068e-011 7.071068e-011 7.071068e-011 7.071068e-011
6625200000 0.023800049 -0.27300343 -0.0029840369 -0.0089985309 7.071068e-011 7.071068e-011 7.071068e-011 7.071068e-011
6633600000 -0.16587567 0.16138908 0.0092141693 -0.0015822515 7.071068e-011 7.071068e-011 7.071068e-011 7.071068e-011
6642000000 0.29025406 0.11407293 -0.00068771909 0.0094577773 7.071068e-011 7.071068e-011 7.071068e-011 7.071068e-011
6650400000 0.039846677 -0.25273612 -0.011116819 -0.0027946986 7.071068e-011 7.071068e-011 7.071068e-011 7.071068e-011
6658800000 -0.14921767 0.13330212 0.0046340423 -0.012104778 7.071068e-011 7.071068e-011 7.071068e-011 7.071068e-011
6667200000 0.22798751 0.1035774 0.013084114 0.0077516674 7.071068e-011 7.071068e-011 7.071068e-011 7.071068e-011
6675600000 0.04457121 -0.15273327 -0.010053334 0.014895605 7.071068e-011 7.071068e-011 7.071068e-011 7.071068e-011
6684000000 -0.045419354 0.084073342 -0.015846323 -0.01186591 7.071068e-011 7.071068e-011 7.071068e-011 7.071068e-011
6692400000 0.1054498 0.048566118 0.013293888 -0.016276432 7.071068e-011 7.071068e-011 7.071068e-011 7.071068e-011
6700800000 0.086089447 0.0171887 0.01606296 0.014014876 7.071068e-011 7.071068e-011 7.071068e-011 7.071068e-011
6709200000 0.077913545 -0.039994173 -0.014441577 0.01440685 7.071068e-011 7.071068e-011 7.071068e-011 7.071068e-011
6717600000 -0.031332683 0.031730387 -0.011514711 -0.015629515 7.071068e-011 7.071068e-011 7.071068e-011 7.071068e-011
6726000000 0.15284863 0.11799092 0.016189463 -0.0084085697 7.071068e-011 7.071068e-011 7.071068e-011 7.071068e-011
6734400000 0.1318702 -0.13849127 0.0047791535 0.015934987 7.071068e-011 7.071068e-011 7.071068e-011 7.071068e-011
6742800000 -0.1080815 0.021677744 -0.01591832 0.00088062213 7.071068e-011 7.071068e-011 7.071068e-011 7.071068e-011
6751200000 0.16722012 0.15580566 0.0025754471 -0.015615654 7.071068e-011 7.071068e-011 7.071068e-011 7.071068e-011
6759600000 0.15599842 -0.16865972 0.013628269 0.0062281573 7.071068e-011 7.071068e-011 7.071068e-011 7.071068e-011
6768000000 -0.14679067 -0.012124111 -0.0102192 0.011033549 7.071068e-011 7.071068e-011 7.071068e-011 7.071068e-011
6776400000 0.12842712 0.18197201 -0.008723936 -0.01302042 7.071068e-011 7.071068e-011 7.071068e-011 7.071068e-011
6784800000 0.1568204 -0.14198153 0.014324026 -0.0047802473 7.071068e-011 7.071068e-011 7.071068e-011 7.071068e-011
6793200000 -0.1464946 -0.014709705 0.00040147934 0.015508053 7.071068e-011 7.071068e-011 7.071068e-011 7.071068e-011
6801600000 0.094753116 0.20572855 -0.015899925 -0.0036384731 7.071068e-011 7.071068e-011 7.071068e-011 7.071068e-011
6810000000 0.17722082 -0.090151317 0.0081273001 -0.014772952 7.071068e-011 7.071068e-011 7.071068e-011 7.071068e-011
6818400000 -0.10285077 -0.017980395 0.012558051 0.012788953 7.071068e-011 7.071068e-011 7.071068e-011 7.071068e-011
6826800000 0.080201447 0.18789798 -0.015656916 0.009648161 7.071068e-011 7.071068e-011 7.071068e-011 7.071068e-011
6835200000 0.18572378 -0.044198941 -0.0049375496 -0.017759014 7.071068e-011 7.071068e-011 7.071068e-011 7.071068e-011
6843600000 -0.042456627 -0.033333067 0.020180132 -0.00015939509 7.071068e-011 7.071068e-011 7.071068e-011 7.071068e-011
6852000000 0.06835223 0.13007832 -0.0042462642 0.020384304 7.071068e-011 7.071068e-011 7.071068e-011 7.071068e-011
6860400000 0.14847773 -0.016416967 -0.018706856 -0.0093724215 7.071068e-011 7.071068e-011 7.071068e-011 7.071068e-011
6868800000 0.0061245915 -0.030273547 0.014411573 -0.016185094 7.071068e-011 7.071068e-011 7.071068e-011 7.071068e-011
6877200000 0.05068247 0.072485246 0.012753941 0.018079797 7.071068e-011 7.071068e-011 7.071068e-011 7.071068e-011
6885600000 0.091943175 0.0088141896 -0.020459894 0.0077352012 7.071068e-011 7.071068e-011 7.071068e-011 7.071068e-011
6894000000 0.047738217 -0.0018199303 -0.0022183764 -0.022048032 7.071068e-011 7.071068e-011 7.071068e-011 7.071068e-011
6902400000 0.038340122 0.019242804 0.021989029 0.0034498735 7.071068e-011 7.071068e-011 7.071068e-011 7.071068e-011
6910800000 0.030907752 0.03618728 -0.0090582604 0.020117678 7.071068e-011 7.071068e-011 7.071068e-011 7.071068e-011
6919200000 0.076532364 0.051556073 -0.016754098 -0.013906764 7.071068e-011 7.071068e-011 7.071068e-011 7.071068e-011
6927600000 0.053690933 -0.011677995 0.017539097 -0.012453245 7.071068e-011 7.071068e-011 7.071068e-011 7.071068e-011
6936000000 -0.0031534324 0.057644434 0.0068294615 0.019718233 7.071068e-011 7.071068e-011 7.071068e-011 7.071068e-011
6944400000 0.10798589 0.093282335 -0.020893482 0.00054145337 7.071068e-011 7.071068e-011 7.071068e-011 7.071068e-011
6952800000 0.090227537 -0.04329275 0.0051447847 -0.019865867 7.071068e-011 7.071068e-011 7.071068e-011 7.071068e-011
6961200000 -0.029119305 0.04745952 0.016993867 0.01058474 7.071068e-011 7.071068e-011 7.071068e-011 7.071068e-011
6969600000 0.11788046 0.11067522 -0.015093923 0.012969869 7.071068e-011 7.071068e-011 7.071068e-011 7.071068e-011
6978000000 0.11003958 -0.066578269 -0.0076614823 -0.01775261 7.071068e-011 7.071068e-011 7.071068e-011 7.071068e-011
6986400000 -0.063892111 0.023119856 0.018841173 -0.0014254579 7.071068e-011 7.071068e-011 7.071068e-011 7.071068e-011
6994800000 0.094314925 0.1378852 -0.0045822025 0.018743912 7.071068e-011 7.071068e-011 7.071068e-011 7.071068e-011
7003200000 0.11731569 -0.051631778 -0.01613641 -0.0098699145 7.071068e-011 7.071068e-011 7.071068e-011 7.071068e-011
7011600000 -0.071313165 0.021169428 0.014820264 -0.011599235 7.071068e-011 7.071068e-011 7.071068e-011 7.071068e-011
7020000000 0.077903889 0.16486463 0.0066710142 0.01780156 7.071068e-011 7.071068e-011 7.071068e-011 7.071068e-011
7028400000 0.13981202 -0.021427648 -0.018626345 0.0006002842 7.071068e-011 7.071068e-011 7.071068e-011 7.071068e-011
7036800000 -0.05084639 0.019576509 0.0057735122 -0.018284839 7.071068e-011 7.071068e-011 7.071068e-011 7.071068e-011
7045200000 0.078696437 0.17308179 0.015682707 0.011063396 7.071068e-011 7.071068e-011 7.071068e-011 7.071068e-011
7053600000 0.17299378 0.0060886228 -0.015586157 0.010845898 7.071068e-011 7.071068e-011 7.071068e-011 7.071068e-011
7062000000 -0.0026693484 -0.012744993 -0.0052242493 -0.018985813 7.071068e-011 7.071068e-011 7.071068e-011 7.071068e-011
7070400000 0.06819807 0.14018643 0.019855877 0.00058057427 7.071068e-011 7.071068e-011 7.071068e-011 7.071068e-011
7078800000 0.17136286 0.016192259 -0.0072147767 0.018190619 7.071068e-011 7.071068e-011 7.071068e-011 7.071068e-011
7087200000 0.038862292 -0.032461908 -0.015430406 -0.013066096 7.071068e-011 7.071068e-011 7.071068e-011 7.071068e-011
7095600000 0.051986396 0.087307073 0.017190913 -0.010830012 7.071068e-011 7.071068e-011 7.071068e-011 7.071068e-011
7104000000 0.14881258 0.017512174 0.0045001111 0.01976263 7.071068e-011 7.071068e-011 7.071068e-011 7.071068e-011
7112400000 0.056800131 -0.046497915 -0.020484135 -0.002375246 7.071068e-011 7.071068e-011 7.071068e-011 7.071068e-011
7120800000 0.03091244 0.028346438 0.0085519329 -0.019003844 7.071068e-011 7.071068e-011 7.071068e-011 7.071068e-011
7129200000 0.08899387 0.018929251 0.014951459 0.013950625 7.071068e-011 7.071068e-011 7.071068e-011 7.071068e-011
7137600000 0.04752373 -0.037941352 -0.018533718 0.0095296744 7.071068e-011 7.071068e-011 7.071068e-011 7.071068e-011
7146000000 -0.0001326038 0.0095985103 -0.0032841356 -0.020745136 7.071068e-011 7.071068e-011 7.071068e-011 7.071068e-011
7154400000 0.028075976 0.041969698 0.02053218 0.0035430752 7.071068e-011 7.071068e-011 7.071068e-011 7.071068e-011
7162800000 0.046312489 0.017153101 -0.010130114 0.017904881 7.071068e-011 7.071068e-011 7.071068e-011 7.071068e-011
7171200000 0.0033860807 0.017834112 -0.013750718 -0.015571106 7.071068e-011 7.071068e-011 7.071068e-011 7.071068e-011
7179600000 0.014772916 0.070146181 0.018977731 -0.0078615127 7.071068e-011 7.071068e-011 7.071068e-011 7.071068e-011
7188000000 0.066345885 0.059889015 0.00084811432 0.020812662 7.071068e-011 7.071068e-011 7.071068e-011 7.071068e-011
7196400000 0.043900479 0.010299848 -0.019980928 -0.0058302307 7.071068e-011 7.071068e-011 7.071068e-011 7.071068e-011
7204800000 0.010069593 0.062499739 0.012176358 -0.016319444 7.071068e-011 7.071068e-011 7.071068e-011 7.071068e-011
7213200000 0.078994468 0.071599662 0.011287133 0.017193532 7.071068e-011 7.071068e-011 7.071068e-011 7.071068e-011
7221600000 0.071854994 -0.0026526654 -0.020115361 0.0050697811 7.071068e-011 7.071068e-011 7.071068e-011 7.071068e-011
7230000000 -0.00080464443 0.02865212 0.0019518399 -0.020513112 7.071068e-011 7.071068e-011 7.071068e-011 7.071068e-011
7238400000 0.064872682 0.078672014 0.018638207 0.0091755958 7.071068e-011 7.071068e-011 7.071068e-011 7.071068e-011
7246800000 0.081103742 -0.0093983747 -0.01483715 0.014622672 7.071068e-011 7.071068e-011 7.071068e-011 7.071068e-011
7255200000 -0.012896878 4.4410823e-005 -0.0084139528 -0.018786097 7.071068e-011 7.071068e-011 7.071068e-011 7.071068e-011
7263600000 0.026837658 0.084013581 0.020767612 -0.0016179798 7.071068e-011 7.071068e-011 7.071068e-011 7.071068e-011
7272000000 0.078670077 0.0081083355 -0.005287223 0.019956525 7.071068e-011 7.071068e-011 7.071068e-011 7.071068e-011
7280400000 -0.023532908 -0.0063439403 -0.016841112 -0.011886301 7.071068e-011 7.071068e-011 7.071068e-011 7.071068e-011
7288800000 -0.0089735361 0.10322005 0.017269429 -0.011458589 7.071068e-011 7.071068e-011 7.071068e-011 7.071068e-011
7297200000 0.084912397 0.059851319 0.0048800427 0.020200862 7.071068e-011 7.071068e-011 7.071068e-011 7.071068e-011
7305600000 0.0086994413 0.004477676 -0.020457748 -0.0025537459 7.071068e-011 7.071068e-011 7.071068e-011 7.071068e-011
7314000000 -0.0039636455 0.10615569 0.0094777821 -0.018776089 7.071068e-011 7.071068e-011 7.071068e-011 7.071068e-011
7322400000 0.10859601 0.085682221 0.014234426 0.015036575 7.071068e-011 7.071068e-011 7.071068e-011 7.071068e-011
7330800000 0.060494654 -0.011663666 -0.019421788 0.0076895868 7.071068e-011 7.071068e-011 7.071068e-011 7.071068e-011
7339200000 0.0039795414 0.060651023 -0.00065250101 -0.021255344 7.071068e-011 7.071068e-011 7.071068e-011 7.071068e-011
7347600000 0.099141493 0.072266035 0.020006876 0.0065106764 7.071068e-011 7.071068e-011 7.071068e-011 7.071068e-011
7356000000 0.076101668 -0.033649404 -0.013136568 0.016213659 7.071068e-011 7.071068e-011 7.071068e-011 7.071068e-011
7364400000 -0.010171962 0.012403606 -0.010823643 -0.018196581 7.071068e-011 7.071068e-011 7.071068e-011 7.071068e-011
7372800000 0.054636598 0.054713786 0.020581502 -0.0039235749 7.071068e-011 7.071068e-011 7.071068e-011 7.071068e-011
7381200000 0.052951142 -0.030807476 -0.0039932076 0.02075881 7.071068e-011 7.071068e-011 7.071068e-011 7.071068e-011
7389600000 -0.040783841 0.0004714017 -0.018237095 -0.010907777 7.071068e-011 7.071068e-011 7.071068e-011 7.071068e-011
7398000000 0.0053436067 0.07199724 0.016559899 -0.012993637 7.071068e-011 7.071068e-011 7.071068e-011 7.071068e-011
7406400000 0.033106245 0.014990112 0.0063526519 0.020212732 7.071068e-011 7.071068e-011 7.071068e-011 7.071068e-011
7414800000 -0.038046621 0.027140511 -0.021344159 -0.0010564597 7.071068e-011 7.071068e-011 7.071068e-011 7.071068e-011
7423200000 -0.0017872301 0.10366204 0.0083806459 -0.019571263 7.071068e-011 7.071068e-011 7.071068e-011 7.071068e-011
7431600000 0.055610016 0.060617056 0.015244684 0.014936331 7.071068e-011 7.071068e-011 7.071068e-011 7.071068e-011
7440000000 0.013311858 0.038426969 -0.019346928 0.0092272665 7.071068e-011 7.071068e-011 7.071068e-011 7.071068e-011
7448400000 0.024129175 0.085527249 -0.0017178834 -0.021118317 7.071068e-011 7.071068e-011 7.071068e-011 7.071068e-011
7456800000 0.077384979 0.055444736 0.020412669 0.0059637656 7.071068e-011 7.071068e-011 7.071068e-011 7.071068e-011
7465200000 0.046222586 0.013919808 -0.012764361 0.017065365 7.071068e-011 7.071068e-011 7.071068e-011 7.071068e-011
7473600000 0.028478593 0.036906146 -0.011411667 -0.017800702 7.071068e-011 7.071068e-011 7.071068e-011 7.071068e-011
7482000000 0.05838304 0.033333212 0.020644076 -0.0040640128 7.071068e-011 7.071068e-011 7.071068e-011 7.071068e-011
7490400000 0.043640386 -0.010895429 -0.0035396665 0.020813109 7.071068e-011 7.071068e-011 7.071068e-011 7.071068e-011
7498800000 -0.00077323307 -0.0014861777 -0.018031444 -0.010646031 7.071068e-011 7.071068e-011 7.071068e-011 7.071068e-011
7507200000 0.00050913641 0.030864472 0.016364582 -0.013040151 7.071068e-011 7.071068e-011 7.071068e-011 7.071068e-011
7515600000 0.020602465 0.015465487 0.0063013854 0.019842323 7.071068e-011 7.071068e-011 7.071068e-011 7.071068e-011
7524000000 -0.02094795 0.0030771729 -0.020643234 -0.0013122185 7.071068e-011 7.071068e-011 7.071068e-011 7.071068e-011
7532400000 -0.034255173 0.060038663 0.0087580048 -0.018695841 7.071068e-011 7.071068e-011 7.071068e-011 7.071068e-011
7540800000 0.022763344 0.073327735 0.014371351 0.014740416 7.071068e-011 7.071068e-011 7.071068e-011 7.071068e-011
7549200000 0.019532751 0.022300802 -0.018573366 0.0077572907 7.071068e-011 7.071068e-011 7.071068e-011 7.071068e-011
7557600000 -0.018435018 0.061003614 -0.0003492441 -0.020251609 7.071068e-011 7.071068e-011 7.071068e-011 7.071068e-011
7566000000 0.047826931 0.083563626 0.01883246 0.0069687883 7.071068e-011 7.071068e-011 7.071068e-011 7.071068e-011
7574400000 0.060946606 0.0079268478 -0.013531534 0.014823067 7.071068e-011 7.071068e-011 7.071068e-011 7.071068e-011
7582800000 -0.0098740002 0.015282358 -0.0088474248 -0.018033646 7.071068e-011 7.071068e-011 7.071068e-011 7.071068e-011
7591200000 0.036546905 0.064413704 0.019752804 -0.0017556482 7.071068e-011 7.071068e-011 7.071068e-011 7.071068e-011
7599600000 0.059288584 -0.015026239 -0.0057386858 0.01865639 7.071068e-011 7.071068e-011 7.071068e-011 7.071068e-011
7608000000 -0.031016367 -0.020627482 -0.015440886 -0.012649634 7.071068e-011 7.071068e-011 7.071068e-011 7.071068e-011
7616400000 -0.014986835 0.056776706 0.01722201 -0.009991101 7.071068e-011 7.071068e-011 7.071068e-011 7.071068e-011
7624800000 0.031498421 0.0050610895 0.0026579204 0.019560358 7.071068e-011 7.071068e-011 7.071068e-011 7.071068e-011
7633200000 -0.052647144 -0.0062271799 -0.019112675 -0.0047012041 7.071068e-011 7.071068e-011 7.071068e-011 7.071068e-011
7641600000 -0.038355939 0.086771883 0.011417185 -0.015837565 7.071068e-011 7.071068e-011 7.071068e-011 7.071068e-011
7650000000 0.037716374 0.053219356 0.010446383 0.016611114 7.071068e-011 7.071068e-011 7.071068e-011 7.071068e-011
7658400000 -0.020816864 0.011640384 -0.019526787 0.0037134658 7.071068e-011 7.071068e-011 7.071068e-011 7.071068e-011
7666800000 -0.022904236 0.095812239 0.0034931183 -0.019255901 7.071068e-011 7.071068e-011 7.071068e-011 7.071068e-011
7675200000 0.069632299 0.071746208 0.016138006 0.010785462 7.071068e-011 7.071068e-011 7.071068e-011 7.071068e-011
7683600000 0.031988535 -0.0041273455 -0.01628113 0.011230052 7.071068e-011 7.071068e-011 7.071068e-011 7.071068e-011
7692000000 -0.0052804588 0.046924096 -0.0045281271 -0.019148218 7.071068e-011 7.071068e-011 7.071068e-011 7.071068e-011
7700400000 0.065741777 0.043824703 0.01944162 0.0028651578 7.071068e-011 7.071068e-011 7.071068e-011 7.071068e-011
7708800000 0.035689209 -0.039700978 -0.010031029 0.016912468 7.071068e-011 7.071068e-011 7.071068e-011 7.071068e-011
7717200000 -0.033659667 0.00065728225 -0.011993578 -0.015653295 7.071068e-011 7.071068e-011 7.071068e-011 7.071068e-011
7725600000 0.016805703 0.033858944 0.019011261 -0.0050763329 7.071068e-011 7.071068e-011 7.071068e-011 7.071068e-011
7734000000 0.01414104 -0.035613362 -0.0021897207 0.019741099 7.071068e-011 7.071068e-011 7.071068e-011 7.071068e-011
7742400000 -0.07078363 -0.01233853 -0.017270686 -0.0091988835 7.071068e-011 7.071068e-011 7.071068e-011 7.071068e-011
7750800000 -0.040617388 0.062479198 0.015245426 -0.012523605 7.071068e-011 7.071068e-011 7.071068e-011 7.071068e-011
7759200000 0.0015293809 0.025289996 0.0060041794 0.018892772 7.071068e-011 7.071068e-011 7.071068e-011 7.071068e-011
7767600000 -0.053348973 0.019504825 -0.01976534 -0.0015113595 7.071068e-011 7.071068e-011 7.071068e-011 7.071068e-011
7776000000 -0.037793361 0.090904154 0.0087817004 -0.017600516 7.071068e-011 7.071068e-011 7.071068e-011 7.071068e-011
7784400000 0.031440131 0.068110786 0.013073934 0.014795776 7.071068e-011 7.071068e-011 7.071068e-011 7.071068e-011
7792800000 0.0013123157 0.024762208 -0.018473877 0.0064990018 7.071068e-011 7.071068e-011 7.071068e-011 7.071068e-011
7801200000 -0.0076841144 0.070203058 0.0011372953 -0.01984545 7.071068e-011 7.071068e-011 7.071068e-011 7.071068e-011
7809600000 0.053122159 0.058505416 0.018031931 0.0082512992 7.071068e-011 7.071068e-011 7.071068e-011 7.071068e-011
7818000000 0.035341341 -0.00434594 -0.014426989 0.013277395 7.071068e-011 7.071068e-011 7.071068e-011 7.071068e-011
7826400000 -0.0055592577 0.02082192 -0.0069548306 -0.018461796 7.071068e-011 7.071068e-011 7.071068e-011 7.071068e-011
7834800000 0.032552514 0.031586085 0.019710811 0.00047709577 7.071068e-011 7.071068e-011 7.071068e-011 7.071068e-011
7843200000 0.025293848 -0.019659886 -0.0078803804 0.018139903 7.071068e-011 7.071068e-011 7.071068e-011 7.071068e-011
7851600000 -0.026785307 -0.004659527 -0.013830471 -0.014205351 7.071068e-011 7.071068e-011 7.071068e-011 7.071068e-011
7860000000 -0.0041806083 0.030781604 0.018276768 -0.0075240033 7.071068e-011 7.071068e-011 7.071068e-011 7.071068e-011
7868400000 0.010400794 -0.0034905279 -9.5422656e-005 0.019726586 7.071068e-011 7.071068e-011 7.071068e-011 7.071068e-011
7876800000 -0.036216661 -0.0038519979 -0.018449189 -0.0075101019 7.071068e-011 7.071068e-011 7.071068e-011 7.071068e-011
7885200000 -0.030579425 0.04348027 0.013682141 -0.01430975 7.071068e-011 7.071068e-011 7.071068e-011 7.071068e-011
7893600000 0.0088303452 0.036184005 0.0079508442 0.017865267 7.071068e-011 7.071068e-011 7.071068e-011 7.071068e-011
7902000000 -0.0082740681 0.009318457 -0.019647051 0.00034786048 7.071068e-011 7.071068e-011 7.071068e-011 7.071068e-011
7910400000 -0.021407641 0.03902385 0.006967634 -0.018485384 7.071068e-011 7.071068e-011 7.071068e-011 7.071068e-011
7918800000 0.01706475 0.049017232 0.014304617 0.013229136 7.071068e-011 7.071068e-011 7.071068e-011 7.071068e-011
7927200000 0.028610293 0.007415852 -0.017658839 0.0081460634 7.071068e-011 7.071068e-011 7.071068e-011 7.071068e-011
7935600000 -0.0080056395 0.0057720635 -0.00080098992 -0.019326689 7.071068e-011 7.071068e-011 7.071068e-011 7.071068e-011
7944000000 0.010923903 0.03319934 0.018135654 0.0067126588 7.071068e-011 7.071068e-011 7.071068e-011 7.071068e-011
7952400000 0.037528358 -0.0055840476 -0.013136677 0.014180815 7.071068e-011 7.071068e-011 7.071068e-011 7.071068e-011
7960800000 -0.015007287 -0.033387519 -0.0082359966 -0.017470255 7.071068e-011 7.071068e-011 7.071068e-011 7.071068e-011
7969200000 -0.029235989 0.020786077 0.018997703 -0.00086996937 7.071068e-011 7.071068e-011 7.071068e-011 7.071068e-011
7977600000 0.020001799 0.0068784775 -0.0065793446 0.017877687 7.071068e-011 7.071068e-011 7.071068e-011 7.071068e-011
7986000000 -0.02415649 -0.039760537 -0.014041725 -0.012855981 7.071068e-011 7.071068e-011 7.071068e-011 7.071068e-011
7994400000 -0.065406121 0.024736989 0.017152829 -0.0080863796 7.071068e-011 7.071068e-011 7.071068e-011 7.071068e-011
