!Keysight Technologies,N5235B,MY61252044,A.15.00.15
!Date: Friday, January 20, 2023 20:19:21
!Correction: S11(Off) 
!S21(Off) 
!S12(Off) 
!S22(Off) 
!S2P File: Measurements: S11, S21, S12, S22:
# Hz S  RI   R 50
6600000000 0.016943537 -0.17462222 0.014882867 -0.0052451566 7.071068e-011 7.071068e-011 7.071068e-011 7.071068e-011
6601680336.0672 -0.060490552 -0.15830238 0.0033353772 -0.014796003 7.071068e-011 7.071068e-011 7.071068e-011 7.071068e-011
6603360672.1344 -0.12839304 -0.10447539 -0.010296805 -0.010300626 7.071068e-011 7.071068e-011 7.071068e-011 7.071068e-011
6605041008.2016 -0.16817048 -0.02084416 -0.013517799 0.0029812774 7.071068e-011 7.071068e-011 7.071068e-011 7.071068e-011
6606721344.2689 -0.16747238 0.076352678 -0.0046382146 0.012109484 7.071068e-011 7.071068e-011 7.071068e-011 7.071068e-011
6608401680.3361 -0.12356592 0.16672316 0.0067991298 0.00998988 7.071068e-011 7.071068e-011 7.071068e-011 7.071068e-011
6610082016.4033 -0.043834139 0.23139927 0.011345888 0.00037889351 7.071068e-011 7.071068e-011 7.071068e-011 7.071068e-011
6611762352.4705 0.056998007 0.25742894 0.0067699151 -0.0084502771 7.071068e-011 7.071068e-011 7.071068e-011 7.071068e-011
6613442688.5377 0.16066779 0.23970059 -0.0026141333 -0.010111502 7.071068e-011 7.071068e-011 7.071068e-011 7.071068e-011
6615123024.6049 0.24901065 0.18113752 -0.0093147065 -0.0038095559 7.071068e-011 7.071068e-011 7.071068e-011 7.071068e-011
6616803360.6721 0.30694997 0.091476686 -0.0083176577 0.0048913709 7.071068e-011 7.071068e-011 7.071068e-011 7.071068e-011
6618483696.7393 0.32466748 -0.014638189 -0.0012749385 0.0091980565 7.071068e-011 7.071068e-011 7.071068e-011 7.071068e-011
6620164032.8066 0.29867557 -0.12011937 0.0061967084 0.0066638971 7.071068e-011 7.071068e-011 7.071068e-011 7.071068e-011
6621844368.8738 0.23220755 -0.20760192 0.0091146706 -0.00060026435 7.071068e-011 7.071068e-011 7.071068e-011 7.071068e-011
6623524704.941 0.13524517 -0.26197344 0.0052699652 -0.0076881968 7.071068e-011 7.071068e-011 7.071068e-011 7.071068e-011
6625205041.0082 0.023364095 -0.27296513 -0.0030210952 -0.008992305 7.071068e-011 7.071068e-011 7.071068e-011 7.071068e-011
6626885377.0754 -0.084427208 -0.23745215 -0.009013541 -0.0029298759 7.071068e-011 7.071068e-011 7.071068e-011 7.071068e-011
6628565713.1426 -0.16901366 -0.160611 -0.0076769497 0.0053302869 7.071068e-011 7.071068e-011 7.071068e-011 7.071068e-011
6630246049.2098 -0.21482167 -0.055551596 -0.00054342469 0.0092237964 7.071068e-011 7.071068e-011 7.071068e-011 7.071068e-011
6631926385.2771 -0.21342641 0.058818173 0.0068875882 0.0061756745 7.071068e-011 7.071068e-011 7.071068e-011 7.071068e-011
6633606721.3443 -0.16554023 0.1618306 0.0092043756 -0.0016238645 7.071068e-011 7.071068e-011 7.071068e-011 7.071068e-011
6635287057.4115 -0.080612563 0.23550083 0.0043568024 -0.0083322776 7.071068e-011 7.071068e-011 7.071068e-011 7.071068e-011
6636967393.4787 0.025573792 0.26788741 -0.0038925132 -0.0085043302 7.071068e-011 7.071068e-011 7.071068e-011 7.071068e-011
6638647729.5459 0.13431695 0.25483924 -0.0089781089 -0.0022586067 7.071068e-011 7.071068e-011 7.071068e-011 7.071068e-011
6640328065.6131 0.22751084 0.20000345 -0.0074797263 0.0054688924 7.071068e-011 7.071068e-011 7.071068e-011 7.071068e-011
6642008401.6803 0.29049206 0.11349091 -0.00063438405 0.0094636036 7.071068e-011 7.071068e-011 7.071068e-011 7.071068e-011
6643688737.7475 0.31376627 0.0097523313 0.0072118882 0.0067804391 7.071068e-011 7.071068e-011 7.071068e-011 7.071068e-011
6645369073.8148 0.29391244 -0.09435191 0.010291956 -0.0015359181 7.071068e-011 7.071068e-011 7.071068e-011 7.071068e-011
6647049409.882 0.23410599 -0.18179616 0.0052461484 -0.0094988262 7.071068e-011 7.071068e-011 7.071068e-011 7.071068e-011
6648729745.9492 0.1441355 -0.23783161 -0.0045151082 -0.010227597 7.071068e-011 7.071068e-011 7.071068e-011 7.071068e-011
6650410082.0164 0.03910606 -0.25265697 -0.011141786 -0.0027315603 7.071068e-011 7.071068e-011 7.071068e-011 7.071068e-011
6652090418.0836 -0.062711321 -0.2233592 -0.0092450334 0.0073522399 7.071068e-011 7.071068e-011 7.071068e-011 7.071068e-011
6653770754.1508 -0.14307183 -0.15511174 0.00023072398 0.012210377 7.071068e-011 7.071068e-011 7.071068e-011 7.071068e-011
6655451090.218 -0.1876096 -0.060732957 0.010175984 0.0073759784 7.071068e-011 7.071068e-011 7.071068e-011 7.071068e-011
6657131426.2853 -0.1890464 0.041938808 0.01223725 -0.0037554423 7.071068e-011 7.071068e-011 7.071068e-011 7.071068e-011
6658811762.3525 -0.148707 0.13392484 0.0045320583 -0.01214039 7.071068e-011 7.071068e-011 7.071068e-011 7.071068e-011
6660492098.4197 -0.075946636 0.19912203 -0.0068517993 -0.011243737 7.071068e-011 7.071068e-011 7.071068e-011 7.071068e-011
6662172434.4869 0.014182952 0.22751401 -0.013419275 -0.0016580074 7.071068e-011 7.071068e-011 7.071068e-011 7.071068e-011
6663852770.5541 0.10459145 0.21677499 -0.0099554537 0.0098826857 7.071068e-011 7.071068e-011 7.071068e-011 7.071068e-011
6665533106.6213 0.17976646 0.17183501 0.0018125561 0.014506948 7.071068e-011 7.071068e-011 7.071068e-011 7.071068e-011
6667213442.6885 0.22820759 0.10286022 0.013157834 0.007638921 7.071068e-011 7.071068e-011 7.071068e-011 7.071068e-011
6668893778.7558 0.24378702 0.023110108 0.014556298 -0.0061268108 7.071068e-011 7.071068e-011 7.071068e-011 7.071068e-011
6670574114.823 0.22603527 -0.05334726 0.0039905845 -0.015875813 7.071068e-011 7.071068e-011 7.071068e-011 7.071068e-011
6672254450.8902 0.17992863 -0.11375115 -0.010718297 -0.01313952 7.071068e-011 7.071068e-011 7.071068e-011 7.071068e-011
6673934786.9574 0.11497938 -0.1484322 -0.017489448 0.00085218967 7.071068e-011 7.071068e-011 7.071068e-011 7.071068e-011
6675615123.0246 0.043872412 -0.15252942 -0.0099117057 0.014992112 7.071068e-011 7.071068e-011 7.071068e-011 7.071068e-011
6677295459.0918 -0.019862473 -0.12712812 0.006323474 0.017207352 7.071068e-011 7.071068e-011 7.071068e-011 7.071068e-011
6678975795.159 -0.064788304 -0.079087488 0.01790178 0.0052728709 7.071068e-011 7.071068e-011 7.071068e-011 7.071068e-011
6680656131.2262 -0.083782651 -0.019400628 0.015216123 -0.011419295 7.071068e-011 7.071068e-011 7.071068e-011 7.071068e-011
6682336467.2935 -0.075516641 0.039014425 -8.0742924e-005 -0.019423477 7.071068e-011 7.071068e-011 7.071068e-011 7.071068e-011
6684016803.3607 -0.044918124 0.084403262 -0.015987413 -0.011697527 7.071068e-011 7.071068e-011 7.071068e-011 7.071068e-011
6685697139.4279 -0.0017086233 0.10928857 -0.019203532 0.0060458682 7.071068e-011 7.071068e-011 7.071068e-011 7.071068e-011
6687377475.4951 0.042636544 0.11215019 -0.0066020722 0.019274419 7.071068e-011 7.071068e-011 7.071068e-011 7.071068e-011
6689057811.5623 0.078111634 0.09723404 0.01168307 0.016942067 7.071068e-011 7.071068e-011 7.071068e-011 7.071068e-011
6690738147.6295 0.098992206 0.072921894 0.020775512 0.00072950759 7.071068e-011 7.071068e-011 7.071068e-011 7.071068e-011
6692418483.6967 0.10532296 0.048268314 0.013105309 -0.016425086 7.071068e-011 7.071068e-011 7.071068e-011 7.071068e-011
6694098819.764 0.10149865 0.029507941 -0.0054758708 -0.020515565 7.071068e-011 7.071068e-011 7.071068e-011 7.071068e-011
6695779155.8312 0.093325838 0.019041928 -0.019938312 -0.007805849 7.071068e-011 7.071068e-011 7.071068e-011 7.071068e-011
6697459491.8984 0.086171001 0.016005475 -0.018137118 0.011516658 7.071068e-011 7.071068e-011 7.071068e-011 7.071068e-011
6699139827.9656 0.083628744 0.016921502 -0.0014509244 0.021388816 7.071068e-011 7.071068e-011 7.071068e-011 7.071068e-011
6700820164.0328 0.086192586 0.017245982 0.016229602 0.01380837 7.071068e-011 7.071068e-011 7.071068e-011 7.071068e-011
6702500500.1 0.09167397 0.013651093 0.020646362 -0.0047030994 7.071068e-011 7.071068e-011 7.071068e-011 7.071068e-011
6704180836.1672 0.096810706 0.0047346433 0.00857329 -0.019250328 7.071068e-011 7.071068e-011 7.071068e-011 7.071068e-011
6705861172.2344 0.09800496 -0.0091256015 -0.010235235 -0.018291492 7.071068e-011 7.071068e-011 7.071068e-011 7.071068e-011
6707541508.3017 0.092095502 -0.02546658 -0.020570969 -0.00267687 7.071068e-011 7.071068e-011 7.071068e-011 7.071068e-011
6709221844.3689 0.077687956 -0.040244799 -0.01424117 0.014598077 7.071068e-011 7.071068e-011 7.071068e-011 7.071068e-011
6710902180.4361 0.055453129 -0.049191866 0.0029030847 0.019768113 7.071068e-011 7.071068e-011 7.071068e-011 7.071068e-011
6712582516.5033 0.027795043 -0.048254058 0.017093513 0.0096766278 7.071068e-011 7.071068e-011 7.071068e-011 7.071068e-011
6714262852.5705 -0.00055094773 -0.034080524 0.018004362 -0.0074272188 7.071068e-011 7.071068e-011 7.071068e-011 7.071068e-011
6715943188.6377 -0.022619728 -0.0060577272 0.0051673884 -0.018742111 7.071068e-011 7.071068e-011 7.071068e-011 7.071068e-011
6717623524.7049 -0.031431086 0.032365724 -0.011729396 -0.015449169 7.071068e-011 7.071068e-011 7.071068e-011 7.071068e-011
6719303860.7722 -0.022351611 0.074393198 -0.019211527 7.7427967e-006 7.071068e-011 7.071068e-011 7.071068e-011 7.071068e-011
6720984196.8394 0.0057334094 0.11143046 -0.011465978 0.014992972 7.071068e-011 7.071068e-011 7.071068e-011 7.071068e-011
6722664532.9066 0.049705341 0.13468018 0.00467902 0.017934952 7.071068e-011 7.071068e-011 7.071068e-011 7.071068e-011
6724344868.9738 0.10222661 0.13754752 0.016780581 0.007345099 7.071068e-011 7.071068e-011 7.071068e-011 7.071068e-011
6726025205.041 0.15364996 0.11754705 0.016058138 -0.0086409198 7.071068e-011 7.071068e-011 7.071068e-011 7.071068e-011
6727705541.1082 0.1941479 0.07652539 0.0029244698 -0.017884573 7.071068e-011 7.071068e-011 7.071068e-011 7.071068e-011
6729385877.1754 0.21523049 0.020335415 -0.012222851 -0.012972433 7.071068e-011 7.071068e-011 7.071068e-011 7.071068e-011
6731066213.2426 0.21140872 -0.041637961 -0.017279752 0.001644246 7.071068e-011 7.071068e-011 7.071068e-011 7.071068e-011
6732746549.3099 0.18191768 -0.098229617 -0.0092685418 0.014140631 7.071068e-011 7.071068e-011 7.071068e-011 7.071068e-011
6734426885.3771 0.13088189 -0.13904768 0.0050254399 0.01585409 7.071068e-011 7.071068e-011 7.071068e-011 7.071068e-011
6736107221.4443 0.066235445 -0.15617801 0.015392158 0.0060473029 7.071068e-011 7.071068e-011 7.071068e-011 7.071068e-011
6737787557.5115 -0.0012176243 -0.14535357 0.014298695 -0.0082410295 7.071068e-011 7.071068e-011 7.071068e-011 7.071068e-011
6739467893.5787 -0.059419092 -0.10725842 0.0023767527 -0.016207082 7.071068e-011 7.071068e-011 7.071068e-011 7.071068e-011
6741148229.6459 -0.09749759 -0.047801524 -0.011039635 -0.011786255 7.071068e-011 7.071068e-011 7.071068e-011 7.071068e-011
6742828565.7131 -0.10801248 0.022973392 -0.015902704 0.0011378115 7.071068e-011 7.071068e-011 7.071068e-011 7.071068e-011
6744508901.7804 -0.088286713 0.092652805 -0.0091547342 0.012970193 7.071068e-011 7.071068e-011 7.071068e-011 7.071068e-011
6746189237.8476 -0.041190721 0.14857806 0.0043407637 0.015367094 7.071068e-011 7.071068e-011 7.071068e-011 7.071068e-011
6747869573.9148 0.025113991 0.18052831 0.014857212 0.0061641526 7.071068e-011 7.071068e-011 7.071068e-011 7.071068e-011
6749549909.982 0.099134304 0.18285538 0.013958773 -0.0079317801 7.071068e-011 7.071068e-011 7.071068e-011 7.071068e-011
6751230246.0492 0.16839345 0.15503184 0.0023089973 -0.015645267 7.071068e-011 7.071068e-011 7.071068e-011 7.071068e-011
6752910582.1164 0.22168009 0.10152137 -0.010553029 -0.011347268 7.071068e-011 7.071068e-011 7.071068e-011 7.071068e-011
6754590918.1836 0.24920972 0.030410456 -0.015234051 0.00098789961 7.071068e-011 7.071068e-011 7.071068e-011 7.071068e-011
6756271254.2508 0.24639378 -0.046551839 -0.0088188043 0.01232984 7.071068e-011 7.071068e-011 7.071068e-011 7.071068e-011
6757951590.3181 0.21329439 -0.11698168 0.0040042941 0.014556785 7.071068e-011 7.071068e-011 7.071068e-011 7.071068e-011
6759631926.3853 0.15463747 -0.16946378 0.013732365 0.0059820842 7.071068e-011 7.071068e-011 7.071068e-011 7.071068e-011
6761312262.4525 0.079316512 -0.19511561 0.013152163 -0.006771801 7.071068e-011 7.071068e-011 7.071068e-011 7.071068e-011
6762992598.5197 -0.00078380958 -0.18917096 0.0031679429 -0.014299463 7.071068e-011 7.071068e-011 7.071068e-011 7.071068e-011
6764672934.5869 -0.072685041 -0.15199128 -0.0089154057 -0.011617044 7.071068e-011 7.071068e-011 7.071068e-011 7.071068e-011
6766353270.6541 -0.12441231 -0.089070097 -0.014787291 -0.00061120046 7.071068e-011 7.071068e-011 7.071068e-011 7.071068e-011
6768033606.7213 -0.14692456 -0.010421089 -0.01000305 0.011229087 7.071068e-011 7.071068e-011 7.071068e-011 7.071068e-011
6769713942.7886 -0.13593417 0.070688605 0.0025022896 0.015039897 7.071068e-011 7.071068e-011 7.071068e-011 7.071068e-011
6771394278.8558 -0.093183585 0.14017992 0.013429038 0.0075134072 7.071068e-011 7.071068e-011 7.071068e-011 7.071068e-011
6773074614.923 -0.026287235 0.18594858 0.014348826 -0.0058175572 7.071068e-011 7.071068e-011 7.071068e-011 7.071068e-011
6774754950.9902 0.052773926 0.20028444 0.004453592 -0.014939163 7.071068e-011 7.071068e-011 7.071068e-011 7.071068e-011
6776435287.0574 0.12999047 0.18120696 -0.0089866593 -0.012844476 7.071068e-011 7.071068e-011 7.071068e-011 7.071068e-011
6778115623.1246 0.19203982 0.13277979 -0.015623443 -0.0008820144 7.071068e-011 7.071068e-011 7.071068e-011 7.071068e-011
6779795959.1918 0.22877072 0.063924104 -0.010293175 0.011555065 7.071068e-011 7.071068e-011 7.071068e-011 7.071068e-011
6781476295.2591 0.23446739 -0.013529203 0.0024389357 0.015042088 7.071068e-011 7.071068e-011 7.071068e-011 7.071068e-011
6783156631.3263 0.20849767 -0.086564668 0.013001814 0.0076496 7.071068e-011 7.071068e-011 7.071068e-011 7.071068e-011
6784836967.3935 0.15538266 -0.14299937 0.014220696 -0.0050662877 7.071068e-011 7.071068e-011 7.071068e-011 7.071068e-011
6786517303.4607 0.084090777 -0.17359895 0.005206163 -0.014304286 7.071068e-011 7.071068e-011 7.071068e-011 7.071068e-011
6788197639.5279 0.0063458458 -0.17348534 -0.0078664171 -0.013195152 7.071068e-011 7.071068e-011 7.071068e-011 7.071068e-011
6789877975.5951 -0.065313518 -0.1426895 -0.015258265 -0.0022186527 7.071068e-011 7.071068e-011 7.071068e-011 7.071068e-011
6791558311.6623 -0.11926939 -0.086095832 -0.011401722 0.010399885 7.071068e-011 7.071068e-011 7.071068e-011 7.071068e-011
6793238647.7295 -0.14680307 -0.012877741 0.00072833552 0.015493115 7.071068e-011 7.071068e-011 7.071068e-011 7.071068e-011
6794918983.7968 -0.14363156 0.065180875 0.012572239 0.0094607249 7.071068e-011 7.071068e-011 7.071068e-011 7.071068e-011
6796599319.864 -0.11037654 0.13565885 0.015588248 -0.0038646918 7.071068e-011 7.071068e-011 7.071068e-011 7.071068e-011
6798279655.9312 -0.052412555 0.18726514 0.0067825792 -0.014845178 7.071068e-011 7.071068e-011 7.071068e-011 7.071068e-011
6799959991.9984 0.020650586 0.21162984 -0.0074780947 -0.014584374 7.071068e-011 7.071068e-011 7.071068e-011 7.071068e-011
6801640328.0656 0.096533954 0.2051982 -0.015982153 -0.0032770028 7.071068e-011 7.071068e-011 7.071068e-011 7.071068e-011
6803320664.1328 0.16282997 0.16965167 -0.012627534 0.010242022 7.071068e-011 7.071068e-011 7.071068e-011 7.071068e-011
6805001000.2 0.20890898 0.11129183 -0.00016295658 0.016353739 7.071068e-011 7.071068e-011 7.071068e-011 7.071068e-011
6806681336.2673 0.22736186 0.040120993 0.01271564 0.010633286 7.071068e-011 7.071068e-011 7.071068e-011 7.071068e-011
6808361672.3345 0.21548221 -0.031554591 0.016463652 -0.0032705856 7.071068e-011 7.071068e-011 7.071068e-011 7.071068e-011
6810042008.4017 0.1759166 -0.091437258 0.00777929 -0.014961422 7.071068e-011 7.071068e-011 7.071068e-011 7.071068e-011
6811722344.4689 0.11600832 -0.12955464 -0.0066940337 -0.015455958 7.071068e-011 7.071068e-011 7.071068e-011 7.071068e-011
6813402680.5361 0.046428926 -0.13971993 -0.016207313 -0.0047134799 7.071068e-011 7.071068e-011 7.071068e-011 7.071068e-011
6815083016.6033 -0.020475555 -0.1207047 -0.014181168 0.0095522385 7.071068e-011 7.071068e-011 7.071068e-011 7.071068e-011
6816763352.6705 -0.073139794 -0.076731384 -0.0016560728 0.01741593 7.071068e-011 7.071068e-011 7.071068e-011 7.071068e-011
6818443688.7377 -0.10330025 -0.016232634 0.012861985 0.012480647 7.071068e-011 7.071068e-011 7.071068e-011 7.071068e-011
6820124024.805 -0.10700969 0.050406467 0.018051011 -0.0024438093 7.071068e-011 7.071068e-011 7.071068e-011 7.071068e-011
6821804360.8722 -0.084472209 0.11244519 0.009283389 -0.015780464 7.071068e-011 7.071068e-011 7.071068e-011 7.071068e-011
6823484696.9394 -0.039953139 0.16006984 -0.0065487125 -0.017081074 7.071068e-011 7.071068e-011 7.071068e-011 7.071068e-011
6825165033.0066 0.018724872 0.1861947 -0.017419754 -0.0056474903 7.071068e-011 7.071068e-011 7.071068e-011 7.071068e-011
6826845369.0738 0.081916966 0.18757568 -0.015416072 0.010045287 7.071068e-011 7.071068e-011 7.071068e-011 7.071068e-011
6828525705.141 0.1398439 0.16484693 -0.001841056 0.018397 7.071068e-011 7.071068e-011 7.071068e-011 7.071068e-011
6830206041.2082 0.18371952 0.12216966 0.013202212 0.012941025 7.071068e-011 7.071068e-011 7.071068e-011 7.071068e-011
6831886377.2755 0.20716421 0.066860557 0.018288331 -0.0020812242 7.071068e-011 7.071068e-011 7.071068e-011 7.071068e-011
6833566713.3427 0.20730364 0.0078996168 0.010012036 -0.015372498 7.071068e-011 7.071068e-011 7.071068e-011 7.071068e-011
6835247049.4099 0.18476191 -0.045559328 -0.0053971112 -0.017634766 7.071068e-011 7.071068e-011 7.071068e-011 7.071068e-011
6836927385.4771 0.14343391 -0.085094497 -0.017274769 -0.0072615049 7.071068e-011 7.071068e-011 7.071068e-011 7.071068e-011
6838607721.5443 0.090483181 -0.10420746 -0.016951576 0.0089465026 7.071068e-011 7.071068e-011 7.071068e-011 7.071068e-011
6840288057.6115 0.03545903 -0.099978454 -0.0037379221 0.019237682 7.071068e-011 7.071068e-011 7.071068e-011 7.071068e-011
6841968393.6787 -0.011742976 -0.074011765 0.012945223 0.015159129 7.071068e-011 7.071068e-011 7.071068e-011 7.071068e-011
6843648729.7459 -0.043061811 -0.031910103 0.020172829 -0.0007140091 7.071068e-011 7.071068e-011 7.071068e-011 7.071068e-011
6845329065.8132 -0.053661149 0.017962839 0.012131032 -0.016394034 7.071068e-011 7.071068e-011 7.071068e-011 7.071068e-011
6847009401.8804 -0.042858578 0.066077977 -0.0053323912 -0.019894045 7.071068e-011 7.071068e-011 7.071068e-011 7.071068e-011
6848689737.9476 -0.014222018 0.103985 -0.019059585 -0.0082336692 7.071068e-011 7.071068e-011 7.071068e-011 7.071068e-011
6850370074.0148 0.025830515 0.12604287 -0.018347306 0.0098808743 7.071068e-011 7.071068e-011 7.071068e-011 7.071068e-011
6852050410.082 0.0696624 0.12988389 -0.0036658139 0.020493567 7.071068e-011 7.071068e-011 7.071068e-011 7.071068e-011
6853730746.1492 0.10972852 0.11644502 0.013658641 0.015638404 7.071068e-011 7.071068e-011 7.071068e-011 7.071068e-011
6855411082.2164 0.13997681 0.089542888 0.020714914 -0.00078880909 7.071068e-011 7.071068e-011 7.071068e-011 7.071068e-011
6857091418.2837 0.15690267 0.054588258 0.012466529 -0.016599962 7.071068e-011 7.071068e-011 7.071068e-011 7.071068e-011
6858771754.3509 0.15933181 0.017183023 -0.0050528529 -0.020211641 7.071068e-011 7.071068e-011 7.071068e-011 7.071068e-011
6860452090.4181 0.14788941 -0.017400298 -0.018967023 -0.008833088 7.071068e-011 7.071068e-011 7.071068e-011 7.071068e-011
6862132426.4853 0.1247933 -0.044434413 -0.018875606 0.0092152413 7.071068e-011 7.071068e-011 7.071068e-011 7.071068e-011
6863812762.5525 0.093810275 -0.060222145 -0.0047662924 0.020558691 7.071068e-011 7.071068e-011 7.071068e-011 7.071068e-011
6865493098.6197 0.059869099 -0.062612332 0.013042612 0.016775504 7.071068e-011 7.071068e-011 7.071068e-011 7.071068e-011
6867173434.6869 0.028639648 -0.05149788 0.021446213 0.00042847049 7.071068e-011 7.071068e-011 7.071068e-011 7.071068e-011
6868853770.7542 0.0055579436 -0.029393367 0.013914656 -0.016606035 7.071068e-011 7.071068e-011 7.071068e-011 7.071068e-011
