!Keysight Technologies,N5235B,MY61252044,A.15.00.15
!Date: Friday, January 20, 2023 23:00:32
!Correction: S11(Off) 
!S21(Off) 
!S12(Off) 
!S22(Off) 
!S2P File: Measurements: S11, S21, S12, S22:
# Hz S  RI   R 50
6600000000 0.017876498 -0.17505582 0.01525248 -0.0038924133 7.071068e-011 7.071068e-011 7.071068e-011 7.071068e-011
6608408408.4084 -0.12397679 0.16566961 0.0058873333 0.010514111 7.071068e-011 7.071068e-011 7.071068e-011 7.071068e-011
6616816816.8168 0.30591005 0.092463017 -0.0086871367 0.0041698604 7.071068e-011 7.071068e-011 7.071068e-011 7.071068e-011
6625225225.2252 0.02439319 -0.27298608 -0.0022902335 -0.0091868117 7.071068e-011 7.071068e-011 7.071068e-011 7.071068e-011
6633633633.6336 -0.16571718 0.16172922 0.0092927003 -0.00091050507 7.071068e-011 7.071068e-011 7.071068e-011 7.071068e-011
6642042042.042 0.29038715 0.11292964 -0.0013337837 0.0093931453 7.071068e-011 7.071068e-011 7.071068e-011 7.071068e-011
6650450450.4505 0.03837245 -0.2522566 -0.010920857 -0.0034912631 7.071068e-011 7.071068e-011 7.071068e-011 7.071068e-011
6658858858.8589 -0.14780828 0.1348794 0.0053221965 -0.011800426 7.071068e-011 7.071068e-011 7.071068e-011 7.071068e-011
6667267267.2673 0.22826047 0.10089039 0.012676762 0.0084631136 7.071068e-011 7.071068e-011 7.071068e-011 7.071068e-011
6675675675.6757 0.042898651 -0.15101844 -0.01074221 0.014427409 7.071068e-011 7.071068e-011 7.071068e-011 7.071068e-011
6684084084.0841 -0.04437064 0.0840469 -0.015323828 -0.012493186 7.071068e-011 7.071068e-011 7.071068e-011 7.071068e-011
6692492492.4925 0.10590121 0.048108708 0.013899791 -0.015688177 7.071068e-011 7.071068e-011 7.071068e-011 7.071068e-011
6700900900.9009 0.085709147 0.017362926 0.015532418 0.014544792 7.071068e-011 7.071068e-011 7.071068e-011 7.071068e-011
6709309309.3093 0.077543691 -0.040964529 -0.01481301 0.01391811 7.071068e-011 7.071068e-011 7.071068e-011 7.071068e-011
6717717717.7177 -0.031567957 0.033779304 -0.011049764 -0.015891086 7.071068e-011 7.071068e-011 7.071068e-011 7.071068e-011
6726126126.1261 0.15549378 0.11668332 0.016360031 -0.0080251954 7.071068e-011 7.071068e-011 7.071068e-011 7.071068e-011
6734534534.5345 0.12832648 -0.14111425 0.004467879 0.015991921 7.071068e-011 7.071068e-011 7.071068e-011 7.071068e-011
6742942942.9429 -0.10791548 0.027230669 -0.015883649 0.00063662662 7.071068e-011 7.071068e-011 7.071068e-011 7.071068e-011
6751351351.3514 0.1718601 0.15214437 0.0027224782 -0.01552516 7.071068e-011 7.071068e-011 7.071068e-011 7.071068e-011
6759759759.7598 0.15018846 -0.17138053 0.013531337 0.0062923562 7.071068e-011 7.071068e-011 7.071068e-011 7.071068e-011
6768168168.1682 -0.14653841 -0.0054710396 -0.010231156 0.010982435 7.071068e-011 7.071068e-011 7.071068e-011 7.071068e-011
6776576576.5766 0.1337679 0.17890137 -0.0087340018 -0.012976102 7.071068e-011 7.071068e-011 7.071068e-011 7.071068e-011
6784984984.985 0.15151285 -0.14623453 0.01428811 -0.0048257587 7.071068e-011 7.071068e-011 7.071068e-011 7.071068e-011
6793393393.3934 -0.14791737 -0.0066560288 0.00053930312 0.015496172 7.071068e-011 7.071068e-011 7.071068e-011 7.071068e-011
6801801801.8018 0.10214136 0.20298326 -0.015913444 -0.0033823079 7.071068e-011 7.071068e-011 7.071068e-011 7.071068e-011
6810210210.2102 0.17191225 -0.095489614 0.0078135934 -0.014881874 7.071068e-011 7.071068e-011 7.071068e-011 7.071068e-011
6818618618.6186 -0.10501731 -0.0097544789 0.012856258 0.01248419 7.071068e-011 7.071068e-011 7.071068e-011 7.071068e-011
6827027027.027 0.087768227 0.18499215 -0.015365828 0.010082722 7.071068e-011 7.071068e-011 7.071068e-011 7.071068e-011
6835435435.4354 0.18141793 -0.048472494 -0.0054787467 -0.017567782 7.071068e-011 7.071068e-011 7.071068e-011 7.071068e-011
6843843843.8438 -0.045221806 -0.028290469 0.0201049 -0.00090568012 7.071068e-011 7.071068e-011 7.071068e-011 7.071068e-011
6852252252.2523 0.074337371 0.12957361 -0.0034056669 0.020478692 7.071068e-011 7.071068e-011 7.071068e-011 7.071068e-011
6860660660.6607 0.1457971 -0.020619592 -0.019074123 -0.0085120322 7.071068e-011 7.071068e-011 7.071068e-011 7.071068e-011
6869069069.0691 0.0033108012 -0.026729394 0.013555613 -0.016866822 7.071068e-011 7.071068e-011 7.071068e-011 7.071068e-011
6877477477.4775 0.054916844 0.072393566 0.013689487 0.01729295 7.071068e-011 7.071068e-011 7.071068e-011 7.071068e-011
6885885885.8859 0.089651302 0.0069743572 -0.019916831 0.0088606514 7.071068e-011 7.071068e-011 7.071068e-011 7.071068e-011
6894294294.2943 0.047759786 -0.00090102723 -0.0035774007 -0.021786343 7.071068e-011 7.071068e-011 7.071068e-011 7.071068e-011
6902702702.7027 0.037853342 0.019046716 0.022075228 0.0019479169 7.071068e-011 7.071068e-011 7.071068e-011 7.071068e-011
6911111111.1111 0.031245591 0.038276084 -0.007556777 0.020612242 7.071068e-011 7.071068e-011 7.071068e-011 7.071068e-011
6919519519.5195 0.078149088 0.049137384 -0.01762912 -0.012583395 7.071068e-011 7.071068e-011 7.071068e-011 7.071068e-011
6927927927.9279 0.050694149 -0.011554276 0.016445225 -0.013699711 7.071068e-011 7.071068e-011 7.071068e-011 7.071068e-011
6936336336.3363 -0.0020879777 0.061442789 0.0083623026 0.018993307 7.071068e-011 7.071068e-011 7.071068e-011 7.071068e-011
6944744744.7447 0.11233001 0.089916572 -0.02069765 0.0023594496 7.071068e-011 7.071068e-011 7.071068e-011 7.071068e-011
6953153153.1532 0.084478103 -0.045975342 0.0032973706 -0.020181308 7.071068e-011 7.071068e-011 7.071068e-011 7.071068e-011
6961561561.5616 -0.028723417 0.054700669 0.017858488 0.0088842986 7.071068e-011 7.071068e-011 7.071068e-011 7.071068e-011
6969969969.97 0.12528293 0.10584371 -0.013631604 0.01434659 7.071068e-011 7.071068e-011 7.071068e-011 7.071068e-011
6978378378.3784 0.10100523 -0.071119845 -0.0093625514 -0.016772309 7.071068e-011 7.071068e-011 7.071068e-011 7.071068e-011
6986786786.7868 -0.063532382 0.033302065 0.018481711 -0.0033541 7.071068e-011 7.071068e-011 7.071068e-011 7.071068e-011
6995195195.1952 0.10273136 0.13329743 -0.0024492398 0.019018928 7.071068e-011 7.071068e-011 7.071068e-011 7.071068e-011
7003603603.6036 0.10903654 -0.057414867 -0.017040944 -0.0079121478 7.071068e-011 7.071068e-011 7.071068e-011 7.071068e-011
7012012012.012 -0.072795041 0.032104999 0.013340277 -0.013246153 7.071068e-011 7.071068e-011 7.071068e-011 7.071068e-011
7020420420.4204 0.088112272 0.16188283 0.0087857693 0.01679753 7.071068e-011 7.071068e-011 7.071068e-011 7.071068e-011
7028828828.8288 0.13277268 -0.02958226 -0.018339381 0.0029239291 7.071068e-011 7.071068e-011 7.071068e-011 7.071068e-011
7037237237.2372 -0.054464422 0.031208504 0.0032796115 -0.018816957 7.071068e-011 7.071068e-011 7.071068e-011 7.071068e-011
7045645645.6456 0.090664618 0.17070836 0.01694135 0.0087628672 7.071068e-011 7.071068e-011 7.071068e-011 7.071068e-011
7054054054.0541 0.16704062 -0.0033100306 -0.01387135 0.012842721 7.071068e-011 7.071068e-011 7.071068e-011 7.071068e-011
7062462462.4625 -0.0078543676 -0.0035739178 -0.0078798989 -0.017960321 7.071068e-011 7.071068e-011 7.071068e-011 7.071068e-011
7070870870.8709 0.078178026 0.13992804 0.019589365 -0.0023479569 7.071068e-011 7.071068e-011 7.071068e-011 7.071068e-011
7079279279.2793 0.16841032 0.007798498 -0.0044200718 0.019022072 7.071068e-011 7.071068e-011 7.071068e-011 7.071068e-011
7087687687.6877 0.032459948 -0.027602123 -0.017238107 -0.010459241 7.071068e-011 7.071068e-011 7.071068e-011 7.071068e-011
7096096096.0961 0.059498236 0.0900352 0.015133983 -0.013371051 7.071068e-011 7.071068e-011 7.071068e-011 7.071068e-011
7104504504.5045 0.14803797 0.0096109249 0.0076489341 0.018658862 7.071068e-011 7.071068e-011 7.071068e-011 7.071068e-011
7112912912.9129 0.050445925 -0.044114586 -0.020540554 0.0011175409 7.071068e-011 7.071068e-011 7.071068e-011 7.071068e-011
7121321321.3213 0.034829315 0.031704869 0.0050784303 -0.020103399 7.071068e-011 7.071068e-011 7.071068e-011 7.071068e-011
7129729729.7297 0.088978387 0.014435861 0.017068598 0.01102821 7.071068e-011 7.071068e-011 7.071068e-011 7.071068e-011
7138138138.1381 0.043639395 -0.037551221 -0.016385846 0.012661357 7.071068e-011 7.071068e-011 7.071068e-011 7.071068e-011
7146546546.5465 -0.00071525428 0.013207391 -0.0070114313 -0.019646367 7.071068e-011 7.071068e-011 7.071068e-011 7.071068e-011
7154954954.955 0.030764585 0.041996785 0.020722173 -0.00038138076 7.071068e-011 7.071068e-011 7.071068e-011 7.071068e-011
7163363363.3634 0.04494885 0.014891778 -0.0065023662 0.01944101 7.071068e-011 7.071068e-011 7.071068e-011 7.071068e-011
7171771771.7718 0.0010014458 0.021109262 -0.016474795 -0.012488357 7.071068e-011 7.071068e-011 7.071068e-011 7.071068e-011
7180180180.1802 0.018747503 0.071820453 0.016911052 -0.011411579 7.071068e-011 7.071068e-011 7.071068e-011 7.071068e-011
7188588588.5886 0.067439914 0.056624267 0.0051064719 0.02009638 7.071068e-011 7.071068e-011 7.071068e-011 7.071068e-011
7196996996.997 0.04020264 0.009790848 -0.020637153 -0.0014777703 7.071068e-011 7.071068e-011 7.071068e-011 7.071068e-011
7205405405.4054 0.012005445 0.067202099 0.0084058912 -0.018459449 7.071068e-011 7.071068e-011 7.071068e-011 7.071068e-011
7213813813.8138 0.083536901 0.067448482 0.014671413 0.014261709 7.071068e-011 7.071068e-011 7.071068e-011 7.071068e-011
7222222222.2222 0.065952629 -0.0060308124 -0.018369056 0.0093058329 7.071068e-011 7.071068e-011 7.071068e-011 7.071068e-011
7230630630.6306 -0.0011570295 0.035867311 -0.0026420399 -0.020275189 7.071068e-011 7.071068e-011 7.071068e-011 7.071068e-011
7239039039.039 0.07159245 0.074873634 0.020192452 0.0046411012 7.071068e-011 7.071068e-011 7.071068e-011 7.071068e-011
7247447447.4474 0.075041659 -0.014178833 -0.010932844 0.017616825 7.071068e-011 7.071068e-011 7.071068e-011 7.071068e-011
7255855855.8559 -0.016340619 0.006880919 -0.012566285 -0.016221482 7.071068e-011 7.071068e-011 7.071068e-011 7.071068e-011
7264264264.2643 0.034526475 0.084398352 0.019680584 -0.0065411758 7.071068e-011 7.071068e-011 7.071068e-011 7.071068e-011
7272672672.6727 0.074808411 0.00045013 -0.00025962442 0.020502953 7.071068e-011 7.071068e-011 7.071068e-011 7.071068e-011
7281081081.0811 -0.030386923 0.00076110067 -0.019112287 -0.0072565586 7.071068e-011 7.071068e-011 7.071068e-011 7.071068e-011
7289489489.4895 0.00047080239 0.10788797 0.013724317 -0.015396051 7.071068e-011 7.071068e-011 7.071068e-011 7.071068e-011
7297897897.8979 0.084626123 0.050134756 0.0098717762 0.018181335 7.071068e-011 7.071068e-011 7.071068e-011 7.071068e-011
7306306306.3063 0.0012157046 0.0093685631 -0.02036423 0.0027920259 7.071068e-011 7.071068e-011 7.071068e-011 7.071068e-011
7314714714.7147 0.0041895355 0.11235731 0.0041528419 -0.020510575 7.071068e-011 7.071068e-011 7.071068e-011 7.071068e-011
7323123123.1231 0.11247107 0.075724021 0.01762953 0.01064439 7.071068e-011 7.071068e-011 7.071068e-011 7.071068e-011
7331531531.5315 0.051604051 -0.012131259 -0.016524706 0.012710669 7.071068e-011 7.071068e-011 7.071068e-011 7.071068e-011
7339939939.9399 0.00739606 0.068900831 -0.0065610381 -0.020104066 7.071068e-011 7.071068e-011 7.071068e-011 7.071068e-011
7348348348.3483 0.1061327 0.063609913 0.020901361 0.00062506949 7.071068e-011 7.071068e-011 7.071068e-011 7.071068e-011
7356756756.7568 0.065525725 -0.037122466 -0.0079934746 0.019211641 7.071068e-011 7.071068e-011 7.071068e-011 7.071068e-011
7365165165.1652 -0.009802659 0.021221207 -0.015560753 -0.014197285 7.071068e-011 7.071068e-011 7.071068e-011 7.071068e-011
7373573573.5736 0.061325066 0.049397223 0.018382452 -0.0096504772 7.071068e-011 7.071068e-011 7.071068e-011 7.071068e-011
7381981981.982 0.043934338 -0.03497503 0.0023343535 0.020939721 7.071068e-011 7.071068e-011 7.071068e-011 7.071068e-011
7390390390.3904 -0.042907637 0.0092735961 -0.020602647 -0.0048868316 7.071068e-011 7.071068e-011 7.071068e-011 7.071068e-011
7398798798.7988 0.012640063 0.071565308 0.011801417 -0.017404655 7.071068e-011 7.071068e-011 7.071068e-011 7.071068e-011
7407207207.2072 0.028422361 0.009525165 0.012243386 0.017187189 7.071068e-011 7.071068e-011 7.071068e-011 7.071068e-011
7415615615.6156 -0.041489314 0.035479207 -0.020476192 0.0056622643 7.071068e-011 7.071068e-011 7.071068e-011 7.071068e-011
7424024024.024 0.0073486138 0.10510404 0.0017344516 -0.021091543 7.071068e-011 7.071068e-011 7.071068e-011 7.071068e-011
7432432432.4324 0.054282118 0.053879268 0.019193755 0.0091926968 7.071068e-011 7.071068e-011 7.071068e-011 7.071068e-011
7440840840.8408 0.01005799 0.042717755 -0.015163551 0.014953221 7.071068e-011 7.071068e-011 7.071068e-011 7.071068e-011
7449249249.2492 0.030209595 0.08672867 -0.0084928321 -0.019298781 7.071068e-011 7.071068e-011 7.071068e-011 7.071068e-011
7457657657.6577 0.077797346 0.049390454 0.021135021 -0.0011392194 7.071068e-011 7.071068e-011 7.071068e-011 7.071068e-011
7466066066.0661 0.04206356 0.01370244 -0.0062470175 0.020279795 7.071068e-011 7.071068e-011 7.071068e-011 7.071068e-011
7474474474.4745 0.030013364 0.039601184 -0.016699275 -0.01276749 7.071068e-011 7.071068e-011 7.071068e-011 7.071068e-011
7482882882.8829 0.06043604 0.028943965 0.017910311 -0.010900944 7.071068e-011 7.071068e-011 7.071068e-011 7.071068e-011
7491291291.2913 0.038334962 -0.013393254 0.0039379895 0.020638261 7.071068e-011 7.071068e-011 7.071068e-011 7.071068e-011
7499699699.6997 -0.0028525239 0.0025096601 -0.020531556 -0.003614079 7.071068e-011 7.071068e-011 7.071068e-011 7.071068e-011
7508108108.1081 0.0030103282 0.031717684 0.010586247 -0.017928312 7.071068e-011 7.071068e-011 7.071068e-011 7.071068e-011
7516516516.5165 0.019497985 0.012225433 0.012957432 0.01612933 7.071068e-011 7.071068e-011 7.071068e-011 7.071068e-011
7524924924.9249 -0.026269853 0.0062724403 -0.019582063 0.0062782755 7.071068e-011 7.071068e-011 7.071068e-011 7.071068e-011
7533333333.3333 -0.030118955 0.066307954 0.0012516705 -0.020516256 7.071068e-011 7.071068e-011 7.071068e-011 7.071068e-011
7541741741.7417 0.028335297 0.068644792 0.018713282 0.0082958713 7.071068e-011 7.071068e-011 7.071068e-011 7.071068e-011
7550150150.1502 0.012423563 0.020731265 -0.014299337 0.014070319 7.071068e-011 7.071068e-011 7.071068e-011 7.071068e-011
7558558558.5586 -0.014778042 0.068456396 -0.0079859374 -0.018497434 7.071068e-011 7.071068e-011 7.071068e-011 7.071068e-011
7566966966.967 0.055142112 0.077975877 0.019909514 -0.00076329859 7.071068e-011 7.071068e-011 7.071068e-011 7.071068e-011
7575375375.3754 0.053872805 0.0011822215 -0.0067048641 0.018832231 7.071068e-011 7.071068e-011 7.071068e-011 7.071068e-011
7583783783.7838 -0.012021138 0.023695197 -0.015181111 -0.013075385 7.071068e-011 7.071068e-011 7.071068e-011 7.071068e-011
7592192192.1922 0.045438059 0.060968716 0.017361218 -0.0093740253 7.071068e-011 7.071068e-011 7.071068e-011 7.071068e-011
7600600600.6006 0.052002974 -0.024685949 0.0020746512 0.019287234 7.071068e-011 7.071068e-011 7.071068e-011 7.071068e-011
7609009009.009 -0.038292911 -0.010570448 -0.019150155 -0.0053204508 7.071068e-011 7.071068e-011 7.071068e-011 7.071068e-011
7617417417.4174 -0.0047696023 0.058076914 0.011589747 -0.015988316 7.071068e-011 7.071068e-011 7.071068e-011 7.071068e-011
7625825825.8258 0.026047081 -0.004206771 0.010432521 0.016701236 7.071068e-011 7.071068e-011 7.071068e-011 7.071068e-011
7634234234.2342 -0.060337722 0.0042771744 -0.019277183 0.0036424885 7.071068e-011 7.071068e-011 7.071068e-011 7.071068e-011
7642642642.6426 -0.026810411 0.091240183 0.0037775196 -0.019100254 7.071068e-011 7.071068e-011 7.071068e-011 7.071068e-011
7651051051.0511 0.037627228 0.043010689 0.016390881 0.010629102 7.071068e-011 7.071068e-011 7.071068e-011 7.071068e-011
7659459459.4595 -0.029809058 0.017607706 -0.015973616 0.011646408 7.071068e-011 7.071068e-011 7.071068e-011 7.071068e-011
7667867867.8679 -0.01172309 0.10286346 -0.0050551738 -0.018727962 7.071068e-011 7.071068e-011 7.071068e-011 7.071068e-011
7676276276.2763 0.07406351 0.058716949 0.019196488 0.0027467732 7.071068e-011 7.071068e-011 7.071068e-011 7.071068e-011
7684684684.6847 0.021177968 -0.0038183331 -0.0096636377 0.017169651 7.071068e-011 7.071068e-011 7.071068e-011 7.071068e-011
7693093093.0931 0.00088482507 0.054434866 -0.012394522 -0.015143848 7.071068e-011 7.071068e-011 7.071068e-011 7.071068e-011
7701501501.5015 0.070922777 0.032350831 0.01859726 -0.0059931404 7.071068e-011 7.071068e-011 7.071068e-011 7.071068e-011
7709909909.9099 0.023426279 -0.042109333 -0.0013629412 0.019552853 7.071068e-011 7.071068e-011 7.071068e-011 7.071068e-011
7718318318.3183 -0.033081554 0.010362845 -0.017714996 -0.0084429402 7.071068e-011 7.071068e-011 7.071068e-011 7.071068e-011
7726726726.7267 0.024180872 0.028383829 0.014555967 -0.01315028 7.071068e-011 7.071068e-011 7.071068e-011 7.071068e-011
7735135135.1351 0.0031908497 -0.041775465 0.0071106949 0.018432196 7.071068e-011 7.071068e-011 7.071068e-011 7.071068e-011
7743543543.5435 -0.075374953 0.00014455078 -0.019471867 -0.0002053158 7.071068e-011 7.071068e-011 7.071068e-011 7.071068e-011
7751951951.952 -0.030088771 0.064092055 0.0075440742 -0.018106505 7.071068e-011 7.071068e-011 7.071068e-011 7.071068e-011
7760360360.3604 -0.0028933736 0.017524883 0.014090125 0.013717064 7.071068e-011 7.071068e-011 7.071068e-011 7.071068e-011
7768768768.7688 -0.058168449 0.028497582 -0.018022742 0.0080019915 7.071068e-011 7.071068e-011 7.071068e-011 7.071068e-011
7777177177.1772 -0.027285695 0.095275648 -0.00066773652 -0.019626783 7.071068e-011 7.071068e-011 7.071068e-011 7.071068e-011
7785585585.5856 0.033707961 0.058397975 0.018514197 0.0066077947 7.071068e-011 7.071068e-011 7.071068e-011 7.071068e-011
7793993993.994 -0.0052022883 0.0273961 -0.012934177 0.014508047 7.071068e-011 7.071068e-011 7.071068e-011 7.071068e-011
7802402402.4024 -0.00093028368 0.075225212 -0.0087260222 -0.017744282 7.071068e-011 7.071068e-011 7.071068e-011 7.071068e-011
7810810810.8108 0.058504254 0.048718024 0.019585419 -0.0017405348 7.071068e-011 7.071068e-011 7.071068e-011 7.071068e-011
7819219219.2192 0.02562481 -0.0062958482 -0.005899671 0.018643888 7.071068e-011 7.071068e-011 7.071068e-011 7.071068e-011
7827627627.6276 -0.0033210134 0.026845368 -0.015155625 -0.012425289 7.071068e-011 7.071068e-011 7.071068e-011 7.071068e-011
7836036036.036 0.037256766 0.025652837 0.01716713 -0.0094290264 7.071068e-011 7.071068e-011 7.071068e-011 7.071068e-011
7844444444.4444 0.016622754 -0.023516105 0.0023742281 0.019494595 7.071068e-011 7.071068e-011 7.071068e-011 7.071068e-011
7852852852.8529 -0.028195001 0.002644181 -0.019066088 -0.0050970311 7.071068e-011 7.071068e-011 7.071068e-011 7.071068e-011
7861261261.2613 0.0014277684 0.029829904 0.011705439 -0.015772827 7.071068e-011 7.071068e-011 7.071068e-011 7.071068e-011
7869669669.6697 0.0058660205 -0.0094666854 0.01010192 0.016838491 7.071068e-011 7.071068e-011 7.071068e-011 7.071068e-011
7878078078.0781 -0.040791672 0.0034614722 -0.019520998 0.0032518818 7.071068e-011 7.071068e-011 7.071068e-011 7.071068e-011
7886486486.4865 -0.02402328 0.046945456 0.0040866081 -0.019212283 7.071068e-011 7.071068e-011 7.071068e-011 7.071068e-011
7894894894.8949 0.01061557 0.030173423 0.01605555 0.010880494 7.071068e-011 7.071068e-011 7.071068e-011 7.071068e-011
7903303303.3033 -0.013293879 0.011368214 -0.016310908 0.010724111 7.071068e-011 7.071068e-011 7.071068e-011 7.071068e-011
7911711711.7117 -0.017895227 0.043574303 -0.0040082526 -0.019138496 7.071068e-011 7.071068e-011 7.071068e-011 7.071068e-011
7920120120.1201 0.022958701 0.045316856 0.019044461 0.003461702 7.071068e-011 7.071068e-011 7.071068e-011 7.071068e-011
7928528528.5285 0.023878865 0.0016539223 -0.010342231 0.016342409 7.071068e-011 7.071068e-011 7.071068e-011 7.071068e-011
7936936936.9369 -0.010332433 0.011340113 -0.011147463 -0.015592389 7.071068e-011 7.071068e-011 7.071068e-011 7.071068e-011
7945345345.3453 0.018202353 0.032060739 0.018662645 -0.0043114275 7.071068e-011 7.071068e-011 7.071068e-011 7.071068e-011
