!Keysight Technologies,N5235B,MY61252044,A.15.00.15
!Date: Friday, January 20, 2023 22:57:43
!Correction: S11(Off) 
!S21(Off) 
!S12(Off) 
!S22(Off) 
!S2P File: Measurements: S11, S21, S12, S22:
# Hz S  RI   R 50
6600000000 0.018051513 -0.17557465 0.015152098 -0.0042644711 7.071068e-011 7.071068e-011 7.071068e-011 7.071068e-011
6608408408.4084 -0.12400016 0.16609308 0.0061385748 0.01035811 7.071068e-011 7.071068e-011 7.071068e-011 7.071068e-011
6616816816.8168 0.3060399 0.092126593 -0.0085722227 0.0043735411 7.071068e-011 7.071068e-011 7.071068e-011 7.071068e-011
6625225225.2252 0.024154361 -0.27272707 -0.0025053474 -0.0091199763 7.071068e-011 7.071068e-011 7.071068e-011 7.071068e-011
6633633633.6336 -0.16545574 0.16156399 0.0092618298 -0.0011269774 7.071068e-011 7.071068e-011 7.071068e-011 7.071068e-011
6642042042.042 0.29017201 0.11306214 -0.0011064135 0.0094183758 7.071068e-011 7.071068e-011 7.071068e-011 7.071068e-011
6650450450.4505 0.038608611 -0.25237808 -0.010994217 -0.0032223016 7.071068e-011 7.071068e-011 7.071068e-011 7.071068e-011
6658858858.8589 -0.14815262 0.13496059 0.0050296588 -0.011912212 7.071068e-011 7.071068e-011 7.071068e-011 7.071068e-011
6667267267.2673 0.22876157 0.10096163 0.012854012 0.0081462665 7.071068e-011 7.071068e-011 7.071068e-011 7.071068e-011
6675675675.6757 0.04221582 -0.15123057 -0.01039939 0.014667841 7.071068e-011 7.071068e-011 7.071068e-011 7.071068e-011
6684084084.0841 -0.04354291 0.084304586 -0.015625773 -0.01212588 7.071068e-011 7.071068e-011 7.071068e-011 7.071068e-011
6692492492.4925 0.1050247 0.047977444 0.01349252 -0.016037107 7.071068e-011 7.071068e-011 7.071068e-011 7.071068e-011
6700900900.9009 0.086496048 0.017449841 0.015875833 0.014128882 7.071068e-011 7.071068e-011 7.071068e-011 7.071068e-011
6709309309.3093 0.076875538 -0.041147597 -0.014437656 0.01426405 7.071068e-011 7.071068e-011 7.071068e-011 7.071068e-011
6717717717.7177 -0.031008041 0.034157544 -0.011410456 -0.015576569 7.071068e-011 7.071068e-011 7.071068e-011 7.071068e-011
6726126126.1261 0.15504859 0.11620046 0.016134299 -0.0083865486 7.071068e-011 7.071068e-011 7.071068e-011 7.071068e-011
6734534534.5345 0.12866269 -0.1405524 0.0048278221 0.015869522 7.071068e-011 7.071068e-011 7.071068e-011 7.071068e-011
6742942942.9429 -0.1081937 0.02665654 -0.015866518 0.0010124333 7.071068e-011 7.071068e-011 7.071068e-011 7.071068e-011
6751351351.3514 0.17204793 0.15273793 0.0023344399 -0.015587918 7.071068e-011 7.071068e-011 7.071068e-011 7.071068e-011
6759759759.7598 0.15016617 -0.1720103 0.013677509 0.0059437375 7.071068e-011 7.071068e-011 7.071068e-011 7.071068e-011
6768168168.1682 -0.14674883 -0.0048541506 -0.0099344198 0.011225062 7.071068e-011 7.071068e-011 7.071068e-011 7.071068e-011
6776576576.5766 0.13418104 0.17839359 -0.009045708 -0.012728678 7.071068e-011 7.071068e-011 7.071068e-011 7.071068e-011
6784984984.985 0.15097275 -0.14589837 0.014135561 -0.0051633823 7.071068e-011 7.071068e-011 7.071068e-011 7.071068e-011
6793393393.3934 -0.14735375 -0.0068400917 0.00090928614 0.015455897 7.071068e-011 7.071068e-011 7.071068e-011 7.071068e-011
6801801801.8018 0.10157218 0.20302394 -0.015975056 -0.0029909846 7.071068e-011 7.071068e-011 7.071068e-011 7.071068e-011
6810210210.2102 0.1725045 -0.095377944 0.0074395747 -0.015057082 7.071068e-011 7.071068e-011 7.071068e-011 7.071068e-011
6818618618.6186 -0.10561079 -0.010080099 0.013148843 0.012148232 7.071068e-011 7.071068e-011 7.071068e-011 7.071068e-011
6827027027.027 0.088281475 0.18555833 -0.015094908 0.010454959 7.071068e-011 7.071068e-011 7.071068e-011 7.071068e-011
6835435435.4354 0.18108372 -0.049262386 -0.0059152571 -0.017401222 7.071068e-011 7.071068e-011 7.071068e-011 7.071068e-011
6843843843.8438 -0.045057423 -0.027366612 0.020046121 -0.00141066 7.071068e-011 7.071068e-011 7.071068e-011 7.071068e-011
6852252252.2523 0.07435108 0.12865007 -0.0028824096 0.020521399 7.071068e-011 7.071068e-011 7.071068e-011 7.071068e-011
6860660660.6607 0.14560427 -0.019766539 -0.019248182 -0.0080189472 7.071068e-011 7.071068e-011 7.071068e-011 7.071068e-011
6869069069.0691 0.0037338927 -0.027467359 0.013106192 -0.017162984 7.071068e-011 7.071068e-011 7.071068e-011 7.071068e-011
6877477477.4775 0.054282013 0.073006667 0.014084017 0.016926229 7.071068e-011 7.071068e-011 7.071068e-011 7.071068e-011
6885885885.8859 0.090511322 0.0066016782 -0.019663682 0.0093276156 7.071068e-011 7.071068e-011 7.071068e-011 7.071068e-011
6894294294.2943 0.046732064 -0.00074253196 -0.0041018524 -0.021678371 7.071068e-011 7.071068e-011 7.071068e-011 7.071068e-011
6902702702.7027 0.03892684 0.019119434 0.022110678 0.001391169 7.071068e-011 7.071068e-011 7.071068e-011 7.071068e-011
6911111111.1111 0.030218264 0.038023021 -0.0070143314 0.020789085 7.071068e-011 7.071068e-011 7.071068e-011 7.071068e-011
6919519519.5195 0.079003736 0.049603079 -0.017926557 -0.012093454 7.071068e-011 7.071068e-011 7.071068e-011 7.071068e-011
6927927927.9279 0.050049651 -0.012219308 0.016050523 -0.014086648 7.071068e-011 7.071068e-011 7.071068e-011 7.071068e-011
6936336336.3363 -0.0017561731 0.062288225 0.0088210758 0.018715968 7.071068e-011 7.071068e-011 7.071068e-011 7.071068e-011
6944744744.7447 0.11230943 0.088987701 -0.020569287 0.0028503696 7.071068e-011 7.071068e-011 7.071068e-011 7.071068e-011
6953153153.1532 0.084199496 -0.045045834 0.0028180103 -0.020207245 7.071068e-011 7.071068e-011 7.071068e-011 7.071068e-011
6961561561.5616 -0.028232027 0.053851854 0.018044414 0.008462375 7.071068e-011 7.071068e-011 7.071068e-011 7.071068e-011
6969969969.97 0.12464695 0.10652258 -0.013278672 0.014682028 7.071068e-011 7.071068e-011 7.071068e-011 7.071068e-011
6978378378.3784 0.10180027 -0.071571983 -0.0097939512 -0.01651988 7.071068e-011 7.071068e-011 7.071068e-011 7.071068e-011
6986786786.7868 -0.064401418 0.033488926 0.01836828 -0.0038425671 7.071068e-011 7.071068e-011 7.071068e-011 7.071068e-011
6995195195.1952 0.10358124 0.13344206 -0.0019389521 0.019040268 7.071068e-011 7.071068e-011 7.071068e-011 7.071068e-011
7003603603.6036 0.10834248 -0.057885945 -0.017199874 -0.0074370038 7.071068e-011 7.071068e-011 7.071068e-011 7.071068e-011
7012012012.012 -0.072293811 0.032839864 0.01295387 -0.013530329 7.071068e-011 7.071068e-011 7.071068e-011 7.071068e-011
7020420420.4204 0.087884612 0.16107957 0.0091586811 0.01652981 7.071068e-011 7.071068e-011 7.071068e-011 7.071068e-011
7028828828.8288 0.13271742 -0.028733527 -0.018228779 0.0033440851 7.071068e-011 7.071068e-011 7.071068e-011 7.071068e-011
7037237237.2372 -0.054160908 0.030413345 0.0028288737 -0.01887829 7.071068e-011 7.071068e-011 7.071068e-011 7.071068e-011
7045645645.6456 0.090129592 0.17139417 0.017151086 0.0083345175 7.071068e-011 7.071068e-011 7.071068e-011 7.071068e-011
7054054054.0541 0.16782503 -0.0037738765 -0.013530965 0.013192094 7.071068e-011 7.071068e-011 7.071068e-011 7.071068e-011
7062462462.4625 -0.0088071041 -0.0033681479 -0.0083447956 -0.017728899 7.071068e-011 7.071068e-011 7.071068e-011 7.071068e-011
7070870870.8709 0.079115003 0.14003874 0.019485196 -0.0028607624 7.071068e-011 7.071068e-011 7.071068e-011 7.071068e-011
7079279279.2793 0.16760443 0.0073606372 -0.0039077983 0.019081751 7.071068e-011 7.071068e-011 7.071068e-011 7.071068e-011
7087687687.6877 0.033064462 -0.026926015 -0.017448023 -0.0099871941 7.071068e-011 7.071068e-011 7.071068e-011 7.071068e-011
7096096096.0961 0.059181944 0.089240789 0.014755476 -0.013706434 7.071068e-011 7.071068e-011 7.071068e-011 7.071068e-011
7104504504.5045 0.14803289 0.010480205 0.0080901897 0.018421417 7.071068e-011 7.071068e-011 7.071068e-011 7.071068e-011
7112912912.9129 0.050816413 -0.044981815 -0.020463645 0.0016134448 7.071068e-011 7.071068e-011 7.071068e-011 7.071068e-011
7121321321.3213 0.034179427 0.032485962 0.0045851967 -0.020199219 7.071068e-011 7.071068e-011 7.071068e-011 7.071068e-011
7129729729.7297 0.08988788 0.013908338 0.017331457 0.010591027 7.071068e-011 7.071068e-011 7.071068e-011 7.071068e-011
7138138138.1381 0.042575233 -0.037314761 -0.016045494 0.013075524 7.071068e-011 7.071068e-011 7.071068e-011 7.071068e-011
7146546546.5465 0.0003645652 0.013288814 -0.0075263227 -0.019426636 7.071068e-011 7.071068e-011 7.071068e-011 7.071068e-011
7154954954.955 0.029798267 0.041641343 0.020657873 -0.00092812709 7.071068e-011 7.071068e-011 7.071068e-011 7.071068e-011
7163363363.3634 0.04566754 0.015507638 -0.0059761712 0.019554198 7.071068e-011 7.071068e-011 7.071068e-011 7.071068e-011
7171771771.7718 0.00058078911 0.020292109 -0.016741775 -0.012029044 7.071068e-011 7.071068e-011 7.071068e-011 7.071068e-011
7180180180.1802 0.018785931 0.072750434 0.016577281 -0.011796823 7.071068e-011 7.071068e-011 7.071068e-011 7.071068e-011
7188588588.5886 0.067777246 0.055698168 0.0055768341 0.019931318 7.071068e-011 7.071068e-011 7.071068e-011 7.071068e-011
7196996996.997 0.039517038 0.010583133 -0.020651529 -0.00097069034 7.071068e-011 7.071068e-011 7.071068e-011 7.071068e-011
7205405405.4054 0.012948452 0.066635199 0.0079397466 -0.018658657 7.071068e-011 7.071068e-011 7.071068e-011 7.071068e-011
7213813813.8138 0.082490124 0.067738369 0.015036508 0.0138668 7.071068e-011 7.071068e-011 7.071068e-011 7.071068e-011
7222222222.2222 0.06701342 -0.0059839962 -0.018093105 0.0097802496 7.071068e-011 7.071068e-011 7.071068e-011 7.071068e-011
7230630630.6306 -0.0020849667 0.035500459 -0.0031786603 -0.020157393 7.071068e-011 7.071068e-011 7.071068e-011 7.071068e-011
7239039039.039 0.072302707 0.075577252 0.02024292 0.004098081 7.071068e-011 7.071068e-011 7.071068e-011 7.071068e-011
7247447447.4474 0.074673444 -0.015090695 -0.010457608 0.01783471 7.071068e-011 7.071068e-011 7.071068e-011 7.071068e-011
7255855855.8559 -0.016352475 0.0079041179 -0.012924967 -0.015872128 7.071068e-011 7.071068e-011 7.071068e-011 7.071068e-011
7264264264.2643 0.034914531 0.083452374 0.019489944 -0.0070062131 7.071068e-011 7.071068e-011 7.071068e-011 7.071068e-011
7272672672.6727 0.074113525 0.0012397399 0.00024961444 0.020488506 7.071068e-011 7.071068e-011 7.071068e-011 7.071068e-011
7281081081.0811 -0.029510366 0.00023813432 -0.019288942 -0.0067597493 7.071068e-011 7.071068e-011 7.071068e-011 7.071068e-011
7289489489.4895 -0.00051221123 0.10807011 0.013296717 -0.015744986 7.071068e-011 7.071068e-011 7.071068e-011 7.071068e-011
7297897897.8979 0.085604519 0.050337933 0.010340711 0.0178829 7.071068e-011 7.071068e-011 7.071068e-011 7.071068e-011
7306306306.3063 0.00036350259 0.0087913107 -0.0202248 0.0033384939 7.071068e-011 7.071068e-011 7.071068e-011 7.071068e-011
7314714714.7147 0.0047931029 0.11322273 0.0036068314 -0.020536913 7.071068e-011 7.071068e-011 7.071068e-011 7.071068e-011
7323123123.1231 0.11222882 0.074708536 0.017829798 0.010180793 7.071068e-011 7.071068e-011 7.071068e-011 7.071068e-011
7331531531.5315 0.051477544 -0.011086739 -0.016182186 0.013078959 7.071068e-011 7.071068e-011 7.071068e-011 7.071068e-011
7339939939.9399 0.0078580985 0.068003707 -0.007043249 -0.019927319 7.071068e-011 7.071068e-011 7.071068e-011 7.071068e-011
7348348348.3483 0.10541267 0.064287208 0.020916006 0.00010285435 7.071068e-011 7.071068e-011 7.071068e-011 7.071068e-011
7356756756.7568 0.06643033 -0.037451241 -0.0074665905 0.019422701 7.071068e-011 7.071068e-011 7.071068e-011 7.071068e-011
7365165165.1652 -0.010802696 0.021199208 -0.015922487 -0.013753254 7.071068e-011 7.071068e-011 7.071068e-011 7.071068e-011
7373573573.5736 0.062257208 0.04980509 0.018073002 -0.010126575 7.071068e-011 7.071068e-011 7.071068e-011 7.071068e-011
7381981981.982 0.043197434 -0.035717297 0.0028827272 0.020803588 7.071068e-011 7.071068e-011 7.071068e-011 7.071068e-011
7390390390.3904 -0.042495333 0.010229723 -0.020659069 -0.0043510823 7.071068e-011 7.071068e-011 7.071068e-011 7.071068e-011
7398798798.7988 0.012586591 0.070528701 0.011340641 -0.017647298 7.071068e-011 7.071068e-011 7.071068e-011 7.071068e-011
7407207207.2072 0.028114539 0.010484337 0.01264532 0.016859114 7.071068e-011 7.071068e-011 7.071068e-011 7.071068e-011
7415615615.6156 -0.040861305 0.034699701 -0.020309487 0.0061683869 7.071068e-011 7.071068e-011 7.071068e-011 7.071068e-011
7424024024.024 0.0064963414 0.10560916 0.0011865093 -0.021120301 7.071068e-011 7.071068e-011 7.071068e-011 7.071068e-011
7432432432.4324 0.055266447 0.053755846 0.019414183 0.0086770914 7.071068e-011 7.071068e-011 7.071068e-011 7.071068e-011
7440840840.8408 0.009078797 0.042468794 -0.014742231 0.015339409 7.071068e-011 7.071068e-011 7.071068e-011 7.071068e-011
7449249249.2492 0.03103569 0.087353855 -0.0090004848 -0.019027459 7.071068e-011 7.071068e-011 7.071068e-011 7.071068e-011
7457657657.6577 0.077243634 0.048533682 0.02105464 -0.0017008998 7.071068e-011 7.071068e-011 7.071068e-011 7.071068e-011
7466066066.0661 0.042267162 0.014709667 -0.0056934929 0.02038279 7.071068e-011 7.071068e-011 7.071068e-011 7.071068e-011
7474474474.4745 0.030150604 0.038629372 -0.01698068 -0.012306666 7.071068e-011 7.071068e-011 7.071068e-011 7.071068e-011
7482882882.8829 0.059957527 0.029760337 0.017596569 -0.011331282 7.071068e-011 7.071068e-011 7.071068e-011 7.071068e-011
7491291291.2913 0.03908661 -0.013938222 0.0044523319 0.020505352 7.071068e-011 7.071068e-011 7.071068e-011 7.071068e-011
7499699699.6997 -0.0037783706 0.0027000459 -0.020600341 -0.0030744821 7.071068e-011 7.071068e-011 7.071068e-011 7.071068e-011
7508108108.1081 0.0039799619 0.031900682 0.010103966 -0.018181819 7.071068e-011 7.071068e-011 7.071068e-011 7.071068e-011
7516516516.5165 0.018658606 0.011696375 0.01337245 0.015768185 7.071068e-011 7.071068e-011 7.071068e-011 7.071068e-011
7524924924.9249 -0.02565893 0.007064369 -0.0193833 0.0068004336 7.071068e-011 7.071068e-011 7.071068e-011 7.071068e-011
7533333333.3333 -0.030413639 0.065396719 0.00069043564 -0.020512948 7.071068e-011 7.071068e-011 7.071068e-011 7.071068e-011
7541741741.7417 0.028289331 0.069587462 0.018888721 0.0077678091 7.071068e-011 7.071068e-011 7.071068e-011 7.071068e-011
7550150150.1502 0.012797938 0.019932598 -0.013890312 0.014412832 7.071068e-011 7.071068e-011 7.071068e-011 7.071068e-011
7558558558.5586 -0.015451415 0.069039755 -0.0084461886 -0.018240897 7.071068e-011 7.071068e-011 7.071068e-011 7.071068e-011
7566966966.967 0.055982761 0.077750199 0.019847907 -0.0012763564 7.071068e-011 7.071068e-011 7.071068e-011 7.071068e-011
7575375375.3754 0.052962802 0.0010506586 -0.0062071932 0.018971946 7.071068e-011 7.071068e-011 7.071068e-011 7.071068e-011
7583783783.7838 -0.011219216 0.024145521 -0.015496502 -0.01266911 7.071068e-011 7.071068e-011 7.071068e-011 7.071068e-011
7592192192.1922 0.044882327 0.060285103 0.017099969 -0.0098213814 7.071068e-011 7.071068e-011 7.071068e-011 7.071068e-011
7600600600.6006 0.052241925 -0.023862734 0.0025970275 0.019219594 7.071068e-011 7.071068e-011 7.071068e-011 7.071068e-011
7609009009.009 -0.038180862 -0.011443887 -0.019269815 -0.004777886 7.071068e-011 7.071068e-011 7.071068e-011 7.071068e-011
7617417417.4174 -0.0051820003 0.058879979 0.011114636 -0.01627144 7.071068e-011 7.071068e-011 7.071068e-011 7.071068e-011
7625825825.8258 0.026739806 -0.0047938088 0.010850639 0.016363807 7.071068e-011 7.071068e-011 7.071068e-011 7.071068e-011
7634234234.2342 -0.06119816 0.0045685875 -0.019124698 0.0041222586 7.071068e-011 7.071068e-011 7.071068e-011 7.071068e-011
7642642642.6426 -0.025930844 0.091324642 0.0032857354 -0.019157723 7.071068e-011 7.071068e-011 7.071068e-011 7.071068e-011
7651051051.0511 0.036860768 0.042618383 0.016646404 0.010201005 7.071068e-011 7.071068e-011 7.071068e-011 7.071068e-011
7659459459.4595 -0.02930646 0.018246332 -0.015657423 0.012064308 7.071068e-011 7.071068e-011 7.071068e-011 7.071068e-011
7667867867.8679 -0.011920469 0.10211255 -0.005569614 -0.018575093 7.071068e-011 7.071068e-011 7.071068e-011 7.071068e-011
7676276276.2763 0.073901288 0.059490129 0.019251309 0.0022011246 7.071068e-011 7.071068e-011 7.071068e-011 7.071068e-011
7684684684.6847 0.021665929 -0.0045171208 -0.0091555957 0.01740307 7.071068e-011 7.071068e-011 7.071068e-011 7.071068e-011
7693093093.0931 0.00014124482 0.054948371 -0.012782487 -0.014752825 7.071068e-011 7.071068e-011 7.071068e-011 7.071068e-011
7701501501.5015 0.071824491 0.032132998 0.018377326 -0.0064669116 7.071068e-011 7.071068e-011 7.071068e-011 7.071068e-011
7709909909.9099 0.022522703 -0.042221874 -0.00085295452 0.019542193 7.071068e-011 7.071068e-011 7.071068e-011 7.071068e-011
7718318318.3183 -0.032298438 0.010783439 -0.01790653 -0.0079699904 7.071068e-011 7.071068e-011 7.071068e-011 7.071068e-011
7726726726.7267 0.023657771 0.027771806 0.014207605 -0.01352074 7.071068e-011 7.071068e-011 7.071068e-011 7.071068e-011
7735135135.1351 0.0033908521 -0.041056745 0.0076118829 0.018234374 7.071068e-011 7.071068e-011 7.071068e-011 7.071068e-011
7743543543.5435 -0.075249232 -0.00055706175 -0.019468652 0.00034228916 7.071068e-011 7.071068e-011 7.071068e-011 7.071068e-011
7751951951.952 -0.030558225 0.06468495 0.0070150997 -0.01829851 7.071068e-011 7.071068e-011 7.071068e-011 7.071068e-011
7760360360.3604 -0.0021737348 0.017137261 0.014452269 0.01327924 7.071068e-011 7.071068e-011 7.071068e-011 7.071068e-011
7768768768.7688 -0.059065323 0.028600439 -0.01773571 0.0084853228 7.071068e-011 7.071068e-011 7.071068e-011 7.071068e-011
7777177177.1772 -0.02640312 0.095470905 -0.0011869691 -0.019541802 7.071068e-011 7.071068e-011 7.071068e-011 7.071068e-011
7785585585.5856 0.032978121 0.057912823 0.018643089 0.0061070346 7.071068e-011 7.071068e-011 7.071068e-011 7.071068e-011
7793993993.994 -0.0047235647 0.02808105 -0.012538001 0.014826848 7.071068e-011 7.071068e-011 7.071068e-011 7.071068e-011
7802402402.4024 -0.0011006464 0.074471653 -0.0091959359 -0.017501792 7.071068e-011 7.071068e-011 7.071068e-011 7.071068e-011
7810810810.8108 0.058358047 0.049437787 0.019530077 -0.0022825385 7.071068e-011 7.071068e-011 7.071068e-011 7.071068e-011
7819219219.2192 0.026085477 -0.0068467148 -0.0053637619 0.018806295 7.071068e-011 7.071068e-011 7.071068e-011 7.071068e-011
7827627627.6276 -0.0040200967 0.027182618 -0.015501151 -0.011966044 7.071068e-011 7.071068e-011 7.071068e-011 7.071068e-011
7836036036.036 0.038066123 0.025631828 0.016850283 -0.0099134315 7.071068e-011 7.071068e-011 7.071068e-011 7.071068e-011
7844444444.4444 0.015831752 -0.023796508 0.002919957 0.019364895 7.071068e-011 7.071068e-011 7.071068e-011 7.071068e-011
7852852852.8529 -0.027579449 0.0031823085 -0.019149533 -0.0045603411 7.071068e-011 7.071068e-011 7.071068e-011 7.071068e-011
7861261261.2613 0.0010722028 0.029125247 0.011249444 -0.016050451 7.071068e-011 7.071068e-011 7.071068e-011 7.071068e-011
7869669669.6697 0.0059145438 -0.0087070856 0.010538112 0.016538978 7.071068e-011 7.071068e-011 7.071068e-011 7.071068e-011
7878078078.0781 -0.040547699 0.0027503099 -0.01940839 0.0037784481 7.071068e-011 7.071068e-011 7.071068e-011 7.071068e-011
7886486486.4865 -0.024522996 0.047484588 0.0035483544 -0.019312348 7.071068e-011 7.071068e-011 7.071068e-011 7.071068e-011
7894894894.8949 0.011313007 0.029907046 0.016354857 0.01040634 7.071068e-011 7.071068e-011 7.071068e-011 7.071068e-011
7903303303.3033 -0.014068091 0.011350295 -0.015971674 0.011183175 7.071068e-011 7.071068e-011 7.071068e-011 7.071068e-011
7911711711.7117 -0.017196568 0.043898843 -0.0045589814 -0.018973386 7.071068e-011 7.071068e-011 7.071068e-011 7.071068e-011
7920120120.1201 0.022445172 0.044785697 0.019091502 0.0029083407 7.071068e-011 7.071068e-011 7.071068e-011 7.071068e-011
7928528528.5285 0.024117883 0.0023434549 -0.009853771 0.016588978 7.071068e-011 7.071068e-011 7.071068e-011 7.071068e-011
7936936936.9369 -0.010304614 0.010629091 -0.011551106 -0.015246916 7.071068e-011 7.071068e-011 7.071068e-011 7.071068e-011
7945345345.3453 0.017889569 0.032687493 0.018503075 -0.0048256982 7.071068e-011 7.071068e-011 7.071068e-011 7.071068e-011
