!Keysight Technologies,N5235B,MY61252044,A.15.00.15
!Date: Friday, January 20, 2023 18:28:06
!Correction: S11(Off) 
!S21(Off) 
!S12(Off) 
!S22(Off) 
!S2P File: Measurements: S11, S21, S12, S22:
# Hz S  RI   R 50
6600000000 0.016461564 -0.17413226 0.014934181 -0.0052567292 7.071068e-011 7.071068e-011 7.071068e-011 7.071068e-011
6608400000 -0.12313694 0.16706862 0.0068191076 0.010017846 7.071068e-011 7.071068e-011 7.071068e-011 7.071068e-011
6616800000 0.30716398 0.090969145 -0.0083393194 0.0048993691 7.071068e-011 7.071068e-011 7.071068e-011 7.071068e-011
6625200000 0.022803653 -0.27300823 -0.0030170991 -0.0090109939 7.071068e-011 7.071068e-011 7.071068e-011 7.071068e-011
6633600000 -0.1653432 0.16226822 0.0092221154 -0.001612645 7.071068e-011 7.071068e-011 7.071068e-011 7.071068e-011
6642000000 0.29070106 0.11321216 -0.00065833435 0.009473986 7.071068e-011 7.071068e-011 7.071068e-011 7.071068e-011
6650400000 0.038943015 -0.25274926 -0.01114846 -0.0027735401 7.071068e-011 7.071068e-011 7.071068e-011 7.071068e-011
6658800000 -0.1488582 0.1339819 0.0045908005 -0.012131565 7.071068e-011 7.071068e-011 7.071068e-011 7.071068e-011
6667200000 0.22837381 0.10310219 0.01312344 0.0077247564 7.071068e-011 7.071068e-011 7.071068e-011 7.071068e-011
6675600000 0.044044033 -0.15294419 -0.010028649 0.014941111 7.071068e-011 7.071068e-011 7.071068e-011 7.071068e-011
6684000000 -0.045390829 0.08459159 -0.015920859 -0.011843747 7.071068e-011 7.071068e-011 7.071068e-011 7.071068e-011
6692400000 0.10575128 0.048310909 0.013274608 -0.016337547 7.071068e-011 7.071068e-011 7.071068e-011 7.071068e-011
6700800000 0.08593221 0.017094918 0.016131535 0.013998185 7.071068e-011 7.071068e-011 7.071068e-011 7.071068e-011
6709200000 0.077748895 -0.040074896 -0.01442312 0.014485099 7.071068e-011 7.071068e-011 7.071068e-011 7.071068e-011
6717600000 -0.031330444 0.032161251 -0.011586775 -0.015613226 7.071068e-011 7.071068e-011 7.071068e-011 7.071068e-011
6726000000 0.15329705 0.11759631 0.01619163 -0.0084784785 7.071068e-011 7.071068e-011 7.071068e-011 7.071068e-011
6734400000 0.13124107 -0.13869727 0.0048470362 0.015949562 7.071068e-011 7.071068e-011 7.071068e-011 7.071068e-011
6742800000 -0.10791912 0.02229177 -0.015952205 0.00093192526 7.071068e-011 7.071068e-011 7.071068e-011 7.071068e-011
6751200000 0.16766945 0.15543722 0.0025338561 -0.01565454 7.071068e-011 7.071068e-011 7.071068e-011 7.071068e-011
6759600000 0.15550241 -0.16900367 0.013680207 0.0061973017 7.071068e-011 7.071068e-011 7.071068e-011 7.071068e-011
6768000000 -0.14696403 -0.011495941 -0.010201078 0.011095032 7.071068e-011 7.071068e-011 7.071068e-011 7.071068e-011
6776400000 0.12916344 0.18178377 -0.0087927263 -0.01301966 7.071068e-011 7.071068e-011 7.071068e-011 7.071068e-011
6784800000 0.15625374 -0.14256899 0.014329832 -0.0048439675 7.071068e-011 7.071068e-011 7.071068e-011 7.071068e-011
6793200000 -0.14668326 -0.013952043 0.00045841307 0.015534492 7.071068e-011 7.071068e-011 7.071068e-011 7.071068e-011
6801600000 0.095420115 0.20548904 -0.015949301 -0.0035808962 7.071068e-011 7.071068e-011 7.071068e-011 7.071068e-011
6810000000 0.17677537 -0.090597935 0.0080904188 -0.014827894 7.071068e-011 7.071068e-011 7.071068e-011 7.071068e-011
6818400000 -0.10302477 -0.017500084 0.012613739 0.012765678 7.071068e-011 7.071068e-011 7.071068e-011 7.071068e-011
6826800000 0.080650106 0.18793319 -0.015656976 0.009723505 7.071068e-011 7.071068e-011 7.071068e-011 7.071068e-011
6835200000 0.18561819 -0.044691417 -0.0050153346 -0.017781861 7.071068e-011 7.071068e-011 7.071068e-011 7.071068e-011
6843600000 -0.042883165 -0.032978937 0.020225616 -0.00023592361 7.071068e-011 7.071068e-011 7.071068e-011 7.071068e-011
6852000000 0.068882264 0.13019049 -0.0041800612 0.020446716 7.071068e-011 7.071068e-011 7.071068e-011 7.071068e-011
6860400000 0.1482653 -0.016838007 -0.01878004 -0.009323338 7.071068e-011 7.071068e-011 7.071068e-011 7.071068e-011
6868800000 0.0059848791 -0.029976245 0.014365572 -0.01627557 7.071068e-011 7.071068e-011 7.071068e-011 7.071068e-011
6877200000 0.050823741 0.072437152 0.012847591 0.018059622 7.071068e-011 7.071068e-011 7.071068e-011 7.071068e-011
6885600000 0.091990106 0.0088131893 -0.020470077 0.0078192241 7.071068e-011 7.071068e-011 7.071068e-011 7.071068e-011
6894000000 0.047641534 -0.0020026057 -0.0022918386 -0.022081288 7.071068e-011 7.071068e-011 7.071068e-011 7.071068e-011
6902400000 0.038286336 0.019455737 0.022040745 0.003388433 7.071068e-011 7.071068e-011 7.071068e-011 7.071068e-011
6910800000 0.031067627 0.036082953 -0.0090031056 0.020199068 7.071068e-011 7.071068e-011 7.071068e-011 7.071068e-011
6919200000 0.076462738 0.051508293 -0.016836092 -0.013873196 7.071068e-011 7.071068e-011 7.071068e-011 7.071068e-011
6927600000 0.053660657 -0.011759747 0.017530227 -0.01254424 7.071068e-011 7.071068e-011 7.071068e-011 7.071068e-011
6936000000 -0.0032224527 0.057861909 0.0069215298 0.019721827 7.071068e-011 7.071068e-011 7.071068e-011 7.071068e-011
6944400000 0.10833002 0.093101211 -0.020928133 0.00062858948 7.071068e-011 7.071068e-011 7.071068e-011 7.071068e-011
6952800000 0.089801796 -0.043507334 0.0050760144 -0.01993474 7.071068e-011 7.071068e-011 7.071068e-011 7.071068e-011
6961200000 -0.028944466 0.04790299 0.017064095 0.010541326 7.071068e-011 7.071068e-011 7.071068e-011 7.071068e-011
6969600000 0.11812313 0.11032823 -0.01507205 0.01305132 7.071068e-011 7.071068e-011 7.071068e-011 7.071068e-011
6978000000 0.10973241 -0.066670507 -0.0077335332 -0.017765477 7.071068e-011 7.071068e-011 7.071068e-011 7.071068e-011
6986400000 -0.063902445 0.023431107 0.018870281 -0.0015024671 7.071068e-011 7.071068e-011 7.071068e-011 7.071068e-011
6994800000 0.094650902 0.1378407 -0.0045105671 0.018797142 7.071068e-011 7.071068e-011 7.071068e-011 7.071068e-011
7003200000 0.11711463 -0.05202255 -0.016214963 -0.0098286401 7.071068e-011 7.071068e-011 7.071068e-011 7.071068e-011
7011600000 -0.07157442 0.021661097 0.014804252 -0.011685383 7.071068e-011 7.071068e-011 7.071068e-011 7.071068e-011
7020000000 0.078474246 0.16474396 0.006756817 0.017809266 7.071068e-011 7.071068e-011 7.071068e-011 7.071068e-011
7028400000 0.13940822 -0.02182365 -0.018662166 0.0006765424 7.071068e-011 7.071068e-011 7.071068e-011 7.071068e-011
7036800000 -0.050932251 0.020079562 0.0057133948 -0.018344991 7.071068e-011 7.071068e-011 7.071068e-011 7.071068e-011
7045200000 0.079050653 0.17295492 0.015761703 0.011016084 7.071068e-011 7.071068e-011 7.071068e-011 7.071068e-011
7053600000 0.17286755 0.0058275908 -0.015579867 0.010924135 7.071068e-011 7.071068e-011 7.071068e-011 7.071068e-011
7062000000 -0.0029378363 -0.012591119 -0.0053008469 -0.019011745 7.071068e-011 7.071068e-011 7.071068e-011 7.071068e-011
7070400000 0.068510912 0.14042738 0.019898783 0.00049552124 7.071068e-011 7.071068e-011 7.071068e-011 7.071068e-011
7078800000 0.17140257 0.015745809 -0.0071572331 0.018260807 7.071068e-011 7.071068e-011 7.071068e-011 7.071068e-011
7087200000 0.038454883 -0.032240804 -0.015526873 -0.013024884 7.071068e-011 7.071068e-011 7.071068e-011 7.071068e-011
7095600000 0.052383699 0.087451756 0.017173968 -0.010922526 7.071068e-011 7.071068e-011 7.071068e-011 7.071068e-011
7104000000 0.14872746 0.017199116 0.0045840414 0.019771563 7.071068e-011 7.071068e-011 7.071068e-011 7.071068e-011
7112400000 0.056703679 -0.046364475 -0.020527935 -0.0022981758 7.071068e-011 7.071068e-011 7.071068e-011 7.071068e-011
7120800000 0.030926304 0.028371666 0.008487341 -0.019068547 7.071068e-011 7.071068e-011 7.071068e-011 7.071068e-011
7129200000 0.089166529 0.018919684 0.015038687 0.01391224 7.071068e-011 7.071068e-011 7.071068e-011 7.071068e-011
7137600000 0.047374081 -0.038175263 -0.018528584 0.0096164057 7.071068e-011 7.071068e-011 7.071068e-011 7.071068e-011
7146000000 -0.00019447954 0.0098826876 -0.0033683472 -0.020781958 7.071068e-011 7.071068e-011 7.071068e-011 7.071068e-011
7154400000 0.02830223 0.041795556 0.020587105 0.003462102 7.071068e-011 7.071068e-011 7.071068e-011 7.071068e-011
7162800000 0.046135053 0.017096169 -0.010070628 0.017982699 7.071068e-011 7.071068e-011 7.071068e-011 7.071068e-011
7171200000 0.003432872 0.017899891 -0.013845956 -0.015535098 7.071068e-011 7.071068e-011 7.071068e-011 7.071068e-011
7179600000 0.014752027 0.07017035 0.018982057 -0.0079577575 7.071068e-011 7.071068e-011 7.071068e-011 7.071068e-011
7188000000 0.066532508 0.059825718 0.00093650678 0.02084098 7.071068e-011 7.071068e-011 7.071068e-011 7.071068e-011
7196400000 0.043653745 0.010163425 -0.020038383 -0.0057658586 7.071068e-011 7.071068e-011 7.071068e-011 7.071068e-011
7204800000 0.010183793 0.062813595 0.012130857 -0.01639179 7.071068e-011 7.071068e-011 7.071068e-011 7.071068e-011
7213200000 0.079156235 0.071305826 0.011386174 0.017183464 7.071068e-011 7.071068e-011 7.071068e-011 7.071068e-011
7221600000 0.071617037 -0.0025965385 -0.020148665 0.0051639709 7.071068e-011 7.071068e-011 7.071068e-011 7.071068e-011
7230000000 -0.00071427762 0.028734824 0.0018721364 -0.020566221 7.071068e-011 7.071068e-011 7.071068e-011 7.071068e-011
7238400000 0.064944148 0.078685194 0.018727876 0.00910623 7.071068e-011 7.071068e-011 7.071068e-011 7.071068e-011
7246800000 0.081115909 -0.0095900735 -0.014796088 0.014727624 7.071068e-011 7.071068e-011 7.071068e-011 7.071068e-011
7255200000 -0.01315387 0.00020634421 -0.008507479 -0.018781221 7.071068e-011 7.071068e-011 7.071068e-011 7.071068e-011
7263600000 0.027208351 0.084106907 0.020798797 -0.0017040002 7.071068e-011 7.071068e-011 7.071068e-011 7.071068e-011
7272000000 0.078521751 0.0077253096 -0.0052143442 0.020014185 7.071068e-011 7.071068e-011 7.071068e-011 7.071068e-011
7280400000 -0.023686897 -0.0060253283 -0.016910858 -0.011848624 7.071068e-011 7.071068e-011 7.071068e-011 7.071068e-011
7288800000 -0.0087022018 0.10316259 0.017252812 -0.011554842 7.071068e-011 7.071068e-011 7.071068e-011 7.071068e-011
7297200000 0.084844731 0.059705928 0.0049784873 0.020228431 7.071068e-011 7.071068e-011 7.071068e-011 7.071068e-011
7305600000 0.00859938 0.0044540376 -0.020520473 -0.0024659855 7.071068e-011 7.071068e-011 7.071068e-011 7.071068e-011
7314000000 -0.0039497684 0.10639903 0.0094075603 -0.018861581 7.071068e-011 7.071068e-011 7.071068e-011 7.071068e-011
7322400000 0.10889885 0.085438505 0.014332696 0.015009671 7.071068e-011 7.071068e-011 7.071068e-011 7.071068e-011
7330800000 0.060079757 -0.011745146 -0.01941538 0.0077970768 7.071068e-011 7.071068e-011 7.071068e-011 7.071068e-011
7339200000 0.0041750018 0.060996599 -0.00074812747 -0.021279847 7.071068e-011 7.071068e-011 7.071068e-011 7.071068e-011
7347600000 0.099275723 0.071968473 0.020070612 0.0064340062 7.071068e-011 7.071068e-011 7.071068e-011 7.071068e-011
7356000000 0.075893775 -0.03360505 -0.013102143 0.016292522 7.071068e-011 7.071068e-011 7.071068e-011 7.071068e-011
7364400000 -0.010100628 0.012479682 -0.010920226 -0.018192656 7.071068e-011 7.071068e-011 7.071068e-011 7.071068e-011
7372800000 0.054756444 0.054748829 0.020612981 -0.0040235822 7.071068e-011 7.071068e-011 7.071068e-011 7.071068e-011
7381200000 0.052965455 -0.031061577 -0.0038963798 0.020828994 7.071068e-011 7.071068e-011 7.071068e-011 7.071068e-011
7389600000 -0.04102182 0.00069199235 -0.01832038 -0.010847106 7.071068e-011 7.071068e-011 7.071068e-011 7.071068e-011
7398000000 0.0057285018 0.072014824 0.016533196 -0.013100469 7.071068e-011 7.071068e-011 7.071068e-011 7.071068e-011
7406400000 0.032887459 0.014715742 0.0064536934 0.020212119 7.071068e-011 7.071068e-011 7.071068e-011 7.071068e-011
7414800000 -0.038071282 0.027423169 -0.021377023 -0.00096000318 7.071068e-011 7.071068e-011 7.071068e-011 7.071068e-011
7423200000 -0.0016178275 0.10354649 0.0083087347 -0.019635921 7.071068e-011 7.071068e-011 7.071068e-011 7.071068e-011
7431600000 0.055558443 0.060621385 0.015338567 0.014903465 7.071068e-011 7.071068e-011 7.071068e-011 7.071068e-011
7440000000 0.013264405 0.038344529 -0.019342892 0.0093369754 7.071068e-011 7.071068e-011 7.071068e-011 7.071068e-011
7448400000 0.024086442 0.085725859 -0.0018184296 -0.02116796 7.071068e-011 7.071068e-011 7.071068e-011 7.071068e-011
7456800000 0.077585578 0.055282746 0.020474551 0.005875669 7.071068e-011 7.071068e-011 7.071068e-011 7.071068e-011
7465200000 0.04592913 0.013911788 -0.012715415 0.01715756 7.071068e-011 7.071068e-011 7.071068e-011 7.071068e-011
7473600000 0.028684955 0.037075557 -0.011510497 -0.01777686 7.071068e-011 7.071068e-011 7.071068e-011 7.071068e-011
7482000000 0.058362827 0.033137664 0.02066594 -0.0041686255 7.071068e-011 7.071068e-011 7.071068e-011 7.071068e-011
7490400000 0.043617032 -0.010801165 -0.0034532493 0.020870417 7.071068e-011 7.071068e-011 7.071068e-011 7.071068e-011
7498800000 -0.00078858848 -0.001563295 -0.018110847 -0.010589601 7.071068e-011 7.071068e-011 7.071068e-011 7.071068e-011
7507200000 0.00053981354 0.031046076 0.016350411 -0.013133158 7.071068e-011 7.071068e-011 7.071068e-011 7.071068e-011
7515600000 0.020736154 0.015220321 0.0063966569 0.01985961 7.071068e-011 7.071068e-011 7.071068e-011 7.071068e-011
7524000000 -0.021227796 0.003200395 -0.020710634 -0.001212263 7.071068e-011 7.071068e-011 7.071068e-011 7.071068e-011
7532400000 -0.033988729 0.060125515 0.0086841611 -0.018790996 7.071068e-011 7.071068e-011 7.071068e-011 7.071068e-011
7540800000 0.022721877 0.073155217 0.014482162 0.014696919 7.071068e-011 7.071068e-011 7.071068e-011 7.071068e-011
7549200000 0.019481767 0.022367079 -0.018571958 0.0078699635 7.071068e-011 7.071068e-011 7.071068e-011 7.071068e-011
7557600000 -0.018460825 0.061033756 -0.00044200796 -0.020280471 7.071068e-011 7.071068e-011 7.071068e-011 7.071068e-011
7566000000 0.047981456 0.083648555 0.018895295 0.0068961415 7.071068e-011 7.071068e-011 7.071068e-011 7.071068e-011
7574400000 0.060877912 0.0076637678 -0.013492987 0.014918077 7.071068e-011 7.071068e-011 7.071068e-011 7.071068e-011
7582800000 -0.010040433 0.015598974 -0.0089413179 -0.018022019 7.071068e-011 7.071068e-011 7.071068e-011 7.071068e-011
7591200000 0.036930274 0.064323194 0.019787254 -0.0018472837 7.071068e-011 7.071068e-011 7.071068e-011 7.071068e-011
7599600000 0.059025787 -0.015189907 -0.0056707477 0.018725099 7.071068e-011 7.071068e-011 7.071068e-011 7.071068e-011
7608000000 -0.03096406 -0.020418297 -0.015542254 -0.012619236 7.071068e-011 7.071068e-011 7.071068e-011 7.071068e-011
7616400000 -0.014894366 0.056733485 0.017205874 -0.010094475 7.071068e-011 7.071068e-011 7.071068e-011 7.071068e-011
7624800000 0.031530131 0.0050042714 0.002768137 0.019585799 7.071068e-011 7.071068e-011 7.071068e-011 7.071068e-011
7633200000 -0.052821312 -0.006233349 -0.019173127 -0.0046049254 7.071068e-011 7.071068e-011 7.071068e-011 7.071068e-011
7641600000 -0.038209923 0.087033935 0.011372032 -0.015931316 7.071068e-011 7.071068e-011 7.071068e-011 7.071068e-011
7650000000 0.037844226 0.052885078 0.010543942 0.016591165 7.071068e-011 7.071068e-011 7.071068e-011 7.071068e-011
7658400000 -0.021180606 0.011780209 -0.019557012 0.0038119853 7.071068e-011 7.071068e-011 7.071068e-011 7.071068e-011
7666800000 -0.022582619 0.095965363 0.0034175438 -0.019308178 7.071068e-011 7.071068e-011 7.071068e-011 7.071068e-011
7675200000 0.069582939 0.071489602 0.016215656 0.010738521 7.071068e-011 7.071068e-011 7.071068e-011 7.071068e-011
7683600000 0.031894188 -0.0040205712 -0.016267683 0.011336063 7.071068e-011 7.071068e-011 7.071068e-011 7.071068e-011
7692000000 -0.0052753631 0.046981171 -0.0046307254 -0.019168699 7.071068e-011 7.071068e-011 7.071068e-011 7.071068e-011
7700400000 0.065898262 0.043853354 0.019497864 0.0027687 7.071068e-011 7.071068e-011 7.071068e-011 7.071068e-011
7708800000 0.035559434 -0.039916608 -0.0099541144 0.016996775 7.071068e-011 7.071068e-011 7.071068e-011 7.071068e-011
7717200000 -0.033748053 0.00099949364 -0.012090645 -0.015625343 7.071068e-011 7.071068e-011 7.071068e-011 7.071068e-011
7725600000 0.017145345 0.033720739 0.019009348 -0.0051676077 7.071068e-011 7.071068e-011 7.071068e-011 7.071068e-011
7734000000 0.013842433 -0.035773277 -0.0020952469 0.019790754 7.071068e-011 7.071068e-011 7.071068e-011 7.071068e-011
7742400000 -0.070709087 -0.012076336 -0.01735146 -0.0091421129 7.071068e-011 7.071068e-011 7.071068e-011 7.071068e-011
7750800000 -0.040528875 0.062379584 0.015215534 -0.012621016 7.071068e-011 7.071068e-011 7.071068e-011 7.071068e-011
7759200000 0.0015733038 0.02526514 0.0061041452 0.018908935 7.071068e-011 7.071068e-011 7.071068e-011 7.071068e-011
7767600000 -0.053482208 0.019424131 -0.01982018 -0.001408114 7.071068e-011 7.071068e-011 7.071068e-011 7.071068e-011
7776000000 -0.037719592 0.091193169 0.0087024104 -0.017678622 7.071068e-011 7.071068e-011 7.071068e-011 7.071068e-011
7784400000 0.031603638 0.067827433 0.013170687 0.014748029 7.071068e-011 7.071068e-011 7.071068e-011 7.071068e-011
7792800000 0.0010017748 0.024863942 -0.018469691 0.0066043362 7.071068e-011 7.071068e-011 7.071068e-011 7.071068e-011
7801200000 -0.0074349237 0.070363246 0.0010366768 -0.019878855 7.071068e-011 7.071068e-011 7.071068e-011 7.071068e-011
7809600000 0.053071942 0.058325473 0.018100178 0.008178222 7.071068e-011 7.071068e-011 7.071068e-011 7.071068e-011
7818000000 0.035307534 -0.0042295624 -0.014397285 0.013387864 7.071068e-011 7.071068e-011 7.071068e-011 7.071068e-011
7826400000 -0.0056024003 0.020824989 -0.0070583667 -0.01847009 7.071068e-011 7.071068e-011 7.071068e-011 7.071068e-011
7834800000 0.032670826 0.031718489 0.019765701 0.00038237328 7.071068e-011 7.071068e-011 7.071068e-011 7.071068e-011
7843200000 0.025281662 -0.019893181 -0.0078035765 0.01822103 7.071068e-011 7.071068e-011 7.071068e-011 7.071068e-011
7851600000 -0.026949661 -0.0043993788 -0.013939859 -0.014158139 7.071068e-011 7.071068e-011 7.071068e-011 7.071068e-011
7860000000 -0.0038708795 0.030726707 0.018270591 -0.0076464172 7.071068e-011 7.071068e-011 7.071068e-011 7.071068e-011
7868400000 0.010192663 -0.0036262053 -9.9923159e-007 0.01975105 7.071068e-011 7.071068e-011 7.071068e-011 7.071068e-011
7876800000 -0.036164455 -0.0036702314 -0.018524785 -0.0074325581 7.071068e-011 7.071068e-011 7.071068e-011 7.071068e-011
7885200000 -0.030581409 0.043411076 0.013642366 -0.014400275 7.071068e-011 7.071068e-011 7.071068e-011 7.071068e-011
7893600000 0.0089285476 0.036248397 0.0080572795 0.01786563 7.071068e-011 7.071068e-011 7.071068e-011 7.071068e-011
7902000000 -0.0083761308 0.0091405585 -0.019689709 0.0004538167 7.071068e-011 7.071068e-011 7.071068e-011 7.071068e-011
7910400000 -0.021458315 0.039312094 0.0068868729 -0.018565267 7.071068e-011 7.071068e-011 7.071068e-011 7.071068e-011
7918800000 0.017297937 0.048864864 0.014418662 0.013181037 7.071068e-011 7.071068e-011 7.071068e-011 7.071068e-011
7927200000 0.028362149 0.0073874877 -0.017654669 0.0082643349 7.071068e-011 7.071068e-011 7.071068e-011 7.071068e-011
7935600000 -0.0078909453 0.0059320964 -0.00091438391 -0.019346733 7.071068e-011 7.071068e-011 7.071068e-011 7.071068e-011
7944000000 0.010924999 0.033145148 0.018193366 0.0066356733 7.071068e-011 7.071068e-011 7.071068e-011 7.071068e-011
7952400000 0.037607376 -0.005568184 -0.013092316 0.014277629 7.071068e-011 7.071068e-011 7.071068e-011 7.071068e-011
7960800000 -0.015175532 -0.03347921 -0.0083359145 -0.017459569 7.071068e-011 7.071068e-011 7.071068e-011 7.071068e-011
7969200000 -0.029132843 0.021085111 0.019037759 -0.00096501701 7.071068e-011 7.071068e-011 7.071068e-011 7.071068e-011
7977600000 0.020157821 0.006577631 -0.0064929947 0.017948683 7.071068e-011 7.071068e-011 7.071068e-011 7.071068e-011
7986000000 -0.02448386 -0.039635349 -0.014145442 -0.01280323 7.071068e-011 7.071068e-011 7.071068e-011 7.071068e-011
7994400000 -0.065157801 0.024902131 0.017139856 -0.0082012052 7.071068e-011 7.071068e-011 7.071068e-011 7.071068e-011
