!Keysight Technologies,N5235B,MY61252044,A.15.00.15
!Date: Friday, January 20, 2023 23:56:50
!Correction: S11(Off) 
!S21(Off) 
!S12(Off) 
!S22(Off) 
!S2P File: Measurements: S11, S21, S12, S22:
# Hz S  RI   R 50
6600000000 0.019055365 -0.17540728 0.01544898 -0.0030373766 7.071068e-011 7.071068e-011 7.071068e-011 7.071068e-011
6608408408.4084 -0.12499658 0.16505188 0.0052946196 0.010836435 7.071068e-011 7.071068e-011 7.071068e-011 7.071068e-011
6616816816.8168 0.30566725 0.093361691 -0.0089128483 0.0036790792 7.071068e-011 7.071068e-011 7.071068e-011 7.071068e-011
6625225225.2252 0.025404608 -0.27296034 -0.0017677948 -0.0093053635 7.071068e-011 7.071068e-011 7.071068e-011 7.071068e-011
6633633633.6336 -0.16611217 0.16071422 0.0093376031 -0.00037464069 7.071068e-011 7.071068e-011 7.071068e-011 7.071068e-011
6642042042.042 0.28948158 0.11380029 -0.0018706028 0.0093177417 7.071068e-011 7.071068e-011 7.071068e-011 7.071068e-011
6650450450.4505 0.039860807 -0.25198427 -0.010719351 -0.0041088839 7.071068e-011 7.071068e-011 7.071068e-011 7.071068e-011
6658858858.8589 -0.14866917 0.13375337 0.0059962142 -0.011488384 7.071068e-011 7.071068e-011 7.071068e-011 7.071068e-011
6667267267.2673 0.22811539 0.10170881 0.012190741 0.0091884891 7.071068e-011 7.071068e-011 7.071068e-011 7.071068e-011
6675675675.6757 0.043363132 -0.15099517 -0.011555942 0.013810101 7.071068e-011 7.071068e-011 7.071068e-011 7.071068e-011
6684084084.0841 -0.044478137 0.083806589 -0.014581093 -0.013373957 7.071068e-011 7.071068e-011 7.071068e-011 7.071068e-011
6692492492.4925 0.10559241 0.047598872 0.014838359 -0.014897398 7.071068e-011 7.071068e-011 7.071068e-011 7.071068e-011
6700900900.9009 0.085996799 0.018473277 0.014740162 0.015431226 7.071068e-011 7.071068e-011 7.071068e-011 7.071068e-011
6709309309.3093 0.07744775 -0.041878987 -0.015568401 0.013083988 7.071068e-011 7.071068e-011 7.071068e-011 7.071068e-011
6717717717.7177 -0.031280953 0.034044638 -0.010114158 -0.016492061 7.071068e-011 7.071068e-011 7.071068e-011 7.071068e-011
6726126126.1261 0.15473895 0.11656522 0.016808808 -0.0070573809 7.071068e-011 7.071068e-011 7.071068e-011 7.071068e-011
6734534534.5345 0.12909046 -0.14043291 0.0035339207 0.016235016 7.071068e-011 7.071068e-011 7.071068e-011 7.071068e-011
6742942942.9429 -0.10791474 0.026042854 -0.015907688 -0.00030437452 7.071068e-011 7.071068e-011 7.071068e-011 7.071068e-011
6751351351.3514 0.17094842 0.1529201 0.0036423656 -0.015362466 7.071068e-011 7.071068e-011 7.071068e-011 7.071068e-011
6759759759.7598 0.15123545 -0.17118324 0.013170268 0.007087376 7.071068e-011 7.071068e-011 7.071068e-011 7.071068e-011
6768168168.1682 -0.14683567 -0.0061990898 -0.010874604 0.010389268 7.071068e-011 7.071068e-011 7.071068e-011 7.071068e-011
6776576576.5766 0.13336931 0.17918694 -0.0079795225 -0.013483559 7.071068e-011 7.071068e-011 7.071068e-011 7.071068e-011
6784984984.985 0.15173361 -0.14572801 0.01456292 -0.0039941249 7.071068e-011 7.071068e-011 7.071068e-011 7.071068e-011
6793393393.3934 -0.14723893 -0.007267802 -0.00037590298 0.015519065 7.071068e-011 7.071068e-011 7.071068e-011 7.071068e-011
6801801801.8018 0.10084075 0.20280601 -0.015707793 -0.0043215174 7.071068e-011 7.071068e-011 7.071068e-011 7.071068e-011
6810210210.2102 0.17285387 -0.094390452 0.008698849 -0.014416483 7.071068e-011 7.071068e-011 7.071068e-011 7.071068e-011
6818618618.6186 -0.10506429 -0.010927142 0.012118117 0.013257154 7.071068e-011 7.071068e-011 7.071068e-011 7.071068e-011
6827027027.027 0.087238565 0.18548691 -0.015973305 0.0091794766 7.071068e-011 7.071068e-011 7.071068e-011 7.071068e-011
6835435435.4354 0.18170875 -0.048289642 -0.0044497438 -0.017900152 7.071068e-011 7.071068e-011 7.071068e-011 7.071068e-011
6843843843.8438 -0.045146286 -0.028437356 0.020165935 0.00028568582 7.071068e-011 7.071068e-011 7.071068e-011 7.071068e-011
6852252252.2523 0.074315742 0.12920354 -0.0046161683 0.02028822 7.071068e-011 7.071068e-011 7.071068e-011 7.071068e-011
6860660660.6607 0.14520423 -0.019932879 -0.018584907 -0.0096365968 7.071068e-011 7.071068e-011 7.071068e-011 7.071068e-011
6869069069.0691 0.004380981 -0.027237996 0.014545375 -0.016058372 7.071068e-011 7.071068e-011 7.071068e-011 7.071068e-011
6877477477.4775 0.053814214 0.072456188 0.012646965 0.018107262 7.071068e-011 7.071068e-011 7.071068e-011 7.071068e-011
6885885885.8859 0.090350159 0.0070614805 -0.020455435 0.0076688635 7.071068e-011 7.071068e-011 7.071068e-011 7.071068e-011
6894294294.2943 0.04734708 -0.0010202767 -0.0022666925 -0.022011738 7.071068e-011 7.071068e-011 7.071068e-011 7.071068e-011
6902702702.7027 0.038231816 0.019300004 0.021974584 0.003277851 7.071068e-011 7.071068e-011 7.071068e-011 7.071068e-011
6911111111.1111 0.030911742 0.037617203 -0.0088084992 0.02018632 7.071068e-011 7.071068e-011 7.071068e-011 7.071068e-011
6919519519.5195 0.078231841 0.050057571 -0.016912609 -0.013646553 7.071068e-011 7.071068e-011 7.071068e-011 7.071068e-011
6927927927.9279 0.050926249 -0.012397723 0.017257396 -0.012743208 7.071068e-011 7.071068e-011 7.071068e-011 7.071068e-011
6936336336.3363 -0.0022688985 0.061994359 0.0072366311 0.019479282 7.071068e-011 7.071068e-011 7.071068e-011 7.071068e-011
6944744744.7447 0.1122534 0.08954633 -0.02082935 0.0011098982 7.071068e-011 7.071068e-011 7.071068e-011 7.071068e-011
6953153153.1532 0.084581986 -0.045457345 0.0045172214 -0.019977778 7.071068e-011 7.071068e-011 7.071068e-011 7.071068e-011
6961561561.5616 -0.028396713 0.05412367 0.017312611 0.009974434 7.071068e-011 7.071068e-011 7.071068e-011 7.071068e-011
6969969969.97 0.12437913 0.10609002 -0.014530291 0.013517151 7.071068e-011 7.071068e-011 7.071068e-011 7.071068e-011
6978378378.3784 0.10200425 -0.070631951 -0.0083514312 -0.017374931 7.071068e-011 7.071068e-011 7.071068e-011 7.071068e-011
6986786786.7868 -0.064073451 0.032362152 0.018726779 -0.0022491398 7.071068e-011 7.071068e-011 7.071068e-011 7.071068e-011
6995195195.1952 0.10264862 0.13406761 -0.0035845835 0.01890271 7.071068e-011 7.071068e-011 7.071068e-011 7.071068e-011
7003603603.6036 0.10919975 -0.057666942 -0.016582491 -0.0089291781 7.071068e-011 7.071068e-011 7.071068e-011 7.071068e-011
7012012012.012 -0.072614953 0.032103568 0.014134234 -0.012442842 7.071068e-011 7.071068e-011 7.071068e-011 7.071068e-011
7020420420.4204 0.087678224 0.16151872 0.0077624344 0.017331067 7.071068e-011 7.071068e-011 7.071068e-011 7.071068e-011
7028828828.8288 0.13286316 -0.028738206 -0.018520573 0.0017985055 7.071068e-011 7.071068e-011 7.071068e-011 7.071068e-011
7037237237.2372 -0.053845674 0.030334638 0.0044482136 -0.018627783 7.071068e-011 7.071068e-011 7.071068e-011 7.071068e-011
7045645645.6456 0.089692213 0.17091265 0.01642495 0.0098226592 7.071068e-011 7.071068e-011 7.071068e-011 7.071068e-011
7054054054.0541 0.16772123 -0.0027830664 -0.014689338 0.012015699 7.071068e-011 7.071068e-011 7.071068e-011 7.071068e-011
7062462462.4625 -0.0079191122 -0.004265863 -0.0068024481 -0.018476434 7.071068e-011 7.071068e-011 7.071068e-011 7.071068e-011
7070870870.8709 0.077966027 0.14032984 0.019767853 -0.0011637668 7.071068e-011 7.071068e-011 7.071068e-011 7.071068e-011
7079279279.2793 0.16839521 0.0076224771 -0.0055749062 0.018778889 7.071068e-011 7.071068e-011 7.071068e-011 7.071068e-011
7087687687.6877 0.032736029 -0.02712479 -0.016621038 -0.011508085 7.071068e-011 7.071068e-011 7.071068e-011 7.071068e-011
7096096096.0961 0.059295755 0.08914043 0.015959276 -0.012450003 7.071068e-011 7.071068e-011 7.071068e-011 7.071068e-011
7104504504.5045 0.14773721 0.010597703 0.0065043024 0.019140387 7.071068e-011 7.071068e-011 7.071068e-011 7.071068e-011
7112912912.9129 0.051036146 -0.044703435 -0.02063331 -0.00015813897 7.071068e-011 7.071068e-011 7.071068e-011 7.071068e-011
7121321321.3213 0.034278966 0.031759448 0.0063390178 -0.019823378 7.071068e-011 7.071068e-011 7.071068e-011 7.071068e-011
7129729729.7297 0.089205071 0.01460364 0.016425004 0.012096404 7.071068e-011 7.071068e-011 7.071068e-011 7.071068e-011
7138138138.1381 0.043544099 -0.037761167 -0.017197883 0.011667266 7.071068e-011 7.071068e-011 7.071068e-011 7.071068e-011
7146546546.5465 -0.00053319579 0.013496942 -0.0058144187 -0.020122258 7.071068e-011 7.071068e-011 7.071068e-011 7.071068e-011
7154954954.955 0.030549092 0.041348394 0.020793498 0.00088548422 7.071068e-011 7.071068e-011 7.071068e-011 7.071068e-011
7163363363.3634 0.04499815 0.015844559 -0.0076874928 0.01907965 7.071068e-011 7.071068e-011 7.071068e-011 7.071068e-011
7171771771.7718 0.0012732255 0.020169893 -0.015721522 -0.013498681 7.071068e-011 7.071068e-011 7.071068e-011 7.071068e-011
7180180180.1802 0.018344592 0.072486527 0.017631814 -0.010362138 7.071068e-011 7.071068e-011 7.071068e-011 7.071068e-011
7188588588.5886 0.067746736 0.056269608 0.003849867 0.020446077 7.071068e-011 7.071068e-011 7.071068e-011 7.071068e-011
7196996996.997 0.040014364 0.01010408 -0.020594612 -0.002773718 7.071068e-011 7.071068e-011 7.071068e-011 7.071068e-011
7205405405.4054 0.012219093 0.066982351 0.0095717143 -0.017975489 7.071068e-011 7.071068e-011 7.071068e-011 7.071068e-011
7213813813.8138 0.083099969 0.067351907 0.013819559 0.015205974 7.071068e-011 7.071068e-011 7.071068e-011 7.071068e-011
7222222222.2222 0.066371463 -0.0054292232 -0.018997654 0.0081889415 7.071068e-011 7.071068e-011 7.071068e-011 7.071068e-011
7230630630.6306 -0.0013089464 0.034936149 -0.0014062431 -0.020491568 7.071068e-011 7.071068e-011 7.071068e-011 7.071068e-011
7239039039.039 0.071331806 0.075664528 0.01993794 0.0058780508 7.071068e-011 7.071068e-011 7.071068e-011 7.071068e-011
7247447447.4474 0.075406224 -0.01467366 -0.012037295 0.016955968 7.071068e-011 7.071068e-011 7.071068e-011 7.071068e-011
7255855855.8559 -0.016535455 0.0071333889 -0.011567795 -0.017032322 7.071068e-011 7.071068e-011 7.071068e-011 7.071068e-011
7264264264.2643 0.034639772 0.084066771 0.020123549 -0.0053162351 7.071068e-011 7.071068e-011 7.071068e-011 7.071068e-011
7272672672.6727 0.074479289 0.00086129218 -0.0015486844 0.020529451 7.071068e-011 7.071068e-011 7.071068e-011 7.071068e-011
7281081081.0811 -0.029694477 0.00061847561 -0.018707719 -0.0084806727 7.071068e-011 7.071068e-011 7.071068e-011 7.071068e-011
7289489489.4895 -0.00026285771 0.10750581 0.01471674 -0.014589659 7.071068e-011 7.071068e-011 7.071068e-011 7.071068e-011
7297897897.8979 0.08498171 0.050916944 0.0087704603 0.018835612 7.071068e-011 7.071068e-011 7.071068e-011 7.071068e-011
7306306306.3063 0.0013027681 0.0087481951 -0.020574197 0.0015456314 7.071068e-011 7.071068e-011 7.071068e-011 7.071068e-011
7314714714.7147 0.0039036358 0.11262055 0.0054269047 -0.020279761 7.071068e-011 7.071068e-011 7.071068e-011 7.071068e-011
7323123123.1231 0.11259583 0.075604036 0.016984101 0.011757933 7.071068e-011 7.071068e-011 7.071068e-011 7.071068e-011
7331531531.5315 0.051475871 -0.01185712 -0.017342107 0.011682444 7.071068e-011 7.071068e-011 7.071068e-011 7.071068e-011
7339939939.9399 0.0078051542 0.06842161 -0.0052853506 -0.020556351 7.071068e-011 7.071068e-011 7.071068e-011 7.071068e-011
7348348348.3483 0.10531084 0.063848719 0.020912416 0.0019592037 7.071068e-011 7.071068e-011 7.071068e-011 7.071068e-011
7356756756.7568 0.066381931 -0.036915425 -0.0092269806 0.018767936 7.071068e-011 7.071068e-011 7.071068e-011 7.071068e-011
7365165165.1652 -0.010266695 0.020621041 -0.014712992 -0.015213238 7.071068e-011 7.071068e-011 7.071068e-011 7.071068e-011
7373573573.5736 0.061330177 0.049952731 0.019021956 -0.00853376 7.071068e-011 7.071068e-011 7.071068e-011 7.071068e-011
7381981981.982 0.044133361 -0.035250273 0.0010381701 0.021114606 7.071068e-011 7.071068e-011 7.071068e-011 7.071068e-011
7390390390.3904 -0.043045837 0.0094593465 -0.020317731 -0.0061890706 7.071068e-011 7.071068e-011 7.071068e-011 7.071068e-011
7398798798.7988 0.012771193 0.071262412 0.012912751 -0.016673708 7.071068e-011 7.071068e-011 7.071068e-011 7.071068e-011
7407207207.2072 0.028042015 0.0099925911 0.011161201 0.017994341 7.071068e-011 7.071068e-011 7.071068e-011 7.071068e-011
7415615615.6156 -0.040838484 0.035186186 -0.020875655 0.0043574041 7.071068e-011 7.071068e-011 7.071068e-011 7.071068e-011
7424024024.024 0.0065778829 0.10498074 0.0030877742 -0.021027105 7.071068e-011 7.071068e-011 7.071068e-011 7.071068e-011
7432432432.4324 0.054756027 0.054299064 0.018655038 0.010440684 7.071068e-011 7.071068e-011 7.071068e-011 7.071068e-011
7440840840.8408 0.009927094 0.042228624 -0.016153865 0.014025955 7.071068e-011 7.071068e-011 7.071068e-011 7.071068e-011
7449249249.2492 0.030122956 0.087032728 -0.0072969445 -0.019875353 7.071068e-011 7.071068e-011 7.071068e-011 7.071068e-011
7457657657.6577 0.077929452 0.049112283 0.021249197 0.00019862319 7.071068e-011 7.071068e-011 7.071068e-011 7.071068e-011
7466066066.0661 0.041879833 0.014031446 -0.0075464738 0.01991809 7.071068e-011 7.071068e-011 7.071068e-011 7.071068e-011
7474474474.4745 0.030434357 0.039205987 -0.015911942 -0.013850233 7.071068e-011 7.071068e-011 7.071068e-011 7.071068e-011
7482882882.8829 0.059779115 0.029190617 0.018637937 -0.0097690998 7.071068e-011 7.071068e-011 7.071068e-011 7.071068e-011
7491291291.2913 0.039019611 -0.01332316 0.002609109 0.020925246 7.071068e-011 7.071068e-011 7.071068e-011 7.071068e-011
7499699699.6997 -0.0033160294 0.0022828802 -0.020345524 -0.0049522468 7.071068e-011 7.071068e-011 7.071068e-011 7.071068e-011
7508108108.1081 0.0031654944 0.031941786 0.011772687 -0.017293608 7.071068e-011 7.071068e-011 7.071068e-011 7.071068e-011
7516516516.5165 0.019422295 0.012066259 0.011959154 0.017004699 7.071068e-011 7.071068e-011 7.071068e-011 7.071068e-011
7524924924.9249 -0.026282238 0.0065142754 -0.020027764 0.0050396267 7.071068e-011 7.071068e-011 7.071068e-011 7.071068e-011
7533333333.3333 -0.029928803 0.065876283 0.0025744375 -0.02048436 7.071068e-011 7.071068e-011 7.071068e-011 7.071068e-011
7541741741.7417 0.027769117 0.069025517 0.018226681 0.0095159886 7.071068e-011 7.071068e-011 7.071068e-011 7.071068e-011
7550150150.1502 0.013201318 0.020584578 -0.015230913 0.01318542 7.071068e-011 7.071068e-011 7.071068e-011 7.071068e-011
7558558558.5586 -0.0154059 0.068256065 -0.006810532 -0.019041926 7.071068e-011 7.071068e-011 7.071068e-011 7.071068e-011
7566966966.967 0.055460989 0.078234456 0.019987566 0.00052742678 7.071068e-011 7.071068e-011 7.071068e-011 7.071068e-011
7575375375.3754 0.053762823 0.0010482423 -0.007945817 0.01843147 7.071068e-011 7.071068e-011 7.071068e-011 7.071068e-011
7583783783.7838 -0.011863297 0.023779474 -0.01436027 -0.014103254 7.071068e-011 7.071068e-011 7.071068e-011 7.071068e-011
7592192192.1922 0.045258813 0.060704362 0.018015299 -0.0082688406 7.071068e-011 7.071068e-011 7.071068e-011 7.071068e-011
7600600600.6006 0.051934972 -0.02416659 0.0008291878 0.019473173 7.071068e-011 7.071068e-011 7.071068e-011 7.071068e-011
7609009009.009 -0.037873186 -0.01103285 -0.018852385 -0.0065783244 7.071068e-011 7.071068e-011 7.071068e-011 7.071068e-011
7617417417.4174 -0.0054412279 0.058133971 0.012651847 -0.015281162 7.071068e-011 7.071068e-011 7.071068e-011 7.071068e-011
7625825825.8258 0.026533112 -0.0038532461 0.0093804467 0.017411636 7.071068e-011 7.071068e-011 7.071068e-011 7.071068e-011
7634234234.2342 -0.060466427 0.0037442814 -0.019541116 0.002396791 7.071068e-011 7.071068e-011 7.071068e-011 7.071068e-011
7642642642.6426 -0.026875617 0.091575444 0.0050291647 -0.0188764 7.071068e-011 7.071068e-011 7.071068e-011 7.071068e-011
7651051051.0511 0.037585244 0.042755734 0.015712183 0.011734989 7.071068e-011 7.071068e-011 7.071068e-011 7.071068e-011
7659459459.4595 -0.029577188 0.017965443 -0.016793676 0.010615026 7.071068e-011 7.071068e-011 7.071068e-011 7.071068e-011
7667867867.8679 -0.011802319 0.10227793 -0.0038455785 -0.01911764 7.071068e-011 7.071068e-011 7.071068e-011 7.071068e-011
7676276276.2763 0.073783614 0.059291866 0.019073185 0.0040052608 7.071068e-011 7.071068e-011 7.071068e-011 7.071068e-011
7684684684.6847 0.021692108 -0.0039839405 -0.010807662 0.016578939 7.071068e-011 7.071068e-011 7.071068e-011 7.071068e-011
7693093093.0931 0.00049370591 0.054148071 -0.011435566 -0.015984062 7.071068e-011 7.071068e-011 7.071068e-011 7.071068e-011
7701501501.5015 0.070926398 0.032820597 0.019024435 -0.0047872439 7.071068e-011 7.071068e-011 7.071068e-011 7.071068e-011
7709909909.9099 0.023612887 -0.042474288 -0.0026565958 0.019495288 7.071068e-011 7.071068e-011 7.071068e-011 7.071068e-011
7718318318.3183 -0.033253573 0.010585377 -0.017183425 -0.00962702 7.071068e-011 7.071068e-011 7.071068e-011 7.071068e-011
7726726726.7267 0.02419652 0.02796627 0.015465899 -0.012196251 7.071068e-011 7.071068e-011 7.071068e-011 7.071068e-011
7735135135.1351 0.0030827732 -0.041140385 0.0058892933 0.018960493 7.071068e-011 7.071068e-011 7.071068e-011 7.071068e-011
7743543543.5435 -0.074930251 -0.00050530938 -0.019520134 -0.0014996103 7.071068e-011 7.071068e-011 7.071068e-011 7.071068e-011
7751951951.952 -0.030680455 0.064340971 0.0087614451 -0.017660376 7.071068e-011 7.071068e-011 7.071068e-011 7.071068e-011
7760360360.3604 -0.0024818648 0.017686142 0.013214771 0.014685867 7.071068e-011 7.071068e-011 7.071068e-011 7.071068e-011
7768768768.7688 -0.058156457 0.028208578 -0.018593255 0.0068281391 7.071068e-011 7.071068e-011 7.071068e-011 7.071068e-011
7777177177.1772 -0.027502459 0.095475458 0.00063194433 -0.019710248 7.071068e-011 7.071068e-011 7.071068e-011 7.071068e-011
7785585585.5856 0.033883434 0.058254663 0.018103365 0.0078533534 7.071068e-011 7.071068e-011 7.071068e-011 7.071068e-011
7793993993.994 -0.0053656865 0.02766606 -0.013932161 0.013658624 7.071068e-011 7.071068e-011 7.071068e-011 7.071068e-011
7802402402.4024 -0.00063062337 0.07473556 -0.0075328732 -0.018381568 7.071068e-011 7.071068e-011 7.071068e-011 7.071068e-011
7810810810.8108 0.057913743 0.049128551 0.019768767 -0.00041040723 7.071068e-011 7.071068e-011 7.071068e-011 7.071068e-011
7819219219.2192 0.026270144 -0.0064432132 -0.0071773729 0.018311759 7.071068e-011 7.071068e-011 7.071068e-011 7.071068e-011
7827627627.6276 -0.0037380215 0.026611192 -0.014372756 -0.013485539 7.071068e-011 7.071068e-011 7.071068e-011 7.071068e-011
7836036036.036 0.037359208 0.025924511 0.017856654 -0.0083019147 7.071068e-011 7.071068e-011 7.071068e-011 7.071068e-011
7844444444.4444 0.016727109 -0.02371341 0.0010749992 0.019714603 7.071068e-011 7.071068e-011 7.071068e-011 7.071068e-011
7852852852.8529 -0.02828721 0.0028033913 -0.018771246 -0.0063917832 7.071068e-011 7.071068e-011 7.071068e-011 7.071068e-011
7861261261.2613 0.0015226548 0.029569775 0.012797725 -0.015014871 7.071068e-011 7.071068e-011 7.071068e-011 7.071068e-011
7869669669.6697 0.0055961912 -0.0090912441 0.0089707263 0.017570911 7.071068e-011 7.071068e-011 7.071068e-011 7.071068e-011
7878078078.0781 -0.04028178 0.003232063 -0.019802667 0.0019193268 7.071068e-011 7.071068e-011 7.071068e-011 7.071068e-011
7886486486.4865 -0.024602419 0.046861779 0.0054214387 -0.019000063 7.071068e-011 7.071068e-011 7.071068e-011 7.071068e-011
7894894894.8949 0.010914511 0.030472675 0.015373637 0.012018656 7.071068e-011 7.071068e-011 7.071068e-011 7.071068e-011
7903303303.3033 -0.01334187 0.011027014 -0.017107653 0.0096515315 7.071068e-011 7.071068e-011 7.071068e-011 7.071068e-011
7911711711.7117 -0.017933119 0.043796156 -0.002724346 -0.019485397 7.071068e-011 7.071068e-011 7.071068e-011 7.071068e-011
7920120120.1201 0.02298071 0.045007844 0.018878862 0.0047656707 7.071068e-011 7.071068e-011 7.071068e-011 7.071068e-011
7928528528.5285 0.023773508 0.0020258445 -0.011488862 0.015694138 7.071068e-011 7.071068e-011 7.071068e-011 7.071068e-011
7936936936.9369 -0.0099260891 0.010980325 -0.010116979 -0.016403563 7.071068e-011 7.071068e-011 7.071068e-011 7.071068e-011
7945345345.3453 0.017629495 0.032142419 0.019021917 -0.0030407447 7.071068e-011 7.071068e-011 7.071068e-011 7.071068e-011
