!Keysight Technologies,N5235B,MY61252044,A.15.00.15
!Date: Friday, January 20, 2023 23:46:45
!Correction: S11(Off) 
!S21(Off) 
!S12(Off) 
!S22(Off) 
!S2P File: Measurements: S11, S21, S12, S22:
# Hz S  RI   R 50
6600000000 0.018232811 -0.17649135 0.01427528 -0.0062183635 7.071068e-011 7.071068e-011 7.071068e-011 7.071068e-011
6608408408.4084 -0.12408859 0.16560255 0.0073581268 0.0093626501 7.071068e-011 7.071068e-011 7.071068e-011 7.071068e-011
6616816816.8168 0.30549219 0.092865296 -0.0078656804 0.0054041226 7.071068e-011 7.071068e-011 7.071068e-011 7.071068e-011
6625225225.2252 0.02519545 -0.27255514 -0.0036493209 -0.0086559765 7.071068e-011 7.071068e-011 7.071068e-011 7.071068e-011
6633633633.6336 -0.16603753 0.16040167 0.0089740939 -0.0023271872 7.071068e-011 7.071068e-011 7.071068e-011 7.071068e-011
6642042042.042 0.2898103 0.11422279 0.00015482097 0.0094111701 7.071068e-011 7.071068e-011 7.071068e-011 7.071068e-011
6650450450.4505 0.039327741 -0.25263825 -0.011238516 -0.001727957 7.071068e-011 7.071068e-011 7.071068e-011 7.071068e-011
6658858858.8589 -0.14832501 0.13443768 0.0033824677 -0.012384382 7.071068e-011 7.071068e-011 7.071068e-011 7.071068e-011
6667267267.2673 0.22837599 0.10153114 0.013728663 0.0063383165 7.071068e-011 7.071068e-011 7.071068e-011 7.071068e-011
6675675675.6757 0.042204708 -0.15111665 -0.0083066076 0.015862029 7.071068e-011 7.071068e-011 7.071068e-011 7.071068e-011
6684084084.0841 -0.042548973 0.083447844 -0.017064216 -0.0097814715 7.071068e-011 7.071068e-011 7.071068e-011 7.071068e-011
6692492492.4925 0.10383391 0.049326759 0.011006491 -0.017517097 7.071068e-011 7.071068e-011 7.071068e-011 7.071068e-011
6700900900.9009 0.086894892 0.016323309 0.017383642 0.011761062 7.071068e-011 7.071068e-011 7.071068e-011 7.071068e-011
6709309309.3093 0.077242821 -0.040232107 -0.012335475 0.015899738 7.071068e-011 7.071068e-011 7.071068e-011 7.071068e-011
6717717717.7177 -0.03124577 0.03350395 -0.013276051 -0.013818717 7.071068e-011 7.071068e-011 7.071068e-011 7.071068e-011
6726126126.1261 0.15452094 0.11648208 0.014772361 -0.010389141 7.071068e-011 7.071068e-011 7.071068e-011 7.071068e-011
6734534534.5345 0.12969582 -0.14010729 0.006888547 0.014992679 7.071068e-011 7.071068e-011 7.071068e-011 7.071068e-011
6742942942.9429 -0.10895252 0.025838956 -0.015465455 0.0031648965 7.071068e-011 7.071068e-011 7.071068e-011 7.071068e-011
6751351351.3514 0.1721582 0.15326625 0.00016775088 -0.015610902 7.071068e-011 7.071068e-011 7.071068e-011 7.071068e-011
6759759759.7598 0.15017967 -0.17180857 0.014208179 0.0039878394 7.071068e-011 7.071068e-011 7.071068e-011 7.071068e-011
6768168168.1682 -0.14632139 -0.0053103189 -0.0082482323 0.012339106 7.071068e-011 7.071068e-011 7.071068e-011 7.071068e-011
6776576576.5766 0.13328689 0.17827789 -0.010574155 -0.011293097 7.071068e-011 7.071068e-011 7.071068e-011 7.071068e-011
6784984984.985 0.15151304 -0.14492972 0.013206802 -0.0069684237 7.071068e-011 7.071068e-011 7.071068e-011 7.071068e-011
6793393393.3934 -0.14710599 -0.0081418725 0.0029872588 0.01506883 7.071068e-011 7.071068e-011 7.071068e-011 7.071068e-011
6801801801.8018 0.1007648 0.20374577 -0.016093882 -0.00076643348 7.071068e-011 7.071068e-011 7.071068e-011 7.071068e-011
6810210210.2102 0.17308344 -0.095374376 0.0052580801 -0.015776174 7.071068e-011 7.071068e-011 7.071068e-011 7.071068e-011
6818618618.6186 -0.1055648 -0.010407083 0.014535035 0.010153861 7.071068e-011 7.071068e-011 7.071068e-011 7.071068e-011
6827027027.027 0.088037506 0.18555401 -0.013416437 0.012299591 7.071068e-011 7.071068e-011 7.071068e-011 7.071068e-011
6835435435.4354 0.18090661 -0.049122185 -0.0081641348 -0.016305937 7.071068e-011 7.071068e-011 7.071068e-011 7.071068e-011
6843843843.8438 -0.044076778 -0.027238227 0.019500121 -0.0041334988 7.071068e-011 7.071068e-011 7.071068e-011 7.071068e-011
6852252252.2523 0.073134705 0.12803343 -1.3203884e-005 0.020531548 7.071068e-011 7.071068e-011 7.071068e-011 7.071068e-011
6860660660.6607 0.14656469 -0.018960368 -0.01996709 -0.0052312585 7.071068e-011 7.071068e-011 7.071068e-011 7.071068e-011
6869069069.0691 0.0033502255 -0.028015813 0.010509365 -0.018618155 7.071068e-011 7.071068e-011 7.071068e-011 7.071068e-011
6877477477.4775 0.054394715 0.073224597 0.016116386 0.014668431 7.071068e-011 7.071068e-011 7.071068e-011 7.071068e-011
6885885885.8859 0.090677105 0.0065318113 -0.01802009 0.011813018 7.071068e-011 7.071068e-011 7.071068e-011 7.071068e-011
6894294294.2943 0.046228494 -0.00030006078 -0.0069945301 -0.02072721 7.071068e-011 7.071068e-011 7.071068e-011 7.071068e-011
6902702702.7027 0.039719015 0.018426411 0.021883106 -0.0017024813 7.071068e-011 7.071068e-011 7.071068e-011 7.071068e-011
6911111111.1111 0.029322661 0.038788594 -0.0039778952 0.021313448 7.071068e-011 7.071068e-011 7.071068e-011 7.071068e-011
6919519519.5195 0.079561524 0.049043663 -0.019178316 -0.0093787583 7.071068e-011 7.071068e-011 7.071068e-011 7.071068e-011
6927927927.9279 0.049745955 -0.011710222 0.013796389 -0.015968731 7.071068e-011 7.071068e-011 7.071068e-011 7.071068e-011
6936336336.3363 -0.0016801924 0.061908662 0.011180278 0.017137486 7.071068e-011 7.071068e-011 7.071068e-011 7.071068e-011
6944744744.7447 0.11202262 0.08889892 -0.019780736 0.0055858628 7.071068e-011 7.071068e-011 7.071068e-011 7.071068e-011
6953153153.1532 0.084497727 -0.044322196 1.2855079e-005 -0.020220993 7.071068e-011 7.071068e-011 7.071068e-011 7.071068e-011
6961561561.5616 -0.028360166 0.052567258 0.018901596 0.0058063199 7.071068e-011 7.071068e-011 7.071068e-011 7.071068e-011
6969969969.97 0.12442298 0.10765944 -0.010944717 0.016253892 7.071068e-011 7.071068e-011 7.071068e-011 7.071068e-011
6978378378.3784 0.10213189 -0.072282001 -0.011883399 -0.01476973 7.071068e-011 7.071068e-011 7.071068e-011 7.071068e-011
6986786786.7868 -0.064386949 0.033755735 0.017406251 -0.0062755621 7.071068e-011 7.071068e-011 7.071068e-011 7.071068e-011
6995195195.1952 0.10330185 0.13314131 0.00069831382 0.018878562 7.071068e-011 7.071068e-011 7.071068e-011 7.071068e-011
7003603603.6036 0.1085631 -0.057423603 -0.017843962 -0.0049363067 7.071068e-011 7.071068e-011 7.071068e-011 7.071068e-011
7012012012.012 -0.071927071 0.032504655 0.01084444 -0.015017206 7.071068e-011 7.071068e-011 7.071068e-011 7.071068e-011
7020420420.4204 0.08716622 0.16093481 0.011236716 0.014948424 7.071068e-011 7.071068e-011 7.071068e-011 7.071068e-011
7028828828.8288 0.1332574 -0.0279395 -0.017417418 0.0057895356 7.071068e-011 7.071068e-011 7.071068e-011 7.071068e-011
7037237237.2372 -0.054160066 0.029493421 0.00015583013 -0.018902786 7.071068e-011 7.071068e-011 7.071068e-011 7.071068e-011
7045645645.6456 0.089673914 0.17196582 0.017966827 0.0057760412 7.071068e-011 7.071068e-011 7.071068e-011 7.071068e-011
7054054054.0541 0.16818304 -0.003929764 -0.011404553 0.014798421 7.071068e-011 7.071068e-011 7.071068e-011 7.071068e-011
7062462462.4625 -0.0089263376 -0.0032349133 -0.010635082 -0.016189685 7.071068e-011 7.071068e-011 7.071068e-011 7.071068e-011
7070870870.8709 0.079122424 0.13953869 0.018661914 -0.005506203 7.071068e-011 7.071068e-011 7.071068e-011 7.071068e-011
7079279279.2793 0.16721284 0.007910979 -0.001173946 0.019210676 7.071068e-011 7.071068e-011 7.071068e-011 7.071068e-011
7087687687.6877 0.033771303 -0.027292605 -0.01845615 -0.007351195 7.071068e-011 7.071068e-011 7.071068e-011 7.071068e-011
7096096096.0961 0.058647122 0.089080088 0.012532007 -0.015459919 7.071068e-011 7.071068e-011 7.071068e-011 7.071068e-011
7104504504.5045 0.14810669 0.010846168 0.010471415 0.01689144 7.071068e-011 7.071068e-011 7.071068e-011 7.071068e-011
7112912912.9129 0.05123787 -0.045333061 -0.019793725 0.0044008507 7.071068e-011 7.071068e-011 7.071068e-011 7.071068e-011
7121321321.3213 0.033724312 0.03271047 0.0016937122 -0.020411853 7.071068e-011 7.071068e-011 7.071068e-011 7.071068e-011
7129729729.7297 0.090321802 0.013690941 0.018449226 0.0079740034 7.071068e-011 7.071068e-011 7.071068e-011 7.071068e-011
7138138138.1381 0.042066164 -0.036816377 -0.013887264 0.015071408 7.071068e-011 7.071068e-011 7.071068e-011 7.071068e-011
7146546546.5465 0.0010357928 0.012710339 -0.010115361 -0.017943852 7.071068e-011 7.071068e-011 7.071068e-011 7.071068e-011
7154954954.955 0.029067546 0.042168692 0.020048669 -0.0038253977 7.071068e-011 7.071068e-011 7.071068e-011 7.071068e-011
7163363363.3634 0.046022482 0.015282662 -0.0031002029 0.019934522 7.071068e-011 7.071068e-011 7.071068e-011 7.071068e-011
7171771771.7718 0.00056728825 0.020329203 -0.018037274 -0.009406331 7.071068e-011 7.071068e-011 7.071068e-011 7.071068e-011
7180180180.1802 0.018494731 0.072715342 0.014531621 -0.013832049 7.071068e-011 7.071068e-011 7.071068e-011 7.071068e-011
7188588588.5886 0.068076104 0.055600643 0.0082042459 0.018689105 7.071068e-011 7.071068e-011 7.071068e-011 7.071068e-011
7196996996.997 0.039155129 0.010851119 -0.020322487 0.0018970605 7.071068e-011 7.071068e-011 7.071068e-011 7.071068e-011
7205405405.4054 0.01352434 0.065994315 0.0051876446 -0.019381762 7.071068e-011 7.071068e-011 7.071068e-011 7.071068e-011
7213813813.8138 0.081799716 0.068336897 0.016675772 0.011459639 7.071068e-011 7.071068e-011 7.071068e-011 7.071068e-011
7222222222.2222 0.067694157 -0.0063195089 -0.016307946 0.012124228 7.071068e-011 7.071068e-011 7.071068e-011 7.071068e-011
7230630630.6306 -0.0023541804 0.035494208 -0.005944374 -0.019243993 7.071068e-011 7.071068e-011 7.071068e-011 7.071068e-011
7239039039.039 0.072258137 0.075727053 0.020356445 0.0011635998 7.071068e-011 7.071068e-011 7.071068e-011 7.071068e-011
7247447447.4474 0.074858464 -0.015154863 -0.0077160066 0.018892108 7.071068e-011 7.071068e-011 7.071068e-011 7.071068e-011
7255855855.8559 -0.016464444 0.0080944924 -0.014848693 -0.013697221 7.071068e-011 7.071068e-011 7.071068e-011 7.071068e-011
7264264264.2643 0.03492447 0.083029449 0.01807161 -0.0095745781 7.071068e-011 7.071068e-011 7.071068e-011 7.071068e-011
7272672672.6727 0.073842853 0.0018895292 0.0031112405 0.020000711 7.071068e-011 7.071068e-011 7.071068e-011 7.071068e-011
7281081081.0811 -0.029051205 -0.00027216657 -0.019806538 -0.0039014216 7.071068e-011 7.071068e-011 7.071068e-011 7.071068e-011
7289489489.4895 -0.0010300472 0.10801289 0.010795043 -0.017260045 7.071068e-011 7.071068e-011 7.071068e-011 7.071068e-011
7297897897.8979 0.085786387 0.050759304 0.012624038 0.016034147 7.071068e-011 7.071068e-011 7.071068e-011 7.071068e-011
7306306306.3063 0.00050398137 0.0081973495 -0.019307526 0.0061108028 7.071068e-011 7.071068e-011 7.071068e-011 7.071068e-011
7314714714.7147 0.0046830764 0.11356871 0.00063943636 -0.020589167 7.071068e-011 7.071068e-011 7.071068e-011 7.071068e-011
7323123123.1231 0.11223851 0.074363597 0.018872336 0.0074429889 7.071068e-011 7.071068e-011 7.071068e-011 7.071068e-011
7331531531.5315 0.051620971 -0.01057662 -0.013978486 0.015079496 7.071068e-011 7.071068e-011 7.071068e-011 7.071068e-011
7339939939.9399 0.0079577789 0.067401931 -0.0097022289 -0.018488709 7.071068e-011 7.071068e-011 7.071068e-011 7.071068e-011
7348348348.3483 0.10503508 0.064668491 0.020457517 -0.0028697145 7.071068e-011 7.071068e-011 7.071068e-011 7.071068e-011
7356756756.7568 0.066881821 -0.037277561 -0.0045588035 0.020031795 7.071068e-011 7.071068e-011 7.071068e-011 7.071068e-011
7365165165.1652 -0.011085355 0.020654872 -0.017511114 -0.011204885 7.071068e-011 7.071068e-011 7.071068e-011 7.071068e-011
7373573573.5736 0.06215613 0.050397269 0.016243273 -0.012465972 7.071068e-011 7.071068e-011 7.071068e-011 7.071068e-011
7381981981.982 0.043289971 -0.036188684 0.0057674507 0.019942019 7.071068e-011 7.071068e-011 7.071068e-011 7.071068e-011
7390390390.3904 -0.042544022 0.010588313 -0.020828994 -0.0013206096 7.071068e-011 7.071068e-011 7.071068e-011 7.071068e-011
7398798798.7988 0.012554269 0.069989413 0.0085818321 -0.018879099 7.071068e-011 7.071068e-011 7.071068e-011 7.071068e-011
7407207207.2072 0.027974591 0.010988634 0.014777213 0.014677066 7.071068e-011 7.071068e-011 7.071068e-011 7.071068e-011
7415615615.6156 -0.040395331 0.03434797 -0.018974235 0.0089292796 7.071068e-011 7.071068e-011 7.071068e-011 7.071068e-011
7424024024.024 0.006043857 0.10547543 -0.0018552858 -0.020811524 7.071068e-011 7.071068e-011 7.071068e-011 7.071068e-011
7432432432.4324 0.055634089 0.054303598 0.020204918 0.0057168556 7.071068e-011 7.071068e-011 7.071068e-011 7.071068e-011
7440840840.8408 0.0090163043 0.041796781 -0.012240776 0.017089564 7.071068e-011 7.071068e-011 7.071068e-011 7.071068e-011
7449249249.2492 0.03103428 0.088008702 -0.011508794 -0.01734403 7.071068e-011 7.071068e-011 7.071068e-011 7.071068e-011
7457657657.6577 0.077234522 0.047990799 0.020369872 -0.0046754107 7.071068e-011 7.071068e-011 7.071068e-011 7.071068e-011
7466066066.0661 0.042184174 0.015251329 -0.0026391568 0.020767203 7.071068e-011 7.071068e-011 7.071068e-011 7.071068e-011
7474474474.4745 0.030340334 0.038189799 -0.018380247 -0.0095944367 7.071068e-011 7.071068e-011 7.071068e-011 7.071068e-011
7482882882.8829 0.059484769 0.029820284 0.015566776 -0.013620425 7.071068e-011 7.071068e-011 7.071068e-011 7.071068e-011
7491291291.2913 0.039581537 -0.013596307 0.0073103998 0.019392541 7.071068e-011 7.071068e-011 7.071068e-011 7.071068e-011
7499699699.6997 -0.0041879173 0.0019522648 -0.020551141 -5.0803108e-005 7.071068e-011 7.071068e-011 7.071068e-011 7.071068e-011
7508108108.1081 0.0042524436 0.032626811 0.0072854487 -0.019201985 7.071068e-011 7.071068e-011 7.071068e-011 7.071068e-011
7516516516.5165 0.018527331 0.010987614 0.015317652 0.013539317 7.071068e-011 7.071068e-011 7.071068e-011 7.071068e-011
7524924924.9249 -0.025523605 0.0077434983 -0.018021796 0.0094451588 7.071068e-011 7.071068e-011 7.071068e-011 7.071068e-011
7533333333.3333 -0.030268747 0.064758785 -0.0022920931 -0.020202467 7.071068e-011 7.071068e-011 7.071068e-011 7.071068e-011
7541741741.7417 0.027877353 0.070043825 0.019628201 0.004859332 7.071068e-011 7.071068e-011 7.071068e-011 7.071068e-011
7550150150.1502 0.013450044 0.019974031 -0.011478587 0.016135443 7.071068e-011 7.071068e-011 7.071068e-011 7.071068e-011
7558558558.5586 -0.016046066 0.068596967 -0.010914242 -0.01660797 7.071068e-011 7.071068e-011 7.071068e-011 7.071068e-011
7566966966.967 0.056259681 0.078387111 0.019207221 -0.0041479138 7.071068e-011 7.071068e-011 7.071068e-011 7.071068e-011
7575375375.3754 0.052832857 0.0004339265 -0.0033091104 0.019427961 7.071068e-011 7.071068e-011 7.071068e-011 7.071068e-011
7583783783.7838 -0.011194455 0.024624813 -0.016963869 -0.010153431 7.071068e-011 7.071068e-011 7.071068e-011 7.071068e-011
7592192192.1922 0.044923536 0.059673652 0.015317846 -0.012071546 7.071068e-011 7.071068e-011 7.071068e-011 7.071068e-011
7600600600.6006 0.051862136 -0.023267141 0.0053260191 0.018449562 7.071068e-011 7.071068e-011 7.071068e-011 7.071068e-011
7609009009.009 -0.037322227 -0.011981893 -0.019573411 -0.0018735725 7.071068e-011 7.071068e-011 7.071068e-011 7.071068e-011
7617417417.4174 -0.0061942125 0.058981363 0.0084945234 -0.017558506 7.071068e-011 7.071068e-011 7.071068e-011 7.071068e-011
7625825825.8258 0.027658567 -0.0044398652 0.013013924 0.014419827 7.071068e-011 7.071068e-011 7.071068e-011 7.071068e-011
7634234234.2342 -0.061674662 0.0040863962 -0.018111164 0.006835544 7.071068e-011 7.071068e-011 7.071068e-011 7.071068e-011
7642642642.6426 -0.025783325 0.091743588 0.00039466826 -0.019226607 7.071068e-011 7.071068e-011 7.071068e-011 7.071068e-011
7651051051.0511 0.036879692 0.042367592 0.017778724 0.0075231255 7.071068e-011 7.071068e-011 7.071068e-011 7.071068e-011
7659459459.4595 -0.029534651 0.01857747 -0.013536754 0.014078543 7.071068e-011 7.071068e-011 7.071068e-011 7.071068e-011
7667867867.8679 -0.011395141 0.10166843 -0.0081555406 -0.017367672 7.071068e-011 7.071068e-011 7.071068e-011 7.071068e-011
7676276276.2763 0.072833836 0.059703708 0.019183367 -0.00066670374 7.071068e-011 7.071068e-011 7.071068e-011 7.071068e-011
7684684684.6847 0.023031102 -0.0043979958 -0.0063969237 0.018398765 7.071068e-011 7.071068e-011 7.071068e-011 7.071068e-011
7693093093.0931 -0.0010890792 0.054318685 -0.014702824 -0.012538495 7.071068e-011 7.071068e-011 7.071068e-011 7.071068e-011
7701501501.5015 0.072655849 0.032824762 0.017011357 -0.0090464996 7.071068e-011 7.071068e-011 7.071068e-011 7.071068e-011
7709909909.9099 0.022172194 -0.042803768 0.0020464007 0.019246811 7.071068e-011 7.071068e-011 7.071068e-011 7.071068e-011
7718318318.3183 -0.032124184 0.011120356 -0.018713702 -0.0051514218 7.071068e-011 7.071068e-011 7.071068e-011 7.071068e-011
7726726726.7267 0.023747029 0.02759132 0.011891911 -0.01535836 7.071068e-011 7.071068e-011 7.071068e-011 7.071068e-011
7735135135.1351 0.0028917689 -0.040844716 0.01016236 0.016711937 7.071068e-011 7.071068e-011 7.071068e-011 7.071068e-011
7743543543.5435 -0.074294895 -0.00050280656 -0.019008106 0.0032412393 7.071068e-011 7.071068e-011 7.071068e-011 7.071068e-011
7751951951.952 -0.031841647 0.06419047 0.0041205315 -0.018973434 7.071068e-011 7.071068e-011 7.071068e-011 7.071068e-011
7760360360.3604 -0.0010709759 0.018063372 0.016148195 0.010821003 7.071068e-011 7.071068e-011 7.071068e-011 7.071068e-011
7768768768.7688 -0.059838083 0.027526654 -0.016051376 0.0109703 7.071068e-011 7.071068e-011 7.071068e-011 7.071068e-011
7777177177.1772 -0.025985939 0.096281372 -0.0040870183 -0.018921429 7.071068e-011 7.071068e-011 7.071068e-011 7.071068e-011
7785585585.5856 0.032808125 0.057210322 0.019152381 0.0031919861 7.071068e-011 7.071068e-011 7.071068e-011 7.071068e-011
7793993993.994 -0.004698839 0.028591333 -0.010039115 0.016402783 7.071068e-011 7.071068e-011 7.071068e-011 7.071068e-011
7802402402.4024 -0.00067664735 0.074087925 -0.011642738 -0.015728088 7.071068e-011 7.071068e-011 7.071068e-011 7.071068e-011
7810810810.8108 0.057556447 0.049446296 0.018760646 -0.0051773791 7.071068e-011 7.071068e-011 7.071068e-011 7.071068e-011
7819219219.2192 0.027156139 -0.0063110935 -0.0024004814 0.01921474 7.071068e-011 7.071068e-011 7.071068e-011 7.071068e-011
7827627627.6276 -0.0049055475 0.02624006 -0.016996413 -0.0093450304 7.071068e-011 7.071068e-011 7.071068e-011 7.071068e-011
7836036036.036 0.03852329 0.026781594 0.014953911 -0.012274808 7.071068e-011 7.071068e-011 7.071068e-011 7.071068e-011
7844444444.4444 0.015647603 -0.024826584 0.0058165989 0.018466109 7.071068e-011 7.071068e-011 7.071068e-011 7.071068e-011
7852852852.8529 -0.027711563 0.0039690463 -0.01939798 -0.001523549 7.071068e-011 7.071068e-011 7.071068e-011 7.071068e-011
7861261261.2613 0.0014407533 0.028430942 0.0085341251 -0.017390519 7.071068e-011 7.071068e-011 7.071068e-011 7.071068e-011
7869669669.6697 0.0051965439 -0.0082576256 0.012815389 0.01453046 7.071068e-011 7.071068e-011 7.071068e-011 7.071068e-011
7878078078.0781 -0.039540797 0.0026376911 -0.018359909 0.0066450695 7.071068e-011 7.071068e-011 7.071068e-011 7.071068e-011
7886486486.4865 -0.025488026 0.046958406 0.00052886613 -0.019393053 7.071068e-011 7.071068e-011 7.071068e-011 7.071068e-011
7894894894.8949 0.012095641 0.030835986 0.017561216 0.0076724584 7.071068e-011 7.071068e-011 7.071068e-011 7.071068e-011
7903303303.3033 -0.014382061 0.010361262 -0.013890839 0.013375132 7.071068e-011 7.071068e-011 7.071068e-011 7.071068e-011
7911711711.7117 -0.017162183 0.044804487 -0.0073672887 -0.017825732 7.071068e-011 7.071068e-011 7.071068e-011 7.071068e-011
7920120120.1201 0.022691796 0.044018313 0.01908371 -9.255566e-005 7.071068e-011 7.071068e-011 7.071068e-011 7.071068e-011
7928528528.5285 0.023542657 0.0030486772 -0.0070621301 0.017712373 7.071068e-011 7.071068e-011 7.071068e-011 7.071068e-011
7936936936.9369 -0.0094794985 0.010226145 -0.013626301 -0.01310011 7.071068e-011 7.071068e-011 7.071068e-011 7.071068e-011
7945345345.3453 0.016817531 0.032496955 0.017297236 -0.0075764176 7.071068e-011 7.071068e-011 7.071068e-011 7.071068e-011
