!Keysight Technologies,N5235B,MY61252044,A.15.00.15
!Date: Friday, January 20, 2023 19:30:15
!Correction: S11(Off) 
!S21(Off) 
!S12(Off) 
!S22(Off) 
!S2P File: Measurements: S11, S21, S12, S22:
# Hz S  RI   R 50
6600000000 0.017033091 -0.17453752 0.014895552 -0.0052235783 7.071068e-011 7.071068e-011 7.071068e-011 7.071068e-011
6608400000 -0.12368639 0.16650456 0.0067775175 0.010005889 7.071068e-011 7.071068e-011 7.071068e-011 7.071068e-011
6616800000 0.30678055 0.091794252 -0.0083313258 0.0048694569 7.071068e-011 7.071068e-011 7.071068e-011 7.071068e-011
6625200000 0.02383879 -0.27299634 -0.0029862756 -0.0089971656 7.071068e-011 7.071068e-011 7.071068e-011 7.071068e-011
6633600000 -0.1658911 0.16136901 0.0092111295 -0.0015838974 7.071068e-011 7.071068e-011 7.071068e-011 7.071068e-011
6642000000 0.29023173 0.11408956 -0.00068422343 0.0094586173 7.071068e-011 7.071068e-011 7.071068e-011 7.071068e-011
6650400000 0.039870206 -0.25272527 -0.011115694 -0.0027977112 7.071068e-011 7.071068e-011 7.071068e-011 7.071068e-011
6658800000 -0.14920083 0.13327578 0.0046120211 -0.012102368 7.071068e-011 7.071068e-011 7.071068e-011 7.071068e-011
6667200000 0.22794048 0.10357594 0.013086616 0.007746934 7.071068e-011 7.071068e-011 7.071068e-011 7.071068e-011
6675600000 0.044589154 -0.15267444 -0.010050485 0.01488766 7.071068e-011 7.071068e-011 7.071068e-011 7.071068e-011
6684000000 -0.045387544 0.084026173 -0.015863601 -0.011863671 7.071068e-011 7.071068e-011 7.071068e-011 7.071068e-011
6692400000 0.10537852 0.048548929 0.013278356 -0.016275521 7.071068e-011 7.071068e-011 7.071068e-011 7.071068e-011
6700800000 0.086114354 0.017223144 0.016056431 0.014009665 7.071068e-011 7.071068e-011 7.071068e-011 7.071068e-011
6709200000 0.077925608 -0.040020052 -0.014430234 0.01442168 7.071068e-011 7.071068e-011 7.071068e-011 7.071068e-011
6717600000 -0.031375658 0.031727057 -0.011513856 -0.015611852 7.071068e-011 7.071068e-011 7.071068e-011 7.071068e-011
6726000000 0.1528561 0.11801568 0.016174113 -0.0084119365 7.071068e-011 7.071068e-011 7.071068e-011 7.071068e-011
6734400000 0.13188852 -0.13850465 0.0047940346 0.015929153 7.071068e-011 7.071068e-011 7.071068e-011 7.071068e-011
6742800000 -0.10806912 0.021660883 -0.015919678 0.00088671566 7.071068e-011 7.071068e-011 7.071068e-011 7.071068e-011
6751200000 0.16717571 0.15581125 0.0025755863 -0.015611609 7.071068e-011 7.071068e-011 7.071068e-011 7.071068e-011
6759600000 0.15600544 -0.16863064 0.01362881 0.0062245405 7.071068e-011 7.071068e-011 7.071068e-011 7.071068e-011
6768000000 -0.14677656 -0.01215163 -0.010204618 0.01103868 7.071068e-011 7.071068e-011 7.071068e-011 7.071068e-011
6776400000 0.12838957 0.18196204 -0.0087325694 -0.013009403 7.071068e-011 7.071068e-011 7.071068e-011 7.071068e-011
6784800000 0.15683968 -0.1419576 0.014318023 -0.0047863089 7.071068e-011 7.071068e-011 7.071068e-011 7.071068e-011
6793200000 -0.14648761 -0.014739515 0.00040140172 0.015501526 7.071068e-011 7.071068e-011 7.071068e-011 7.071068e-011
6801600000 0.094706073 0.2057163 -0.015910091 -0.003630195 7.071068e-011 7.071068e-011 7.071068e-011 7.071068e-011
6810000000 0.17723982 -0.090122245 0.0081242239 -0.014772527 7.071068e-011 7.071068e-011 7.071068e-011 7.071068e-011
6818400000 -0.10280909 -0.017990038 0.012554331 0.012775589 7.071068e-011 7.071068e-011 7.071068e-011 7.071068e-011
6826800000 0.080174237 0.18787387 -0.015658706 0.0096578775 7.071068e-011 7.071068e-011 7.071068e-011 7.071068e-011
6835200000 0.18570451 -0.044170387 -0.0049467175 -0.017757526 7.071068e-011 7.071068e-011 7.071068e-011 7.071068e-011
6843600000 -0.042418275 -0.033343043 0.020173529 -0.0001715509 7.071068e-011 7.071068e-011 7.071068e-011 7.071068e-011
6852000000 0.068326242 0.13005422 -0.0042327191 0.020385284 7.071068e-011 7.071068e-011 7.071068e-011 7.071068e-011
6860400000 0.14846037 -0.016407125 -0.018705374 -0.0093639772 7.071068e-011 7.071068e-011 7.071068e-011 7.071068e-011
6868800000 0.0061385646 -0.030266611 0.014391812 -0.016189935 7.071068e-011 7.071068e-011 7.071068e-011 7.071068e-011
6877200000 0.050683655 0.072457977 0.012755742 0.018069204 7.071068e-011 7.071068e-011 7.071068e-011 7.071068e-011
6885600000 0.091924235 0.0088265473 -0.020454021 0.0077373958 7.071068e-011 7.071068e-011 7.071068e-011 7.071068e-011
6894000000 0.047754843 -0.0018236123 -0.0022226262 -0.022042811 7.071068e-011 7.071068e-011 7.071068e-011 7.071068e-011
6902400000 0.038342923 0.019218516 0.021983946 0.0034435836 7.071068e-011 7.071068e-011 7.071068e-011 7.071068e-011
6910800000 0.030880379 0.036179494 -0.0090453941 0.020122966 7.071068e-011 7.071068e-011 7.071068e-011 7.071068e-011
6919200000 0.076547772 0.051561087 -0.016745109 -0.01389646 7.071068e-011 7.071068e-011 7.071068e-011 7.071068e-011
6927600000 0.05369452 -0.011686878 0.017529324 -0.012444457 7.071068e-011 7.071068e-011 7.071068e-011 7.071068e-011
6936000000 -0.0031538045 0.057630658 0.0068403473 0.019702198 7.071068e-011 7.071068e-011 7.071068e-011 7.071068e-011
6944400000 0.10798488 0.093294464 -0.020889133 0.00055625889 7.071068e-011 7.071068e-011 7.071068e-011 7.071068e-011
6952800000 0.090241417 -0.043318748 0.0051353136 -0.019868409 7.071068e-011 7.071068e-011 7.071068e-011 7.071068e-011
6961200000 -0.029117128 0.047445945 0.016988324 0.010582628 7.071068e-011 7.071068e-011 7.071068e-011 7.071068e-011
6969600000 0.1178794 0.11068153 -0.015084783 0.012971056 7.071068e-011 7.071068e-011 7.071068e-011 7.071068e-011
6978000000 0.11005515 -0.066571377 -0.0076608025 -0.017750774 7.071068e-011 7.071068e-011 7.071068e-011 7.071068e-011
6986400000 -0.063884519 0.023111545 0.018831065 -0.0014395727 7.071068e-011 7.071068e-011 7.071068e-011 7.071068e-011
6994800000 0.094300993 0.13790926 -0.0045643649 0.018733827 7.071068e-011 7.071068e-011 7.071068e-011 7.071068e-011
7003200000 0.11733618 -0.051616699 -0.016139859 -0.0098583568 7.071068e-011 7.071068e-011 7.071068e-011 7.071068e-011
7011600000 -0.071314931 0.021145856 0.014816292 -0.011599521 7.071068e-011 7.071068e-011 7.071068e-011 7.071068e-011
7020000000 0.077879906 0.16485868 0.0066765337 0.017795281 7.071068e-011 7.071068e-011 7.071068e-011 7.071068e-011
7028400000 0.13981423 -0.021392507 -0.018627306 0.00060487614 7.071068e-011 7.071068e-011 7.071068e-011 7.071068e-011
7036800000 -0.050828323 0.019557968 0.0057729017 -0.018289287 7.071068e-011 7.071068e-011 7.071068e-011 7.071068e-011
7045200000 0.078673594 0.17307884 0.015694287 0.011054459 7.071068e-011 7.071068e-011 7.071068e-011 7.071068e-011
7053600000 0.17300758 0.0060960837 -0.015586113 0.010847694 7.071068e-011 7.071068e-011 7.071068e-011 7.071068e-011
7062000000 -0.0026480453 -0.012768216 -0.005221481 -0.018984064 7.071068e-011 7.071068e-011 7.071068e-011 7.071068e-011
7070400000 0.068175234 0.14017747 0.019851575 0.00056409294 7.071068e-011 7.071068e-011 7.071068e-011 7.071068e-011
7078800000 0.17136276 0.016210925 -0.0072088684 0.018190017 7.071068e-011 7.071068e-011 7.071068e-011 7.071068e-011
7087200000 0.038877685 -0.032473773 -0.015433941 -0.013062726 7.071068e-011 7.071068e-011 7.071068e-011 7.071068e-011
7095600000 0.051979035 0.087275967 0.017180871 -0.010829818 7.071068e-011 7.071068e-011 7.071068e-011 7.071068e-011
7104000000 0.14880931 0.017516643 0.0045043309 0.019754134 7.071068e-011 7.071068e-011 7.071068e-011 7.071068e-011
7112400000 0.056824192 -0.046512339 -0.020479416 -0.0023732183 7.071068e-011 7.071068e-011 7.071068e-011 7.071068e-011
7120800000 0.030898169 0.028330402 0.0085364133 -0.018998997 7.071068e-011 7.071068e-011 7.071068e-011 7.071068e-011
7129200000 0.088988043 0.018929914 0.014957155 0.013936722 7.071068e-011 7.071068e-011 7.071068e-011 7.071068e-011
7137600000 0.047535937 -0.037943695 -0.018514466 0.0095322486 7.071068e-011 7.071068e-011 7.071068e-011 7.071068e-011
7146000000 -0.00012928508 0.0095798075 -0.0032838429 -0.020745263 7.071068e-011 7.071068e-011 7.071068e-011 7.071068e-011
7154400000 0.028062373 0.041960821 0.020523882 0.0035327736 7.071068e-011 7.071068e-011 7.071068e-011 7.071068e-011
7162800000 0.046315253 0.017153516 -0.010124937 0.017903468 7.071068e-011 7.071068e-011 7.071068e-011 7.071068e-011
7171200000 0.0033995542 0.017826894 -0.013756242 -0.015562781 7.071068e-011 7.071068e-011 7.071068e-011 7.071068e-011
7179600000 0.014769798 0.07014624 0.018978253 -0.0078722667 7.071068e-011 7.071068e-011 7.071068e-011 7.071068e-011
7188000000 0.066356391 0.059886567 0.00085714459 0.020806978 7.071068e-011 7.071068e-011 7.071068e-011 7.071068e-011
7196400000 0.043925963 0.010294549 -0.019983945 -0.0058295499 7.071068e-011 7.071068e-011 7.071068e-011 7.071068e-011
7204800000 0.010057243 0.062495138 0.012160653 -0.016318901 7.071068e-011 7.071068e-011 7.071068e-011 7.071068e-011
7213200000 0.079001784 0.071610533 0.011298865 0.017184425 7.071068e-011 7.071068e-011 7.071068e-011 7.071068e-011
7221600000 0.07186988 -0.0026641316 -0.020121388 0.0050697071 7.071068e-011 7.071068e-011 7.071068e-011 7.071068e-011
7230000000 -0.00081129163 0.028655853 0.0019551206 -0.020509863 7.071068e-011 7.071068e-011 7.071068e-011 7.071068e-011
7238400000 0.064861454 0.078674234 0.018647633 0.0091638714 7.071068e-011 7.071068e-011 7.071068e-011 7.071068e-011
7246800000 0.08110638 -0.0093890326 -0.014833522 0.014630864 7.071068e-011 7.071068e-011 7.071068e-011 7.071068e-011
7255200000 -0.012895062 2.4957546e-005 -0.0084079681 -0.018779615 7.071068e-011 7.071068e-011 7.071068e-011 7.071068e-011
7263600000 0.026819782 0.083998464 0.02076699 -0.0016228668 7.071068e-011 7.071068e-011 7.071068e-011 7.071068e-011
7272000000 0.07868886 0.0081069879 -0.0052741766 0.019958025 7.071068e-011 7.071068e-011 7.071068e-011 7.071068e-011
7280400000 -0.023515632 -0.0063507748 -0.016833462 -0.011882202 7.071068e-011 7.071068e-011 7.071068e-011 7.071068e-011
7288800000 -0.0089830291 0.10320001 0.01725233 -0.01145852 7.071068e-011 7.071068e-011 7.071068e-011 7.071068e-011
7297200000 0.084911138 0.059849206 0.0048866463 0.020199966 7.071068e-011 7.071068e-011 7.071068e-011 7.071068e-011
7305600000 0.0087191332 0.0044760955 -0.020458778 -0.0025436159 7.071068e-011 7.071068e-011 7.071068e-011 7.071068e-011
7314000000 -0.0039486042 0.10614134 0.0094672441 -0.018783184 7.071068e-011 7.071068e-011 7.071068e-011 7.071068e-011
7322400000 0.10859663 0.085687704 0.014231363 0.015041384 7.071068e-011 7.071068e-011 7.071068e-011 7.071068e-011
7330800000 0.060512457 -0.011676236 -0.019412894 0.0076964549 7.071068e-011 7.071068e-011 7.071068e-011 7.071068e-011
7339200000 0.0039744973 0.060634155 -0.00065788726 -0.021243643 7.071068e-011 7.071068e-011 7.071068e-011 7.071068e-011
7347600000 0.09913075 0.072272062 0.020007737 0.00649453 7.071068e-011 7.071068e-011 7.071068e-011 7.071068e-011
7356000000 0.07611651 -0.033651855 -0.013130057 0.016212216 7.071068e-011 7.071068e-011 7.071068e-011 7.071068e-011
7364400000 -0.010163109 0.012378821 -0.010827619 -0.018190417 7.071068e-011 7.071068e-011 7.071068e-011 7.071068e-011
7372800000 0.054621082 0.054713264 0.020578261 -0.0039293356 7.071068e-011 7.071068e-011 7.071068e-011 7.071068e-011
7381200000 0.052957304 -0.030799082 -0.0039826334 0.020759447 7.071068e-011 7.071068e-011 7.071068e-011 7.071068e-011
7389600000 -0.040775996 0.00046645783 -0.018232983 -0.01089682 7.071068e-011 7.071068e-011 7.071068e-011 7.071068e-011
7398000000 0.0053255772 0.071996443 0.016555646 -0.012999757 7.071068e-011 7.071068e-011 7.071068e-011 7.071068e-011
7406400000 0.033112749 0.014993818 0.0063532423 0.020209806 7.071068e-011 7.071068e-011 7.071068e-011 7.071068e-011
7414800000 -0.038027931 0.027132748 -0.021334736 -0.0010515045 7.071068e-011 7.071068e-011 7.071068e-011 7.071068e-011
7423200000 -0.001772022 0.10364029 0.0083754789 -0.019563178 7.071068e-011 7.071068e-011 7.071068e-011 7.071068e-011
7431600000 0.055598542 0.060618497 0.015251461 0.014925377 7.071068e-011 7.071068e-011 7.071068e-011 7.071068e-011
7440000000 0.013328429 0.038411513 -0.019335322 0.0092409207 7.071068e-011 7.071068e-011 7.071068e-011 7.071068e-011
7448400000 0.024115732 0.085509628 -0.0017315784 -0.021120731 7.071068e-011 7.071068e-011 7.071068e-011 7.071068e-011
7456800000 0.077365674 0.055436701 0.020400524 0.0059588961 7.071068e-011 7.071068e-011 7.071068e-011 7.071068e-011
7465200000 0.046234213 0.013907316 -0.012767825 0.017059235 7.071068e-011 7.071068e-011 7.071068e-011 7.071068e-011
7473600000 0.028477525 0.036886528 -0.011406017 -0.017789261 7.071068e-011 7.071068e-011 7.071068e-011 7.071068e-011
7482000000 0.058372017 0.033326205 0.020650866 -0.004070119 7.071068e-011 7.071068e-011 7.071068e-011 7.071068e-011
7490400000 0.043650005 -0.010881523 -0.0035376549 0.020814292 7.071068e-011 7.071068e-011 7.071068e-011 7.071068e-011
7498800000 -0.00076448894 -0.0015028424 -0.0180356 -0.010639415 7.071068e-011 7.071068e-011 7.071068e-011 7.071068e-011
7507200000 0.00049576221 0.030874459 0.016371131 -0.013045677 7.071068e-011 7.071068e-011 7.071068e-011 7.071068e-011
7515600000 0.020610003 0.015471256 0.0063035996 0.019839391 7.071068e-011 7.071068e-011 7.071068e-011 7.071068e-011
7524000000 -0.020936064 0.0030771876 -0.020653721 -0.0012958192 7.071068e-011 7.071068e-011 7.071068e-011 7.071068e-011
7532400000 -0.034250807 0.060033571 0.0087497011 -0.018702209 7.071068e-011 7.071068e-011 7.071068e-011 7.071068e-011
7540800000 0.022772389 0.073325388 0.014379082 0.014731951 7.071068e-011 7.071068e-011 7.071068e-011 7.071068e-011
7549200000 0.01953721 0.022296906 -0.018569505 0.0077598765 7.071068e-011 7.071068e-011 7.071068e-011 7.071068e-011
7557600000 -0.018429007 0.061001286 -0.00034865111 -0.020238256 7.071068e-011 7.071068e-011 7.071068e-011 7.071068e-011
7566000000 0.047819316 0.083570808 0.018824764 0.0069746561 7.071068e-011 7.071068e-011 7.071068e-011 7.071068e-011
7574400000 0.060959287 0.0079273749 -0.013526163 0.014830525 7.071068e-011 7.071068e-011 7.071068e-011 7.071068e-011
7582800000 -0.0098663745 0.015271629 -0.0088538751 -0.018015023 7.071068e-011 7.071068e-011 7.071068e-011 7.071068e-011
7591200000 0.036541935 0.064419769 0.019750072 -0.0017656094 7.071068e-011 7.071068e-011 7.071068e-011 7.071068e-011
7599600000 0.059297845 -0.015021347 -0.0057370574 0.018651772 7.071068e-011 7.071068e-011 7.071068e-011 7.071068e-011
7608000000 -0.031000054 -0.020643951 -0.015441564 -0.012654086 7.071068e-011 7.071068e-011 7.071068e-011 7.071068e-011
7616400000 -0.015007533 0.056778666 0.017216409 -0.0099845976 7.071068e-011 7.071068e-011 7.071068e-011 7.071068e-011
7624800000 0.031502329 0.0050808839 0.0026649006 0.019547382 7.071068e-011 7.071068e-011 7.071068e-011 7.071068e-011
7633200000 -0.052626502 -0.0062258895 -0.019115038 -0.0046879351 7.071068e-011 7.071068e-011 7.071068e-011 7.071068e-011
7641600000 -0.03835436 0.086756043 0.011420165 -0.015851049 7.071068e-011 7.071068e-011 7.071068e-011 7.071068e-011
7650000000 0.037708197 0.053229697 0.010444813 0.016607948 7.071068e-011 7.071068e-011 7.071068e-011 7.071068e-011
7658400000 -0.020796241 0.011637279 -0.019533148 0.0037151212 7.071068e-011 7.071068e-011 7.071068e-011 7.071068e-011
7666800000 -0.022908928 0.095758654 0.003488685 -0.019253761 7.071068e-011 7.071068e-011 7.071068e-011 7.071068e-011
7675200000 0.069631003 0.071752414 0.016133465 0.010777273 7.071068e-011 7.071068e-011 7.071068e-011 7.071068e-011
7683600000 0.031994555 -0.0041490784 -0.016278837 0.011230235 7.071068e-011 7.071068e-011 7.071068e-011 7.071068e-011
7692000000 -0.0052717119 0.046913318 -0.0045266971 -0.019146435 7.071068e-011 7.071068e-011 7.071068e-011 7.071068e-011
7700400000 0.065718487 0.043815587 0.019438533 0.0028586565 7.071068e-011 7.071068e-011 7.071068e-011 7.071068e-011
7708800000 0.035703316 -0.039696179 -0.010012427 0.016911654 7.071068e-011 7.071068e-011 7.071068e-011 7.071068e-011
7717200000 -0.033648271 0.00063907774 -0.011992232 -0.015647938 7.071068e-011 7.071068e-011 7.071068e-011 7.071068e-011
7725600000 0.016788658 0.033845872 0.018993422 -0.0050742077 7.071068e-011 7.071068e-011 7.071068e-011 7.071068e-011
7734000000 0.014128431 -0.035593316 -0.0021810026 0.0197435 7.071068e-011 7.071068e-011 7.071068e-011 7.071068e-011
7742400000 -0.070751294 -0.012345762 -0.017271347 -0.0091933981 7.071068e-011 7.071068e-011 7.071068e-011 7.071068e-011
7750800000 -0.040625058 0.0624726 0.015224975 -0.012524877 7.071068e-011 7.071068e-011 7.071068e-011 7.071068e-011
7759200000 0.0015388709 0.025292868 0.0059943758 0.018892094 7.071068e-011 7.071068e-011 7.071068e-011 7.071068e-011
7767600000 -0.053322464 0.019492295 -0.019760707 -0.0015127619 7.071068e-011 7.071068e-011 7.071068e-011 7.071068e-011
7776000000 -0.037802905 0.090891726 0.0087805605 -0.017591629 7.071068e-011 7.071068e-011 7.071068e-011 7.071068e-011
7784400000 0.031437591 0.068120055 0.013076252 0.014784545 7.071068e-011 7.071068e-011 7.071068e-011 7.071068e-011
7792800000 0.0013383322 0.024754087 -0.0184696 0.0065063201 7.071068e-011 7.071068e-011 7.071068e-011 7.071068e-011
7801200000 -0.0076914062 0.070179932 0.0011260485 -0.019841174 7.071068e-011 7.071068e-011 7.071068e-011 7.071068e-011
7809600000 0.05310883 0.058512945 0.018028682 0.0082504535 7.071068e-011 7.071068e-011 7.071068e-011 7.071068e-011
7818000000 0.035356607 -0.0043487488 -0.014431373 0.013285962 7.071068e-011 7.071068e-011 7.071068e-011 7.071068e-011
7826400000 -0.0055567236 0.02081402 -0.0069576064 -0.018456018 7.071068e-011 7.071068e-011 7.071068e-011 7.071068e-011
7834800000 0.032526605 0.031584494 0.019713635 0.00047279938 7.071068e-011 7.071068e-011 7.071068e-011 7.071068e-011
7843200000 0.025297681 -0.019645808 -0.007880019 0.018144166 7.071068e-011 7.071068e-011 7.071068e-011 7.071068e-011
7851600000 -0.026774976 -0.0046772584 -0.013829626 -0.014210269 7.071068e-011 7.071068e-011 7.071068e-011 7.071068e-011
7860000000 -0.0041910275 0.030776985 0.018273087 -0.0075328089 7.071068e-011 7.071068e-011 7.071068e-011 7.071068e-011
7868400000 0.010400555 -0.0034854528 -9.0724337e-005 0.01971551 7.071068e-011 7.071068e-011 7.071068e-011 7.071068e-011
7876800000 -0.036190156 -0.003852661 -0.018455956 -0.0074987137 7.071068e-011 7.071068e-011 7.071068e-011 7.071068e-011
7885200000 -0.030586282 0.043461982 0.013680165 -0.014311048 7.071068e-011 7.071068e-011 7.071068e-011 7.071068e-011
7893600000 0.0088354079 0.036176208 0.0079497052 0.017864129 7.071068e-011 7.071068e-011 7.071068e-011 7.071068e-011
7902000000 -0.0082562901 0.0093156155 -0.019644698 0.00035293138 7.071068e-011 7.071068e-011 7.071068e-011 7.071068e-011
7910400000 -0.021396453 0.039007191 0.0069672111 -0.01848571 7.071068e-011 7.071068e-011 7.071068e-011 7.071068e-011
7918800000 0.017059367 0.049017534 0.014315734 0.013225773 7.071068e-011 7.071068e-011 7.071068e-011 7.071068e-011
7927200000 0.028616322 0.0074129687 -0.017663168 0.0081528602 7.071068e-011 7.071068e-011 7.071068e-011 7.071068e-011
7935600000 -0.0079958336 0.0057627386 -0.00080598594 -0.01931447 7.071068e-011 7.071068e-011 7.071068e-011 7.071068e-011
7944000000 0.010920729 0.033201087 0.018127369 0.0067150104 7.071068e-011 7.071068e-011 7.071068e-011 7.071068e-011
7952400000 0.037535824 -0.0055768429 -0.013134812 0.01419405 7.071068e-011 7.071068e-011 7.071068e-011 7.071068e-011
7960800000 -0.014996677 -0.033389885 -0.008232682 -0.017466335 7.071068e-011 7.071068e-011 7.071068e-011 7.071068e-011
7969200000 -0.029244289 0.020776007 0.018997781 -0.00086990208 7.071068e-011 7.071068e-011 7.071068e-011 7.071068e-011
7977600000 0.019991355 0.0068934215 -0.0065719238 0.017867828 7.071068e-011 7.071068e-011 7.071068e-011 7.071068e-011
7986000000 -0.024146847 -0.039762717 -0.014047182 -0.012851396 7.071068e-011 7.071068e-011 7.071068e-011 7.071068e-011
7994400000 -0.06540373 0.024732117 0.017143223 -0.0080954842 7.071068e-011 7.071068e-011 7.071068e-011 7.071068e-011
