!Keysight Technologies,N5235B,MY61252044,A.15.00.15
!Date: Friday, January 20, 2023 19:34:19
!Correction: S11(Off) 
!S21(Off) 
!S12(Off) 
!S22(Off) 
!S2P File: Measurements: S11, S21, S12, S22:
# Hz S  RI   R 50
6600000000 0.01722757 -0.17456006 0.014893816 -0.0052263918 7.071068e-011 7.071068e-011 7.071068e-011 7.071068e-011
6608400000 -0.12384671 0.1663242 0.0067812591 0.010010553 7.071068e-011 7.071068e-011 7.071068e-011 7.071068e-011
6616800000 0.30671886 0.092050739 -0.0083360188 0.0048692185 7.071068e-011 7.071068e-011 7.071068e-011 7.071068e-011
6625200000 0.024123341 -0.27302682 -0.0029856209 -0.0089986436 7.071068e-011 7.071068e-011 7.071068e-011 7.071068e-011
6633600000 -0.16602802 0.16113728 0.0092090629 -0.0015850343 7.071068e-011 7.071068e-011 7.071068e-011 7.071068e-011
6642000000 0.29011479 0.11431504 -0.00068216177 0.0094561698 7.071068e-011 7.071068e-011 7.071068e-011 7.071068e-011
6650400000 0.040146906 -0.25270766 -0.011123054 -0.0027958737 7.071068e-011 7.071068e-011 7.071068e-011 7.071068e-011
6658800000 -0.14931303 0.13305248 0.0046202964 -0.012107817 7.071068e-011 7.071068e-011 7.071068e-011 7.071068e-011
6667200000 0.227827 0.103772 0.013095127 0.0077405702 7.071068e-011 7.071068e-011 7.071068e-011 7.071068e-011
6675600000 0.044780195 -0.15269208 -0.010047313 0.014891244 7.071068e-011 7.071068e-011 7.071068e-011 7.071068e-011
6684000000 -0.045450144 0.083942898 -0.015859421 -0.011863591 7.071068e-011 7.071068e-011 7.071068e-011 7.071068e-011
6692400000 0.10535525 0.048586722 0.013289358 -0.016277485 7.071068e-011 7.071068e-011 7.071068e-011 7.071068e-011
6700800000 0.086112402 0.017271737 0.016067892 0.014008244 7.071068e-011 7.071068e-011 7.071068e-011 7.071068e-011
6709200000 0.078007676 -0.040024921 -0.014430976 0.014416427 7.071068e-011 7.071068e-011 7.071068e-011 7.071068e-011
6717600000 -0.031413082 0.031643901 -0.011518886 -0.015617393 7.071068e-011 7.071068e-011 7.071068e-011 7.071068e-011
6726000000 0.15277576 0.11809948 0.016179854 -0.0084092747 7.071068e-011 7.071068e-011 7.071068e-011 7.071068e-011
6734400000 0.13203362 -0.13844544 0.0047923438 0.015929343 7.071068e-011 7.071068e-011 7.071068e-011 7.071068e-011
6742800000 -0.10806701 0.021474795 -0.015922328 0.00088750798 7.071068e-011 7.071068e-011 7.071068e-011 7.071068e-011
6751200000 0.16701083 0.15593168 0.0025810301 -0.015616952 7.071068e-011 7.071068e-011 7.071068e-011 7.071068e-011
6759600000 0.15620902 -0.16851933 0.013629565 0.0062218825 7.071068e-011 7.071068e-011 7.071068e-011 7.071068e-011
6768000000 -0.14678639 -0.01238557 -0.01021175 0.011035812 7.071068e-011 7.071068e-011 7.071068e-011 7.071068e-011
6776400000 0.12822412 0.1820568 -0.0087351566 -0.013016308 7.071068e-011 7.071068e-011 7.071068e-011 7.071068e-011
6784800000 0.15700795 -0.14185919 0.01431713 -0.0047880886 7.071068e-011 7.071068e-011 7.071068e-011 7.071068e-011
6793200000 -0.14644174 -0.014921161 0.00040075899 0.015501085 7.071068e-011 7.071068e-011 7.071068e-011 7.071068e-011
6801600000 0.094529003 0.20576936 -0.015905518 -0.0036290851 7.071068e-011 7.071068e-011 7.071068e-011 7.071068e-011
6810000000 0.17736481 -0.089968964 0.0081198048 -0.014777322 7.071068e-011 7.071068e-011 7.071068e-011 7.071068e-011
6818400000 -0.10274123 -0.01816465 0.012552053 0.012782258 7.071068e-011 7.071068e-011 7.071068e-011 7.071068e-011
6826800000 0.080008946 0.18791215 -0.015662977 0.0096533541 7.071068e-011 7.071068e-011 7.071068e-011 7.071068e-011
6835200000 0.18581091 -0.044042185 -0.0049503562 -0.017761622 7.071068e-011 7.071068e-011 7.071068e-011 7.071068e-011
6843600000 -0.042364061 -0.03346543 0.020181904 -0.00017311393 7.071068e-011 7.071068e-011 7.071068e-011 7.071068e-011
6852000000 0.068252735 0.13006368 -0.0042371657 0.020389998 7.071068e-011 7.071068e-011 7.071068e-011 7.071068e-011
6860400000 0.14849532 -0.016324341 -0.018710727 -0.0093700215 7.071068e-011 7.071068e-011 7.071068e-011 7.071068e-011
6868800000 0.0062180543 -0.03030812 0.014393481 -0.016190628 7.071068e-011 7.071068e-011 7.071068e-011 7.071068e-011
6877200000 0.050622728 0.072427757 0.012759074 0.018075852 7.071068e-011 7.071068e-011 7.071068e-011 7.071068e-011
6885600000 0.091933861 0.0088996636 -0.020459158 0.0077454797 7.071068e-011 7.071068e-011 7.071068e-011 7.071068e-011
6894000000 0.047775794 -0.0018576026 -0.0022225438 -0.022043273 7.071068e-011 7.071068e-011 7.071068e-011 7.071068e-011
6902400000 0.038339455 0.019235699 0.021987772 0.0034543774 7.071068e-011 7.071068e-011 7.071068e-011 7.071068e-011
6910800000 0.03088134 0.036152858 -0.0090515893 0.020125007 7.071068e-011 7.071068e-011 7.071068e-011 7.071068e-011
6919200000 0.076523907 0.051609315 -0.016750695 -0.01389295 7.071068e-011 7.071068e-011 7.071068e-011 7.071068e-011
6927600000 0.05377597 -0.011693711 0.01753078 -0.012456117 7.071068e-011 7.071068e-011 7.071068e-011 7.071068e-011
6936000000 -0.003195375 0.057580736 0.0068389275 0.019705385 7.071068e-011 7.071068e-011 7.071068e-011 7.071068e-011
6944400000 0.10795376 0.093361266 -0.020883983 0.00054868928 7.071068e-011 7.071068e-011 7.071068e-011 7.071068e-011
6952800000 0.090310663 -0.043286838 0.005135675 -0.019871958 7.071068e-011 7.071068e-011 7.071068e-011 7.071068e-011
6961200000 -0.029111207 0.047356743 0.016989229 0.010581805 7.071068e-011 7.071068e-011 7.071068e-011 7.071068e-011
6969600000 0.11778664 0.11073364 -0.015086766 0.012973384 7.071068e-011 7.071068e-011 7.071068e-011 7.071068e-011
6978000000 0.1101644 -0.066502646 -0.0076585831 -0.01775481 7.071068e-011 7.071068e-011 7.071068e-011 7.071068e-011
6986400000 -0.063873306 0.022969984 0.018833544 -0.0014315877 7.071068e-011 7.071068e-011 7.071068e-011 7.071068e-011
6994800000 0.094174467 0.13797258 -0.0045694676 0.018737519 7.071068e-011 7.071068e-011 7.071068e-011 7.071068e-011
7003200000 0.11744417 -0.0515384 -0.016137568 -0.0098644001 7.071068e-011 7.071068e-011 7.071068e-011 7.071068e-011
7011600000 -0.071294077 0.021037564 0.014815403 -0.011601797 7.071068e-011 7.071068e-011 7.071068e-011 7.071068e-011
7020000000 0.077779382 0.16487828 0.0066834432 0.017798798 7.071068e-011 7.071068e-011 7.071068e-011 7.071068e-011
7028400000 0.13987455 -0.021308104 -0.018631348 0.00060926442 7.071068e-011 7.071068e-011 7.071068e-011 7.071068e-011
7036800000 -0.050762117 0.019459641 0.0057705687 -0.018286573 7.071068e-011 7.071068e-011 7.071068e-011 7.071068e-011
7045200000 0.078555405 0.17306703 0.015693229 0.011051681 7.071068e-011 7.071068e-011 7.071068e-011 7.071068e-011
7053600000 0.17305948 0.0062260577 -0.015585536 0.010849573 7.071068e-011 7.071068e-011 7.071068e-011 7.071068e-011
7062000000 -0.0025718124 -0.012877513 -0.0052201357 -0.018991269 7.071068e-011 7.071068e-011 7.071068e-011 7.071068e-011
7070400000 0.068062343 0.14019524 0.019853445 0.00056829787 7.071068e-011 7.071068e-011 7.071068e-011 7.071068e-011
7078800000 0.17139651 0.016291067 -0.0072110579 0.018193746 7.071068e-011 7.071068e-011 7.071068e-011 7.071068e-011
7087200000 0.038940195 -0.032514609 -0.015442819 -0.013063579 7.071068e-011 7.071068e-011 7.071068e-011 7.071068e-011
7095600000 0.051929582 0.087239936 0.01718343 -0.010839633 7.071068e-011 7.071068e-011 7.071068e-011 7.071068e-011
7104000000 0.1487783 0.017589053 0.0045087291 0.019756502 7.071068e-011 7.071068e-011 7.071068e-011 7.071068e-011
7112400000 0.056893498 -0.046509769 -0.020478353 -0.0023709866 7.071068e-011 7.071068e-011 7.071068e-011 7.071068e-011
7120800000 0.030849759 0.028258711 0.0085454118 -0.019002631 7.071068e-011 7.071068e-011 7.071068e-011 7.071068e-011
7129200000 0.088966429 0.018991649 0.014957272 0.013941224 7.071068e-011 7.071068e-011 7.071068e-011 7.071068e-011
7137600000 0.04757579 -0.037955757 -0.018521411 0.0095355557 7.071068e-011 7.071068e-011 7.071068e-011 7.071068e-011
7146000000 -0.00013614172 0.0095662121 -0.0032859233 -0.020749331 7.071068e-011 7.071068e-011 7.071068e-011 7.071068e-011
7154400000 0.028045613 0.041954622 0.020530663 0.0035359948 7.071068e-011 7.071068e-011 7.071068e-011 7.071068e-011
7162800000 0.046311751 0.017200205 -0.010126622 0.017899208 7.071068e-011 7.071068e-011 7.071068e-011 7.071068e-011
7171200000 0.003448352 0.017805563 -0.013756494 -0.015562672 7.071068e-011 7.071068e-011 7.071068e-011 7.071068e-011
7179600000 0.014717188 0.070124708 0.01898307 -0.0078707719 7.071068e-011 7.071068e-011 7.071068e-011 7.071068e-011
7188000000 0.06636592 0.059940331 0.00085772626 0.020810632 7.071068e-011 7.071068e-011 7.071068e-011 7.071068e-011
7196400000 0.043947022 0.010273606 -0.019984554 -0.0058305101 7.071068e-011 7.071068e-011 7.071068e-011 7.071068e-011
7204800000 0.010052103 0.062474668 0.012171482 -0.016319968 7.071068e-011 7.071068e-011 7.071068e-011 7.071068e-011
7213200000 0.078962952 0.071613058 0.011300734 0.017185688 7.071068e-011 7.071068e-011 7.071068e-011 7.071068e-011
7221600000 0.071909867 -0.0026135361 -0.020122651 0.0050792927 7.071068e-011 7.071068e-011 7.071068e-011 7.071068e-011
7230000000 -0.0007822527 0.028577412 0.0019490309 -0.020512233 7.071068e-011 7.071068e-011 7.071068e-011 7.071068e-011
7238400000 0.064787872 0.07870014 0.018650472 0.0091625331 7.071068e-011 7.071068e-011 7.071068e-011 7.071068e-011
7246800000 0.081176132 -0.0093512088 -0.014839019 0.014627349 7.071068e-011 7.071068e-011 7.071068e-011 7.071068e-011
7255200000 -0.01289026 -3.0896877e-005 -0.0084098196 -0.018781209 7.071068e-011 7.071068e-011 7.071068e-011 7.071068e-011
7263600000 0.026766347 0.084012397 0.020770568 -0.0016179178 7.071068e-011 7.071068e-011 7.071068e-011 7.071068e-011
7272000000 0.078697048 0.0081565501 -0.0052813725 0.019960433 7.071068e-011 7.071068e-011 7.071068e-011 7.071068e-011
7280400000 -0.02345885 -0.0063713938 -0.016836682 -0.011881473 7.071068e-011 7.071068e-011 7.071068e-011 7.071068e-011
7288800000 -0.0090388767 0.1031431 0.017260583 -0.011460583 7.071068e-011 7.071068e-011 7.071068e-011 7.071068e-011
7297200000 0.08488711 0.059948072 0.0048855427 0.020200482 7.071068e-011 7.071068e-011 7.071068e-011 7.071068e-011
7305600000 0.0088120224 0.0044486742 -0.02046179 -0.0025498669 7.071068e-011 7.071068e-011 7.071068e-011 7.071068e-011
7314000000 -0.0040260269 0.10608426 0.009460629 -0.01878009 7.071068e-011 7.071068e-011 7.071068e-011 7.071068e-011
7322400000 0.10859055 0.085756823 0.014243918 0.015036624 7.071068e-011 7.071068e-011 7.071068e-011 7.071068e-011
7330800000 0.060565028 -0.011678312 -0.019411568 0.0076919841 7.071068e-011 7.071068e-011 7.071068e-011 7.071068e-011
7339200000 0.0039710673 0.060585838 -0.00065686228 -0.021248091 7.071068e-011 7.071068e-011 7.071068e-011 7.071068e-011
7347600000 0.099061094 0.072288804 0.020008953 0.0065015671 7.071068e-011 7.071068e-011 7.071068e-011 7.071068e-011
7356000000 0.076179191 -0.033599012 -0.01313584 0.016219126 7.071068e-011 7.071068e-011 7.071068e-011 7.071068e-011
7364400000 -0.010158417 0.012290958 -0.010825929 -0.018197281 7.071068e-011 7.071068e-011 7.071068e-011 7.071068e-011
7372800000 0.054541245 0.054751132 0.020580914 -0.0039349068 7.071068e-011 7.071068e-011 7.071068e-011 7.071068e-011
7381200000 0.053023972 -0.030769832 -0.0039849808 0.020759819 7.071068e-011 7.071068e-011 7.071068e-011 7.071068e-011
7389600000 -0.04077404 0.00041668466 -0.018236639 -0.010906057 7.071068e-011 7.071068e-011 7.071068e-011 7.071068e-011
7398000000 0.0052986257 0.072013751 0.016564004 -0.01300262 7.071068e-011 7.071068e-011 7.071068e-011 7.071068e-011
7406400000 0.033116251 0.015027476 0.006360156 0.020210782 7.071068e-011 7.071068e-011 7.071068e-011 7.071068e-011
7414800000 -0.037983112 0.02712314 -0.021339204 -0.0010479211 7.071068e-011 7.071068e-011 7.071068e-011 7.071068e-011
7423200000 -0.0018312351 0.10360912 0.0083782775 -0.019564228 7.071068e-011 7.071068e-011 7.071068e-011 7.071068e-011
7431600000 0.055604238 0.060697816 0.015245592 0.014933321 7.071068e-011 7.071068e-011 7.071068e-011 7.071068e-011
7440000000 0.01337751 0.038371675 -0.019339547 0.0092408098 7.071068e-011 7.071068e-011 7.071068e-011 7.071068e-011
7448400000 0.024061989 0.085515946 -0.0017283841 -0.021127509 7.071068e-011 7.071068e-011 7.071068e-011 7.071068e-011
7456800000 0.077388987 0.055468805 0.020405689 0.0059554325 7.071068e-011 7.071068e-011 7.071068e-011 7.071068e-011
7465200000 0.046239838 0.013905028 -0.0127659 0.017063633 7.071068e-011 7.071068e-011 7.071068e-011 7.071068e-011
7473600000 0.028484 0.036863718 -0.011409421 -0.017795425 7.071068e-011 7.071068e-011 7.071068e-011 7.071068e-011
7482000000 0.058335941 0.033329017 0.020646004 -0.0040647681 7.071068e-011 7.071068e-011 7.071068e-011 7.071068e-011
7490400000 0.043674365 -0.010846583 -0.0035429937 0.020815622 7.071068e-011 7.071068e-011 7.071068e-011 7.071068e-011
7498800000 -0.00075434649 -0.0015450794 -0.018032778 -0.010649577 7.071068e-011 7.071068e-011 7.071068e-011 7.071068e-011
7507200000 0.00045576124 0.030891174 0.016375445 -0.013041954 7.071068e-011 7.071068e-011 7.071068e-011 7.071068e-011
7515600000 0.020628914 0.015478508 0.0063015739 0.019839229 7.071068e-011 7.071068e-011 7.071068e-011 7.071068e-011
7524000000 -0.020939179 0.0030684983 -0.020650242 -0.0012909488 7.071068e-011 7.071068e-011 7.071068e-011 7.071068e-011
7532400000 -0.034242261 0.060008992 0.0087527558 -0.018707907 7.071068e-011 7.071068e-011 7.071068e-011 7.071068e-011
7540800000 0.022725167 0.073347405 0.014376553 0.014738375 7.071068e-011 7.071068e-011 7.071068e-011 7.071068e-011
7549200000 0.01959434 0.022332545 -0.018576004 0.0077647208 7.071068e-011 7.071068e-011 7.071068e-011 7.071068e-011
7557600000 -0.01844593 0.060939323 -0.00035166653 -0.020246442 7.071068e-011 7.071068e-011 7.071068e-011 7.071068e-011
7566000000 0.047779206 0.083613433 0.018830789 0.0069673909 7.071068e-011 7.071068e-011 7.071068e-011 7.071068e-011
7574400000 0.061010391 0.0079377685 -0.013533877 0.014830478 7.071068e-011 7.071068e-011 7.071068e-011 7.071068e-011
7582800000 -0.0098628746 0.015230392 -0.0088451011 -0.018026875 7.071068e-011 7.071068e-011 7.071068e-011 7.071068e-011
7591200000 0.036511727 0.064407624 0.019755537 -0.0017559824 7.071068e-011 7.071068e-011 7.071068e-011 7.071068e-011
7599600000 0.059302527 -0.01497326 -0.0057338648 0.018656023 7.071068e-011 7.071068e-011 7.071068e-011 7.071068e-011
7608000000 -0.030942006 -0.020682264 -0.015446519 -0.012656027 7.071068e-011 7.071068e-011 7.071068e-011 7.071068e-011
7616400000 -0.015081941 0.056745604 0.017216725 -0.0099874558 7.071068e-011 7.071068e-011 7.071068e-011 7.071068e-011
7624800000 0.031527758 0.00516047 0.0026640778 0.01955846 7.071068e-011 7.071068e-011 7.071068e-011 7.071068e-011
7633200000 -0.05258105 -0.0062806718 -0.019109555 -0.0046857274 7.071068e-011 7.071068e-011 7.071068e-011 7.071068e-011
7641600000 -0.038423792 0.086758271 0.011419207 -0.015850861 7.071068e-011 7.071068e-011 7.071068e-011 7.071068e-011
7650000000 0.037719149 0.0532807 0.010442812 0.016603211 7.071068e-011 7.071068e-011 7.071068e-011 7.071068e-011
7658400000 -0.020771898 0.011625231 -0.01953619 0.0037176195 7.071068e-011 7.071068e-011 7.071068e-011 7.071068e-011
7666800000 -0.022921538 0.09572047 0.0034930913 -0.019248739 7.071068e-011 7.071068e-011 7.071068e-011 7.071068e-011
7675200000 0.069587193 0.071798809 0.016136136 0.010786203 7.071068e-011 7.071068e-011 7.071068e-011 7.071068e-011
7683600000 0.03206946 -0.0041182637 -0.016279921 0.011235197 7.071068e-011 7.071068e-011 7.071068e-011 7.071068e-011
7692000000 -0.0052959109 0.046832524 -0.0045277639 -0.01914742 7.071068e-011 7.071068e-011 7.071068e-011 7.071068e-011
7700400000 0.065675996 0.043881793 0.019442508 0.0028647638 7.071068e-011 7.071068e-011 7.071068e-011 7.071068e-011
7708800000 0.035764493 -0.039698601 -0.010021954 0.016916869 7.071068e-011 7.071068e-011 7.071068e-011 7.071068e-011
7717200000 -0.033661548 0.00060345512 -0.011994549 -0.015655985 7.071068e-011 7.071068e-011 7.071068e-011 7.071068e-011
7725600000 0.01675174 0.033862174 0.01900054 -0.0050795083 7.071068e-011 7.071068e-011 7.071068e-011 7.071068e-011
7734000000 0.01414995 -0.035558794 -0.002177492 0.019746743 7.071068e-011 7.071068e-011 7.071068e-011 7.071068e-011
7742400000 -0.070710517 -0.012389468 -0.017276092 -0.0091889091 7.071068e-011 7.071068e-011 7.071068e-011 7.071068e-011
7750800000 -0.040701348 0.062443625 0.01523535 -0.012522853 7.071068e-011 7.071068e-011 7.071068e-011 7.071068e-011
7759200000 0.0015524928 0.0253668 0.0059957989 0.018891873 7.071068e-011 7.071068e-011 7.071068e-011 7.071068e-011
7767600000 -0.053275649 0.019432571 -0.019763896 -0.0015123003 7.071068e-011 7.071068e-011 7.071068e-011 7.071068e-011
7776000000 -0.037859354 0.090886936 0.0087808464 -0.017599154 7.071068e-011 7.071068e-011 7.071068e-011 7.071068e-011
7784400000 0.031449642 0.068150468 0.013071366 0.014785446 7.071068e-011 7.071068e-011 7.071068e-011 7.071068e-011
7792800000 0.001356556 0.024761232 -0.018471766 0.0065017031 7.071068e-011 7.071068e-011 7.071068e-011 7.071068e-011
7801200000 -0.007677265 0.070146836 0.0011287207 -0.019836681 7.071068e-011 7.071068e-011 7.071068e-011 7.071068e-011
7809600000 0.053067632 0.058532346 0.0180276 0.0082481652 7.071068e-011 7.071068e-011 7.071068e-011 7.071068e-011
7818000000 0.035413757 -0.0043192231 -0.01443091 0.013297807 7.071068e-011 7.071068e-011 7.071068e-011 7.071068e-011
7826400000 -0.0055657742 0.020742744 -0.0069617825 -0.018457605 7.071068e-011 7.071068e-011 7.071068e-011 7.071068e-011
7834800000 0.032493833 0.031634692 0.01971972 0.00047561436 7.071068e-011 7.071068e-011 7.071068e-011 7.071068e-011
7843200000 0.025337406 -0.019647837 -0.0078869769 0.018140061 7.071068e-011 7.071068e-011 7.071068e-011 7.071068e-011
7851600000 -0.026790943 -0.0046989992 -0.013840231 -0.014211637 7.071068e-011 7.071068e-011 7.071068e-011 7.071068e-011
7860000000 -0.0042023659 0.030779481 0.018274071 -0.0075416509 7.071068e-011 7.071068e-011 7.071068e-011 7.071068e-011
7868400000 0.010384798 -0.0034529322 -8.9314934e-005 0.019720929 7.071068e-011 7.071068e-011 7.071068e-011 7.071068e-011
7876800000 -0.036144521 -0.0038650723 -0.018458612 -0.0075027556 7.071068e-011 7.071068e-011 7.071068e-011 7.071068e-011
7885200000 -0.030627064 0.043423176 0.01368608 -0.014307358 7.071068e-011 7.071068e-011 7.071068e-011 7.071068e-011
7893600000 0.0088285897 0.036245447 0.0079544075 0.01787083 7.071068e-011 7.071068e-011 7.071068e-011 7.071068e-011
7902000000 -0.0082172519 0.009290427 -0.019645682 0.00035295298 7.071068e-011 7.071068e-011 7.071068e-011 7.071068e-011
7910400000 -0.021424787 0.039000086 0.0069653569 -0.018486308 7.071068e-011 7.071068e-011 7.071068e-011 7.071068e-011
7918800000 0.017057218 0.049015965 0.014319051 0.013230371 7.071068e-011 7.071068e-011 7.071068e-011 7.071068e-011
7927200000 0.028612806 0.0074329576 -0.017663416 0.0081453165 7.071068e-011 7.071068e-011 7.071068e-011 7.071068e-011
7935600000 -0.0079623442 0.0057367776 -0.00080907298 -0.019318487 7.071068e-011 7.071068e-011 7.071068e-011 7.071068e-011
7944000000 0.010852078 0.033171669 0.018130362 0.0067167799 7.071068e-011 7.071068e-011 7.071068e-011 7.071068e-011
7952400000 0.03755518 -0.0055148657 -0.013137749 0.014189536 7.071068e-011 7.071068e-011 7.071068e-011 7.071068e-011
7960800000 -0.014971916 -0.033447668 -0.0082315393 -0.017460784 7.071068e-011 7.071068e-011 7.071068e-011 7.071068e-011
7969200000 -0.029295348 0.020768071 0.019000921 -0.00086930365 7.071068e-011 7.071068e-011 7.071068e-011 7.071068e-011
7977600000 0.019993866 0.0069190902 -0.0065757232 0.017867783 7.071068e-011 7.071068e-011 7.071068e-011 7.071068e-011
7986000000 -0.024111075 -0.039748471 -0.014046027 -0.012852698 7.071068e-011 7.071068e-011 7.071068e-011 7.071068e-011
7994400000 -0.065408044 0.024674211 0.017145973 -0.0080974875 7.071068e-011 7.071068e-011 7.071068e-011 7.071068e-011
