!Keysight Technologies,N5235B,MY61252044,A.15.00.15
!Date: Friday, January 20, 2023 20:53:47
!Correction: S11(Off) 
!S21(Off) 
!S12(Off) 
!S22(Off) 
!S2P File: Measurements: S11, S21, S12, S22:
# Hz S  RI   R 50
6600000000 0.016970178 -0.17465958 0.014880917 -0.0052504907 7.071068e-011 7.071068e-011 7.071068e-011 7.071068e-011
6601680336.0672 -0.060471848 -0.15834586 0.0033257047 -0.014796027 7.071068e-011 7.071068e-011 7.071068e-011 7.071068e-011
6603360672.1344 -0.12838383 -0.10451104 -0.01030142 -0.01029722 7.071068e-011 7.071068e-011 7.071068e-011 7.071068e-011
6605041008.2016 -0.1681855 -0.020883137 -0.013514925 0.0029857503 7.071068e-011 7.071068e-011 7.071068e-011 7.071068e-011
6606721344.2689 -0.16749766 0.076315753 -0.004631985 0.012113321 7.071068e-011 7.071068e-011 7.071068e-011 7.071068e-011
6608401680.3361 -0.12361277 0.16670276 0.0068014525 0.0099859545 7.071068e-011 7.071068e-011 7.071068e-011 7.071068e-011
6610082016.4033 -0.043873642 0.23139279 0.011342517 0.00037353372 7.071068e-011 7.071068e-011 7.071068e-011 7.071068e-011
6611762352.4705 0.056948345 0.25743547 0.0067661544 -0.0084556136 7.071068e-011 7.071068e-011 7.071068e-011 7.071068e-011
6613442688.5377 0.16064203 0.23975044 -0.0026197317 -0.010112297 7.071068e-011 7.071068e-011 7.071068e-011 7.071068e-011
6615123024.6049 0.24898198 0.18117313 -0.0093150157 -0.0038095964 7.071068e-011 7.071068e-011 7.071068e-011 7.071068e-011
6616803360.6721 0.30694848 0.091535322 -0.0083193667 0.004892977 7.071068e-011 7.071068e-011 7.071068e-011 7.071068e-011
6618483696.7393 0.32469374 -0.014582181 -0.0012748312 0.0091967126 7.071068e-011 7.071068e-011 7.071068e-011 7.071068e-011
6620164032.8066 0.29871678 -0.12008168 0.0062000863 0.0066610379 7.071068e-011 7.071068e-011 7.071068e-011 7.071068e-011
6621844368.8738 0.23227237 -0.20759368 0.009115384 -0.00060722127 7.071068e-011 7.071068e-011 7.071068e-011 7.071068e-011
6623524704.941 0.13530788 -0.26196745 0.0052673528 -0.007689456 7.071068e-011 7.071068e-011 7.071068e-011 7.071068e-011
6625205041.0082 0.023418095 -0.27298257 -0.0030236605 -0.0089877555 7.071068e-011 7.071068e-011 7.071068e-011 7.071068e-011
6626885377.0754 -0.08438202 -0.23748548 -0.0090134339 -0.0029272079 7.071068e-011 7.071068e-011 7.071068e-011 7.071068e-011
6628565713.1426 -0.16898493 -0.16065338 -0.0076775854 0.0053333072 7.071068e-011 7.071068e-011 7.071068e-011 7.071068e-011
6630246049.2098 -0.2148121 -0.05560872 -0.00054424512 0.0092244502 7.071068e-011 7.071068e-011 7.071068e-011 7.071068e-011
6631926385.2771 -0.21343863 0.05877544 0.0068912255 0.0061755669 7.071068e-011 7.071068e-011 7.071068e-011 7.071068e-011
6633606721.3443 -0.16555585 0.16179509 0.0092057008 -0.0016232299 7.071068e-011 7.071068e-011 7.071068e-011 7.071068e-011
6635287057.4115 -0.080650352 0.2354863 0.0043581845 -0.0083341952 7.071068e-011 7.071068e-011 7.071068e-011 7.071068e-011
6636967393.4787 0.025533224 0.26790062 -0.0038972499 -0.008501634 7.071068e-011 7.071068e-011 7.071068e-011 7.071068e-011
6638647729.5459 0.13428517 0.2548767 -0.0089825261 -0.0022537552 7.071068e-011 7.071068e-011 7.071068e-011 7.071068e-011
6640328065.6131 0.22748879 0.20004678 -0.0074828197 0.0054701972 7.071068e-011 7.071068e-011 7.071068e-011 7.071068e-011
6642008401.6803 0.29049602 0.11352655 -0.00063143915 0.0094655659 7.071068e-011 7.071068e-011 7.071068e-011 7.071068e-011
6643688737.7475 0.31378239 0.0097990464 0.0072142445 0.0067823366 7.071068e-011 7.071068e-011 7.071068e-011 7.071068e-011
6645369073.8148 0.29394948 -0.094313063 0.01029804 -0.0015360911 7.071068e-011 7.071068e-011 7.071068e-011 7.071068e-011
6647049409.882 0.23416346 -0.18176599 0.0052461731 -0.0095013706 7.071068e-011 7.071068e-011 7.071068e-011 7.071068e-011
6648729745.9492 0.1441873 -0.23782845 -0.0045175543 -0.010227182 7.071068e-011 7.071068e-011 7.071068e-011 7.071068e-011
6650410082.0164 0.039160863 -0.25266594 -0.0111428 -0.0027302529 7.071068e-011 7.071068e-011 7.071068e-011 7.071068e-011
6652090418.0836 -0.062664732 -0.22338101 -0.0092470255 0.0073589655 7.071068e-011 7.071068e-011 7.071068e-011 7.071068e-011
6653770754.1508 -0.14305016 -0.15515229 0.00023476634 0.012213437 7.071068e-011 7.071068e-011 7.071068e-011 7.071068e-011
6655451090.218 -0.18759602 -0.060765941 0.010181846 0.0073703411 7.071068e-011 7.071068e-011 7.071068e-011 7.071068e-011
6657131426.2853 -0.18904148 0.04189869 0.012238607 -0.0037625248 7.071068e-011 7.071068e-011 7.071068e-011 7.071068e-011
6658811762.3525 -0.14872053 0.1339014 0.0045278934 -0.012144539 7.071068e-011 7.071068e-011 7.071068e-011 7.071068e-011
6660492098.4197 -0.075978667 0.1991196 -0.0068595898 -0.011243863 7.071068e-011 7.071068e-011 7.071068e-011 7.071068e-011
6662172434.4869 0.01415961 0.2275092 -0.013424507 -0.0016533099 7.071068e-011 7.071068e-011 7.071068e-011 7.071068e-011
6663852770.5541 0.10456575 0.21679261 -0.0099584451 0.0098929629 7.071068e-011 7.071068e-011 7.071068e-011 7.071068e-011
6665533106.6213 0.17974001 0.17185327 0.0018173319 0.014508169 7.071068e-011 7.071068e-011 7.071068e-011 7.071068e-011
6667213442.6885 0.22820467 0.10289323 0.01316553 0.0076371506 7.071068e-011 7.071068e-011 7.071068e-011 7.071068e-011
6668893778.7558 0.24380296 0.023150517 0.014556638 -0.0061337445 7.071068e-011 7.071068e-011 7.071068e-011 7.071068e-011
6670574114.823 0.22605896 -0.053313728 0.0039818757 -0.015878677 7.071068e-011 7.071068e-011 7.071068e-011 7.071068e-011
6672254450.8902 0.17995968 -0.11372477 -0.010727028 -0.013138087 7.071068e-011 7.071068e-011 7.071068e-011 7.071068e-011
6673934786.9574 0.1150201 -0.14842774 -0.017493417 0.00085700781 7.071068e-011 7.071068e-011 7.071068e-011 7.071068e-011
6675615123.0246 0.043911558 -0.15253407 -0.0099022659 0.014999595 7.071068e-011 7.071068e-011 7.071068e-011 7.071068e-011
6677295459.0918 -0.019832067 -0.1271337 0.0063288733 0.017213929 7.071068e-011 7.071068e-011 7.071068e-011 7.071068e-011
6678975795.159 -0.064763315 -0.079098232 0.017908191 0.0052668448 7.071068e-011 7.071068e-011 7.071068e-011 7.071068e-011
6680656131.2262 -0.083773613 -0.019418461 0.015218085 -0.011422228 7.071068e-011 7.071068e-011 7.071068e-011 7.071068e-011
6682336467.2935 -0.075506449 0.039009575 -9.2734932e-005 -0.019423833 7.071068e-011 7.071068e-011 7.071068e-011 7.071068e-011
6684016803.3607 -0.044917937 0.084394194 -0.015996801 -0.011700241 7.071068e-011 7.071068e-011 7.071068e-011 7.071068e-011
6685697139.4279 -0.001710978 0.10928436 -0.019208238 0.006056441 7.071068e-011 7.071068e-011 7.071068e-011 7.071068e-011
6687377475.4951 0.042641748 0.11214241 -0.0065976623 0.019281475 7.071068e-011 7.071068e-011 7.071068e-011 7.071068e-011
6689057811.5623 0.07810495 0.097238079 0.011694868 0.016938673 7.071068e-011 7.071068e-011 7.071068e-011 7.071068e-011
6690738147.6295 0.098984264 0.072926879 0.02078029 0.00072119763 7.071068e-011 7.071068e-011 7.071068e-011 7.071068e-011
6692418483.6967 0.10530495 0.048277359 0.013102032 -0.016428772 7.071068e-011 7.071068e-011 7.071068e-011 7.071068e-011
6694098819.764 0.10148851 0.029530065 -0.0054793647 -0.020516889 7.071068e-011 7.071068e-011 7.071068e-011 7.071068e-011
6695779155.8312 0.093315698 0.019072298 -0.019945092 -0.0077981493 7.071068e-011 7.071068e-011 7.071068e-011 7.071068e-011
6697459491.8984 0.086167954 0.016039684 -0.018139949 0.011525086 7.071068e-011 7.071068e-011 7.071068e-011 7.071068e-011
6699139827.9656 0.083631389 0.016960209 -0.0014373729 0.021396499 7.071068e-011 7.071068e-011 7.071068e-011 7.071068e-011
6700820164.0328 0.086207017 0.017276213 0.016240044 0.013806175 7.071068e-011 7.071068e-011 7.071068e-011 7.071068e-011
6702500500.1 0.09169241 0.013679543 0.020649856 -0.0047085378 7.071068e-011 7.071068e-011 7.071068e-011 7.071068e-011
6704180836.1672 0.096837781 0.0047613704 0.0085729035 -0.019253794 7.071068e-011 7.071068e-011 7.071068e-011 7.071068e-011
6705861172.2344 0.098048277 -0.009114407 -0.010246765 -0.018288042 7.071068e-011 7.071068e-011 7.071068e-011 7.071068e-011
6707541508.3017 0.092137136 -0.025463585 -0.020580579 -0.0026714008 7.071068e-011 7.071068e-011 7.071068e-011 7.071068e-011
6709221844.3689 0.077718101 -0.040256079 -0.014238232 0.014609746 7.071068e-011 7.071068e-011 7.071068e-011 7.071068e-011
6710902180.4361 0.055481359 -0.049213719 0.0029107833 0.01977165 7.071068e-011 7.071068e-011 7.071068e-011 7.071068e-011
6712582516.5033 0.027807223 -0.048277043 0.017099792 0.0096763829 7.071068e-011 7.071068e-011 7.071068e-011 7.071068e-011
6714262852.5705 -0.00056189898 -0.034107871 0.018004339 -0.007432214 7.071068e-011 7.071068e-011 7.071068e-011 7.071068e-011
6715943188.6377 -0.02264066 -0.0060758903 0.0051615471 -0.018745326 7.071068e-011 7.071068e-011 7.071068e-011 7.071068e-011
6717623524.7049 -0.031453248 0.032359269 -0.011734013 -0.015450878 7.071068e-011 7.071068e-011 7.071068e-011 7.071068e-011
6719303860.7722 -0.022379261 0.074405327 -0.019212931 1.5426027e-005 7.071068e-011 7.071068e-011 7.071068e-011 7.071068e-011
6720984196.8394 0.0057136407 0.11145779 -0.011467855 0.01499861 7.071068e-011 7.071068e-011 7.071068e-011 7.071068e-011
6722664532.9066 0.049693923 0.1347197 0.0046849893 0.01793671 7.071068e-011 7.071068e-011 7.071068e-011 7.071068e-011
6724344868.9738 0.10222936 0.13759185 0.016788045 0.0073432317 7.071068e-011 7.071068e-011 7.071068e-011 7.071068e-011
6726025205.041 0.15366523 0.11759063 0.016050836 -0.0086518526 7.071068e-011 7.071068e-011 7.071068e-011 7.071068e-011
6727705541.1082 0.19417527 0.076571517 0.0029142362 -0.017889693 7.071068e-011 7.071068e-011 7.071068e-011 7.071068e-011
6729385877.1754 0.21526694 0.020369554 -0.01222892 -0.01296916 7.071068e-011 7.071068e-011 7.071068e-011 7.071068e-011
6731066213.2426 0.21144725 -0.041613981 -0.017283013 0.0016469237 7.071068e-011 7.071068e-011 7.071068e-011 7.071068e-011
6732746549.3099 0.181962 -0.098220803 -0.0092679514 0.014144007 7.071068e-011 7.071068e-011 7.071068e-011 7.071068e-011
6734426885.3771 0.13091686 -0.13905552 0.0050316458 0.015853724 7.071068e-011 7.071068e-011 7.071068e-011 7.071068e-011
6736107221.4443 0.06626536 -0.15619022 0.015398831 0.0060451068 7.071068e-011 7.071068e-011 7.071068e-011 7.071068e-011
6737787557.5115 -0.0011943507 -0.14537799 0.014299348 -0.0082464097 7.071068e-011 7.071068e-011 7.071068e-011 7.071068e-011
6739467893.5787 -0.059398733 -0.10728828 0.0023711417 -0.016207783 7.071068e-011 7.071068e-011 7.071068e-011 7.071068e-011
6741148229.6459 -0.097498894 -0.047834788 -0.011047091 -0.011786481 7.071068e-011 7.071068e-011 7.071068e-011 7.071068e-011
6742828565.7131 -0.10803387 0.022950819 -0.015901124 0.001139671 7.071068e-011 7.071068e-011 7.071068e-011 7.071068e-011
6744508901.7804 -0.088313803 0.09264075 -0.0091506029 0.012977673 7.071068e-011 7.071068e-011 7.071068e-011 7.071068e-011
6746189237.8476 -0.041231826 0.14858463 0.0043479633 0.015366958 7.071068e-011 7.071068e-011 7.071068e-011 7.071068e-011
6747869573.9148 0.025082452 0.18054917 0.014860814 0.0061631906 7.071068e-011 7.071068e-011 7.071068e-011 7.071068e-011
6749549909.982 0.099113144 0.18289168 0.01395685 -0.0079372609 7.071068e-011 7.071068e-011 7.071068e-011 7.071068e-011
6751230246.0492 0.16838524 0.15507707 0.0023061384 -0.015650393 7.071068e-011 7.071068e-011 7.071068e-011 7.071068e-011
6752910582.1164 0.2216966 0.1015742 -0.010557083 -0.011350031 7.071068e-011 7.071068e-011 7.071068e-011 7.071068e-011
6754590918.1836 0.24924594 0.030470822 -0.015237017 0.00099212595 7.071068e-011 7.071068e-011 7.071068e-011 7.071068e-011
6756271254.2508 0.24644849 -0.046503402 -0.0088182995 0.012332357 7.071068e-011 7.071068e-011 7.071068e-011 7.071068e-011
6757951590.3181 0.21335383 -0.11695134 0.004008559 0.01455664 7.071068e-011 7.071068e-011 7.071068e-011 7.071068e-011
6759631926.3853 0.1547002 -0.16946223 0.013738167 0.0059794001 7.071068e-011 7.071068e-011 7.071068e-011 7.071068e-011
6761312262.4525 0.079367101 -0.19512862 0.013155051 -0.0067789112 7.071068e-011 7.071068e-011 7.071068e-011 7.071068e-011
6762992598.5197 -0.00074309233 -0.18920812 0.0031593447 -0.014303045 7.071068e-011 7.071068e-011 7.071068e-011 7.071068e-011
6764672934.5869 -0.072657712 -0.15203553 -0.0089152306 -0.01161886 7.071068e-011 7.071068e-011 7.071068e-011 7.071068e-011
6766353270.6541 -0.12441482 -0.089115255 -0.014787798 -0.00060600007 7.071068e-011 7.071068e-011 7.071068e-011 7.071068e-011
6768033606.7213 -0.14694388 -0.010468763 -0.010004275 0.011231509 7.071068e-011 7.071068e-011 7.071068e-011 7.071068e-011
6769713942.7886 -0.13596645 0.070660703 0.0025062005 0.01504154 7.071068e-011 7.071068e-011 7.071068e-011 7.071068e-011
6771394278.8558 -0.093224533 0.1401663 0.013431912 0.007510209 7.071068e-011 7.071068e-011 7.071068e-011 7.071068e-011
6773074614.923 -0.026335336 0.18595588 0.014350136 -0.0058198706 7.071068e-011 7.071068e-011 7.071068e-011 7.071068e-011
6774754950.9902 0.052733205 0.20031148 0.0044506225 -0.014942571 7.071068e-011 7.071068e-011 7.071068e-011 7.071068e-011
6776435287.0574 0.12996829 0.18124901 -0.0089937747 -0.012840251 7.071068e-011 7.071068e-011 7.071068e-011 7.071068e-011
6778115623.1246 0.19204523 0.13283198 -0.015627341 -0.00087710918 7.071068e-011 7.071068e-011 7.071068e-011 7.071068e-011
6779795959.1918 0.22878054 0.063960537 -0.010292132 0.011559835 7.071068e-011 7.071068e-011 7.071068e-011 7.071068e-011
6781476295.2591 0.23450646 -0.013492058 0.0024438617 0.015044831 7.071068e-011 7.071068e-011 7.071068e-011 7.071068e-011
6783156631.3263 0.20853241 -0.086539 0.01300785 0.0076527735 7.071068e-011 7.071068e-011 7.071068e-011 7.071068e-011
6784836967.3935 0.15541919 -0.14299014 0.014222824 -0.0050717988 7.071068e-011 7.071068e-011 7.071068e-011 7.071068e-011
6786517303.4607 0.084136821 -0.17361645 0.0052030417 -0.014309529 7.071068e-011 7.071068e-011 7.071068e-011 7.071068e-011
6788197639.5279 0.0063780216 -0.17351387 -0.0078737708 -0.013195789 7.071068e-011 7.071068e-011 7.071068e-011 7.071068e-011
6789877975.5951 -0.065291353 -0.14271972 -0.015260768 -0.0022108613 7.071068e-011 7.071068e-011 7.071068e-011 7.071068e-011
6791558311.6623 -0.1192663 -0.086133167 -0.01139924 0.010407662 7.071068e-011 7.071068e-011 7.071068e-011 7.071068e-011
6793238647.7295 -0.1468178 -0.012908062 0.0007311774 0.015497716 7.071068e-011 7.071068e-011 7.071068e-011 7.071068e-011
6794918983.7968 -0.14365894 0.065157354 0.012582732 0.0094606876 7.071068e-011 7.071068e-011 7.071068e-011 7.071068e-011
6796599319.864 -0.11041261 0.13564947 0.015592101 -0.0038721932 7.071068e-011 7.071068e-011 7.071068e-011 7.071068e-011
6798279655.9312 -0.052438635 0.18726785 0.0067762011 -0.014852254 7.071068e-011 7.071068e-011 7.071068e-011 7.071068e-011
6799959991.9984 0.020622939 0.21165381 -0.0074874018 -0.014585222 7.071068e-011 7.071068e-011 7.071068e-011 7.071068e-011
6801640328.0656 0.096520334 0.20523363 -0.01598944 -0.0032735602 7.071068e-011 7.071068e-011 7.071068e-011 7.071068e-011
6803320664.1328 0.16282581 0.16969112 -0.012628662 0.010247734 7.071068e-011 7.071068e-011 7.071068e-011 7.071068e-011
6805001000.2 0.20892298 0.11133642 -0.00015739295 0.016361084 7.071068e-011 7.071068e-011 7.071068e-011 7.071068e-011
6806681336.2673 0.22738969 0.040161375 0.012721098 0.010635006 7.071068e-011 7.071068e-011 7.071068e-011 7.071068e-011
6808361672.3345 0.21551289 -0.031525388 0.016462002 -0.00327501 7.071068e-011 7.071068e-011 7.071068e-011 7.071068e-011
6810042008.4017 0.17596222 -0.091431342 0.007778299 -0.014964243 7.071068e-011 7.071068e-011 7.071068e-011 7.071068e-011
6811722344.4689 0.11605199 -0.12955651 -0.0066998606 -0.015455556 7.071068e-011 7.071068e-011 7.071068e-011 7.071068e-011
6813402680.5361 0.046464443 -0.13973166 -0.016212257 -0.0047085411 7.071068e-011 7.071068e-011 7.071068e-011 7.071068e-011
6815083016.6033 -0.02045086 -0.12072618 -0.014177203 0.0095607201 7.071068e-011 7.071068e-011 7.071068e-011 7.071068e-011
6816763352.6705 -0.073116869 -0.076753899 -0.0016536346 0.017416667 7.071068e-011 7.071068e-011 7.071068e-011 7.071068e-011
6818443688.7377 -0.10329227 -0.016254159 0.012874656 0.012480063 7.071068e-011 7.071068e-011 7.071068e-011 7.071068e-011
6820124024.805 -0.10702332 0.050377406 0.018055022 -0.0024483139 7.071068e-011 7.071068e-011 7.071068e-011 7.071068e-011
6821804360.8722 -0.084490202 0.11242803 0.0092808427 -0.015788414 7.071068e-011 7.071068e-011 7.071068e-011 7.071068e-011
6823484696.9394 -0.039978325 0.16006207 -0.0065527954 -0.017082373 7.071068e-011 7.071068e-011 7.071068e-011 7.071068e-011
6825165033.0066 0.018693585 0.18620619 -0.017424416 -0.005642103 7.071068e-011 7.071068e-011 7.071068e-011 7.071068e-011
6826845369.0738 0.081893943 0.18760429 -0.015415771 0.0100521 7.071068e-011 7.071068e-011 7.071068e-011 7.071068e-011
6828525705.141 0.13982791 0.16487971 -0.0018281038 0.018403325 7.071068e-011 7.071068e-011 7.071068e-011 7.071068e-011
6830206041.2082 0.18372817 0.12221366 0.01320659 0.012939677 7.071068e-011 7.071068e-011 7.071068e-011 7.071068e-011
6831886377.2755 0.20719108 0.066899747 0.018289773 -0.0020896401 7.071068e-011 7.071068e-011 7.071068e-011 7.071068e-011
6833566713.3427 0.20733473 0.0079297684 0.01000395 -0.015380392 7.071068e-011 7.071068e-011 7.071068e-011 7.071068e-011
6835247049.4099 0.18480076 -0.045533348 -0.0054054912 -0.017636314 7.071068e-011 7.071068e-011 7.071068e-011 7.071068e-011
6836927385.4771 0.14347595 -0.085084729 -0.017280804 -0.0072594988 7.071068e-011 7.071068e-011 7.071068e-011 7.071068e-011
6838607721.5443 0.090517759 -0.10422166 -0.016948968 0.0089557264 7.071068e-011 7.071068e-011 7.071068e-011 7.071068e-011
6840288057.6115 0.035494704 -0.099993654 -0.0037339989 0.019244973 7.071068e-011 7.071068e-011 7.071068e-011 7.071068e-011
6841968393.6787 -0.011719723 -0.074031129 0.012955657 0.015157578 7.071068e-011 7.071068e-011 7.071068e-011 7.071068e-011
6843648729.7459 -0.043057419 -0.03192734 0.020175515 -0.00072150747 7.071068e-011 7.071068e-011 7.071068e-011 7.071068e-011
6845329065.8132 -0.053658973 0.017945362 0.01213207 -0.016401038 7.071068e-011 7.071068e-011 7.071068e-011 7.071068e-011
6847009401.8804 -0.042863205 0.066069208 -0.0053424486 -0.019898241 7.071068e-011 7.071068e-011 7.071068e-011 7.071068e-011
6848689737.9476 -0.014225814 0.10397857 -0.019061267 -0.0082294587 7.071068e-011 7.071068e-011 7.071068e-011 7.071068e-011
6850370074.0148 0.025824932 0.12605578 -0.018349485 0.0098903952 7.071068e-011 7.071068e-011 7.071068e-011 7.071068e-011
6852050410.082 0.069662452 0.12990849 -0.0036637853 0.020502638 7.071068e-011 7.071068e-011 7.071068e-011 7.071068e-011
6853730746.1492 0.10973646 0.11646655 0.013669482 0.015638206 7.071068e-011 7.071068e-011 7.071068e-011 7.071068e-011
6855411082.2164 0.13998972 0.089570515 0.020719539 -0.00078991277 7.071068e-011 7.071068e-011 7.071068e-011 7.071068e-011
6857091418.2837 0.15691535 0.054612175 0.012462175 -0.016602317 7.071068e-011 7.071068e-011 7.071068e-011 7.071068e-011
6858771754.3509 0.15935458 0.017201824 -0.0050563663 -0.020213548 7.071068e-011 7.071068e-011 7.071068e-011 7.071068e-011
6860452090.4181 0.14791484 -0.017384468 -0.01897341 -0.0088259727 7.071068e-011 7.071068e-011 7.071068e-011 7.071068e-011
6862132426.4853 0.12481786 -0.044416416 -0.018876987 0.0092196884 7.071068e-011 7.071068e-011 7.071068e-011 7.071068e-011
6863812762.5525 0.093833096 -0.060209304 -0.0047595445 0.020566395 7.071068e-011 7.071068e-011 7.071068e-011 7.071068e-011
6865493098.6197 0.059892129 -0.062604487 0.01304729 0.01677799 7.071068e-011 7.071068e-011 7.071068e-011 7.071068e-011
6867173434.6869 0.028663833 -0.051496252 0.021454081 0.00041816651 7.071068e-011 7.071068e-011 7.071068e-011 7.071068e-011
6868853770.7542 0.0055810465 -0.029396243 0.013914246 -0.016613726 7.071068e-011 7.071068e-011 7.071068e-011 7.071068e-011
