!Keysight Technologies,N5235B,MY61252044,A.15.00.15
!Date: Friday, January 20, 2023 21:42:14
!Correction: S11(Off) 
!S21(Off) 
!S12(Off) 
!S22(Off) 
!S2P File: Measurements: S11, S21, S12, S22:
# Hz S  RI   R 50
6600000000 0.017269269 -0.17487481 0.015501468 -0.0030603067 7.071068e-011 7.071068e-011 7.071068e-011 7.071068e-011
6608408408.4084 -0.12347372 0.16691984 0.0053452835 0.010851902 7.071068e-011 7.071068e-011 7.071068e-011 7.071068e-011
6616816816.8168 0.3068451 0.091070697 -0.008918684 0.0037150763 7.071068e-011 7.071068e-011 7.071068e-011 7.071068e-011
6625225225.2252 0.022711746 -0.27298179 -0.0018034175 -0.0093220463 7.071068e-011 7.071068e-011 7.071068e-011 7.071068e-011
6633633633.6336 -0.1647324 0.16312286 0.0093504433 -0.00040766323 7.071068e-011 7.071068e-011 7.071068e-011 7.071068e-011
6642042042.042 0.29098147 0.11169016 -0.0018354681 0.0093441363 7.071068e-011 7.071068e-011 7.071068e-011 7.071068e-011
6650450450.4505 0.037389763 -0.25231427 -0.010746198 -0.0040677106 7.071068e-011 7.071068e-011 7.071068e-011 7.071068e-011
6658858858.8589 -0.14775884 0.13594006 0.0059541524 -0.011520016 7.071068e-011 7.071068e-011 7.071068e-011 7.071068e-011
6667267267.2673 0.22945429 0.10014225 0.012240712 0.0091526182 7.071068e-011 7.071068e-011 7.071068e-011 7.071068e-011
6675675675.6757 0.041681781 -0.1512647 -0.011524096 0.013863463 7.071068e-011 7.071068e-011 7.071068e-011 7.071068e-011
6684084084.0841 -0.044075854 0.084954999 -0.014638273 -0.013355213 7.071068e-011 7.071068e-011 7.071068e-011 7.071068e-011
6692492492.4925 0.10617171 0.047248874 0.014822204 -0.014967663 7.071068e-011 7.071068e-011 7.071068e-011 7.071068e-011
6700900900.9009 0.085915521 0.017992791 0.014819972 0.015412834 7.071068e-011 7.071068e-011 7.071068e-011 7.071068e-011
6709309309.3093 0.076694027 -0.041777626 -0.015561888 0.01315979 7.071068e-011 7.071068e-011 7.071068e-011 7.071068e-011
6717717717.7177 -0.030895058 0.034976646 -0.010195916 -0.016499588 7.071068e-011 7.071068e-011 7.071068e-011 7.071068e-011
6726126126.1261 0.15570156 0.11575407 0.016819049 -0.0071348348 7.071068e-011 7.071068e-011 7.071068e-011 7.071068e-011
6734534534.5345 0.12773958 -0.14106785 0.0036013634 0.016255327 7.071068e-011 7.071068e-011 7.071068e-011 7.071068e-011
6742942942.9429 -0.10781889 0.027818184 -0.015945358 -0.00022697698 7.071068e-011 7.071068e-011 7.071068e-011 7.071068e-011
6751351351.3514 0.17265153 0.15202804 0.0035773767 -0.015404467 7.071068e-011 7.071068e-011 7.071068e-011 7.071068e-011
6759759759.7598 0.14962631 -0.17232372 0.013220027 0.007038346 7.071068e-011 7.071068e-011 7.071068e-011 7.071068e-011
6768168168.1682 -0.14703447 -0.0041279765 -0.01084058 0.010456425 7.071068e-011 7.071068e-011 7.071068e-011 7.071068e-011
6776576576.5766 0.13529915 0.17843932 -0.0080593983 -0.013476328 7.071068e-011 7.071068e-011 7.071068e-011 7.071068e-011
6784984984.985 0.1502624 -0.14700472 0.01455766 -0.0040615085 7.071068e-011 7.071068e-011 7.071068e-011 7.071068e-011
6793393393.3934 -0.14767784 -0.005425611 -0.00029491971 0.015548186 7.071068e-011 7.071068e-011 7.071068e-011 7.071068e-011
6801801801.8018 0.10271174 0.20251484 -0.015749387 -0.0042691454 7.071068e-011 7.071068e-011 7.071068e-011 7.071068e-011
6810210210.2102 0.17176509 -0.095866539 0.0086471736 -0.014475035 7.071068e-011 7.071068e-011 7.071068e-011 7.071068e-011
6818618618.6186 -0.10580716 -0.0092803109 0.012211836 0.013209845 7.071068e-011 7.071068e-011 7.071068e-011 7.071068e-011
6827027027.027 0.088902734 0.18546535 -0.015961304 0.0092691639 7.071068e-011 7.071068e-011 7.071068e-011 7.071068e-011
6835435435.4354 0.18100707 -0.049580052 -0.00454213 -0.017911071 7.071068e-011 7.071068e-011 7.071068e-011 7.071068e-011
6843843843.8438 -0.045848124 -0.027285518 0.020195067 0.00020226318 7.071068e-011 7.071068e-011 7.071068e-011 7.071068e-011
6852252252.2523 0.075396121 0.12932087 -0.0045333793 0.020338522 7.071068e-011 7.071068e-011 7.071068e-011 7.071068e-011
6860660660.6607 0.14495477 -0.020735584 -0.018645803 -0.0095713045 7.071068e-011 7.071068e-011 7.071068e-011 7.071068e-011
6869069069.0691 0.0037599728 -0.026732109 0.014502252 -0.016161684 7.071068e-011 7.071068e-011 7.071068e-011 7.071068e-011
6877477477.4775 0.054415856 0.072786666 0.012754083 0.018083977 7.071068e-011 7.071068e-011 7.071068e-011 7.071068e-011
6885885885.8859 0.090363756 0.0065687886 -0.020461652 0.0077712275 7.071068e-011 7.071068e-011 7.071068e-011 7.071068e-011
6894294294.2943 0.047042053 -0.00090541021 -0.0023883712 -0.022047034 7.071068e-011 7.071068e-011 7.071068e-011 7.071068e-011
6902702702.7027 0.038262695 0.019444967 0.022034179 0.0031801062 7.071068e-011 7.071068e-011 7.071068e-011 7.071068e-011
6911111111.1111 0.031049754 0.037787415 -0.0087304516 0.020278038 7.071068e-011 7.071068e-011 7.071068e-011 7.071068e-011
6919519519.5195 0.078433372 0.049680784 -0.017017566 -0.013581528 7.071068e-011 7.071068e-011 7.071068e-011 7.071068e-011
6927927927.9279 0.050321974 -0.012366691 0.017224822 -0.012854685 7.071068e-011 7.071068e-011 7.071068e-011 7.071068e-011
6936336336.3363 -0.0019290916 0.062608384 0.0073374561 0.019488525 7.071068e-011 7.071068e-011 7.071068e-011 7.071068e-011
6944744744.7447 0.11270027 0.088973455 -0.020859022 0.0012081602 7.071068e-011 7.071068e-011 7.071068e-011 7.071068e-011
6953153153.1532 0.083797529 -0.045653019 0.0044303816 -0.020041535 7.071068e-011 7.071068e-011 7.071068e-011 7.071068e-011
6961561561.5616 -0.028235257 0.055037886 0.017401157 0.0099141942 7.071068e-011 7.071068e-011 7.071068e-011 7.071068e-011
6969969969.97 0.12523448 0.10556141 -0.014492703 0.013619129 7.071068e-011 7.071068e-011 7.071068e-011 7.071068e-011
6978378378.3784 0.10104682 -0.07122951 -0.0084594302 -0.017380819 7.071068e-011 7.071068e-011 7.071068e-011 7.071068e-011
6986786786.7868 -0.064116679 0.033653948 0.01874968 -0.0023594552 7.071068e-011 7.071068e-011 7.071068e-011 7.071068e-011
6995195195.1952 0.10380309 0.13351244 -0.0034962958 0.018950768 7.071068e-011 7.071068e-011 7.071068e-011 7.071068e-011
7003603603.6036 0.10814797 -0.058385085 -0.016662881 -0.0088590952 7.071068e-011 7.071068e-011 7.071068e-011 7.071068e-011
7012012012.012 -0.072765186 0.033361811 0.014102258 -0.012539881 7.071068e-011 7.071068e-011 7.071068e-011 7.071068e-011
7020420420.4204 0.088827267 0.16121636 0.0078726402 0.017321469 7.071068e-011 7.071068e-011 7.071068e-011 7.071068e-011
7028828828.8288 0.13208745 -0.029641567 -0.018552532 0.0019016112 7.071068e-011 7.071068e-011 7.071068e-011 7.071068e-011
7037237237.2372 -0.054363947 0.031505626 0.0043548527 -0.018696968 7.071068e-011 7.071068e-011 7.071068e-011 7.071068e-011
7045645645.6456 0.090941988 0.17093919 0.016502967 0.0097515788 7.071068e-011 7.071068e-011 7.071068e-011 7.071068e-011
7054054054.0541 0.16721502 -0.003853088 -0.014657042 0.012124 7.071068e-011 7.071068e-011 7.071068e-011 7.071068e-011
7062462462.4625 -0.0086267991 -0.003225921 -0.0069199195 -0.018475709 7.071068e-011 7.071068e-011 7.071068e-011 7.071068e-011
7070870870.8709 0.079072773 0.14049158 0.019793455 -0.0012715589 7.071068e-011 7.071068e-011 7.071068e-011 7.071068e-011
7079279279.2793 0.1681475 0.0067620282 -0.0054893331 0.018837938 7.071068e-011 7.071068e-011 7.071068e-011 7.071068e-011
7087687687.6877 0.032098968 -0.026562698 -0.016720161 -0.011447384 7.071068e-011 7.071068e-011 7.071068e-011 7.071068e-011
7096096096.0961 0.059962355 0.089550659 0.015912425 -0.012555563 7.071068e-011 7.071068e-011 7.071068e-011 7.071068e-011
7104504504.5045 0.14789234 0.009910305 0.0066132131 0.019148715 7.071068e-011 7.071068e-011 7.071068e-011 7.071068e-011
7112912912.9129 0.050378688 -0.044513799 -0.020680748 -6.0263501e-005 7.071068e-011 7.071068e-011 7.071068e-011 7.071068e-011
7121321321.3213 0.034695681 0.032285359 0.0062456531 -0.019903177 7.071068e-011 7.071068e-011 7.071068e-011 7.071068e-011
7129729729.7297 0.08947181 0.014091586 0.016523663 0.012038529 7.071068e-011 7.071068e-011 7.071068e-011 7.071068e-011
7138138138.1381 0.043086845 -0.037775155 -0.01717728 0.011790385 7.071068e-011 7.071068e-011 7.071068e-011 7.071068e-011
7146546546.5465 -0.00043201493 0.013839222 -0.0059354221 -0.020129647 7.071068e-011 7.071068e-011 7.071068e-011 7.071068e-011
7154954954.955 0.030812649 0.04130955 0.020842418 0.00076985295 7.071068e-011 7.071068e-011 7.071068e-011 7.071068e-011
7163363363.3634 0.044900704 0.015520965 -0.0075943843 0.01916231 7.071068e-011 7.071068e-011 7.071068e-011 7.071068e-011
7171771771.7718 0.00092473318 0.020457858 -0.015820209 -0.013438954 7.071068e-011 7.071068e-011 7.071068e-011 7.071068e-011
7180180180.1802 0.018762227 0.072676003 0.017614903 -0.010477034 7.071068e-011 7.071068e-011 7.071068e-011 7.071068e-011
7188588588.5886 0.067748949 0.055848911 0.0039732326 0.020468581 7.071068e-011 7.071068e-011 7.071068e-011 7.071068e-011
7196996996.997 0.039621335 0.01021996 -0.020656696 -0.002672402 7.071068e-011 7.071068e-011 7.071068e-011 7.071068e-011
7205405405.4054 0.012423852 0.06734933 0.0094890464 -0.018065741 7.071068e-011 7.071068e-011 7.071068e-011 7.071068e-011
7213813813.8138 0.083417028 0.067076564 0.013929453 0.01515948 7.071068e-011 7.071068e-011 7.071068e-011 7.071068e-011
7222222222.2222 0.065941215 -0.0056752306 -0.018979417 0.0083038928 7.071068e-011 7.071068e-011 7.071068e-011 7.071068e-011
7230630630.6306 -0.0013763857 0.035595614 -0.0015153023 -0.020519001 7.071068e-011 7.071068e-011 7.071068e-011 7.071068e-011
7239039039.039 0.07196591 0.075418942 0.020005204 0.005790588 7.071068e-011 7.071068e-011 7.071068e-011 7.071068e-011
7247447447.4474 0.0748799 -0.015049655 -0.011971204 0.017063325 7.071068e-011 7.071068e-011 7.071068e-011 7.071068e-011
7255855855.8559 -0.016665665 0.0077649313 -0.01167676 -0.01700422 7.071068e-011 7.071068e-011 7.071068e-011 7.071068e-011
7264264264.2643 0.035254255 0.08400058 0.020133799 -0.0054363101 7.071068e-011 7.071068e-011 7.071068e-011 7.071068e-011
7272672672.6727 0.074212663 0.00032365037 -0.0014315209 0.020583929 7.071068e-011 7.071068e-011 7.071068e-011 7.071068e-011
7281081081.0811 -0.030172102 0.0010780271 -0.018803062 -0.0083774785 7.071068e-011 7.071068e-011 7.071068e-011 7.071068e-011
7289489489.4895 0.00040456647 0.10782737 0.014648969 -0.014701527 7.071068e-011 7.071068e-011 7.071068e-011 7.071068e-011
7297897897.8979 0.084984683 0.050128516 0.0088969655 0.018821511 7.071068e-011 7.071068e-011 7.071068e-011 7.071068e-011
7306306306.3063 0.00056509831 0.0091262683 -0.020600874 0.0016700234 7.071068e-011 7.071068e-011 7.071068e-011 7.071068e-011
7314714714.7147 0.0045213457 0.11309525 0.0053191534 -0.020336162 7.071068e-011 7.071068e-011 7.071068e-011 7.071068e-011
7323123123.1231 0.1127376 0.074955344 0.017085891 0.011677801 7.071068e-011 7.071068e-011 7.071068e-011 7.071068e-011
7331531531.5315 0.050841711 -0.011747605 -0.017306361 0.011805339 7.071068e-011 7.071068e-011 7.071068e-011 7.071068e-011
7339939939.9399 0.0080687404 0.069029108 -0.0054131262 -0.020572122 7.071068e-011 7.071068e-011 7.071068e-011 7.071068e-011
7348348348.3483 0.10582013 0.063434944 0.020960553 0.0018433019 7.071068e-011 7.071068e-011 7.071068e-011 7.071068e-011
7356756756.7568 0.065729968 -0.03716984 -0.0091392007 0.018862996 7.071068e-011 7.071068e-011 7.071068e-011 7.071068e-011
7365165165.1652 -0.010191549 0.021395983 -0.014831408 -0.015160335 7.071068e-011 7.071068e-011 7.071068e-011 7.071068e-011
7373573573.5736 0.061959326 0.049550608 0.019004896 -0.0086674318 7.071068e-011 7.071068e-011 7.071068e-011 7.071068e-011
7381981981.982 0.043574825 -0.035557106 0.0011619334 0.021146785 7.071068e-011 7.071068e-011 7.071068e-011 7.071068e-011
7390390390.3904 -0.04308074 0.010029264 -0.020394841 -0.006081291 7.071068e-011 7.071068e-011 7.071068e-011 7.071068e-011
7398798798.7988 0.013256253 0.071114801 0.0128396 -0.016764238 7.071068e-011 7.071068e-011 7.071068e-011 7.071068e-011
7407207207.2072 0.027788451 0.0096102934 0.011284427 0.017962672 7.071068e-011 7.071068e-011 7.071068e-011 7.071068e-011
7415615615.6156 -0.041170973 0.035572566 -0.020887943 0.0044929613 7.071068e-011 7.071068e-011 7.071068e-011 7.071068e-011
7424024024.024 0.0070934896 0.10514101 0.0029722166 -0.021087157 7.071068e-011 7.071068e-011 7.071068e-011 7.071068e-011
7432432432.4324 0.054625969 0.053791218 0.018760955 0.0103486 7.071068e-011 7.071068e-011 7.071068e-011 7.071068e-011
7440840840.8408 0.0095321424 0.042601876 -0.016102711 0.014144463 7.071068e-011 7.071068e-011 7.071068e-011 7.071068e-011
7449249249.2492 0.03049694 0.087194875 -0.0074253464 -0.019863578 7.071068e-011 7.071068e-011 7.071068e-011 7.071068e-011
7457657657.6577 0.077888235 0.04882152 0.021295071 7.6608929e-005 7.071068e-011 7.071068e-011 7.071068e-011 7.071068e-011
7466066066.0661 0.041656673 0.014151109 -0.0074441358 0.019999953 7.071068e-011 7.071068e-011 7.071068e-011 7.071068e-011
7474474474.4745 0.030512365 0.039459862 -0.016025875 -0.013788098 7.071068e-011 7.071068e-011 7.071068e-011 7.071068e-011
7482882882.8829 0.060061932 0.029058004 0.018621825 -0.0098998612 7.071068e-011 7.071068e-011 7.071068e-011 7.071068e-011
7491291291.2913 0.038737468 -0.013525918 0.0027293209 0.020958122 7.071068e-011 7.071068e-011 7.071068e-011 7.071068e-011
7499699699.6997 -0.0033433724 0.0026643877 -0.020419039 -0.0048498893 7.071068e-011 7.071068e-011 7.071068e-011 7.071068e-011
7508108108.1081 0.0034902601 0.031878568 0.011688926 -0.017406236 7.071068e-011 7.071068e-011 7.071068e-011 7.071068e-011
7516516516.5165 0.01928282 0.011829739 0.012071285 0.016975138 7.071068e-011 7.071068e-011 7.071068e-011 7.071068e-011
7524924924.9249 -0.026487179 0.006654148 -0.020039879 0.0051811878 7.071068e-011 7.071068e-011 7.071068e-011 7.071068e-011
7533333333.3333 -0.029763319 0.066134997 0.0024680372 -0.020540897 7.071068e-011 7.071068e-011 7.071068e-011 7.071068e-011
7541741741.7417 0.028016739 0.068696856 0.018316988 0.0094294818 7.071068e-011 7.071068e-011 7.071068e-011 7.071068e-011
7550150150.1502 0.01266963 0.020520722 -0.015183955 0.013298668 7.071068e-011 7.071068e-011 7.071068e-011 7.071068e-011
7558558558.5586 -0.015210629 0.068793356 -0.0069462298 -0.019038795 7.071068e-011 7.071068e-011 7.071068e-011 7.071068e-011
7566966966.967 0.055800319 0.077855557 0.020048328 0.00040233904 7.071068e-011 7.071068e-011 7.071068e-011 7.071068e-011
7575375375.3754 0.053294837 0.00093002 -0.0078673409 0.018521737 7.071068e-011 7.071068e-011 7.071068e-011 7.071068e-011
7583783783.7838 -0.011871126 0.024284858 -0.014477985 -0.014048001 7.071068e-011 7.071068e-011 7.071068e-011 7.071068e-011
7592192192.1922 0.045732647 0.060598064 0.017993147 -0.008408484 7.071068e-011 7.071068e-011 7.071068e-011 7.071068e-011
7600600600.6006 0.051648412 -0.024555735 0.00095213618 0.019504776 7.071068e-011 7.071068e-011 7.071068e-011 7.071068e-011
7609009009.009 -0.038185928 -0.010505612 -0.018931514 -0.006471307 7.071068e-011 7.071068e-011 7.071068e-011 7.071068e-011
7617417417.4174 -0.00475513 0.058169194 0.012581923 -0.015393646 7.071068e-011 7.071068e-011 7.071068e-011 7.071068e-011
7625825825.8258 0.026225016 -0.0044807107 0.0095092086 0.017380834 7.071068e-011 7.071068e-011 7.071068e-011 7.071068e-011
7634234234.2342 -0.060848728 0.0043268166 -0.019578353 0.0025180641 7.071068e-011 7.071068e-011 7.071068e-011 7.071068e-011
7642642642.6426 -0.026270429 0.091657475 0.0049242824 -0.018953083 7.071068e-011 7.071068e-011 7.071068e-011 7.071068e-011
7651051051.0511 0.037441056 0.04224002 0.015820064 0.011673105 7.071068e-011 7.071068e-011 7.071068e-011 7.071068e-011
7659459459.4595 -0.030064253 0.018258063 -0.016773125 0.010759621 7.071068e-011 7.071068e-011 7.071068e-011 7.071068e-011
7667867867.8679 -0.011392027 0.10267668 -0.0039685871 -0.01913346 7.071068e-011 7.071068e-011 7.071068e-011 7.071068e-011
7676276276.2763 0.073983721 0.058735106 0.019138746 0.0038929908 7.071068e-011 7.071068e-011 7.071068e-011 7.071068e-011
7684684684.6847 0.021000531 -0.0038860803 -0.010723671 0.016680626 7.071068e-011 7.071068e-011 7.071068e-011 7.071068e-011
7693093093.0931 0.00086710701 0.054735791 -0.011550017 -0.015954411 7.071068e-011 7.071068e-011 7.071068e-011 7.071068e-011
7701501501.5015 0.071211256 0.032280885 0.019040689 -0.0049135648 7.071068e-011 7.071068e-011 7.071068e-011 7.071068e-011
7709909909.9099 0.023044139 -0.042448081 -0.0025361567 0.019563535 7.071068e-011 7.071068e-011 7.071068e-011 7.071068e-011
7718318318.3183 -0.033057511 0.011089314 -0.017293697 -0.0095433416 7.071068e-011 7.071068e-011 7.071068e-011 7.071068e-011
7726726726.7267 0.02458482 0.027724352 0.015428256 -0.012323334 7.071068e-011 7.071068e-011 7.071068e-011 7.071068e-011
7735135135.1351 0.002727109 -0.041493163 0.0060285395 0.018971944 7.071068e-011 7.071068e-011 7.071068e-011 7.071068e-011
7743543543.5435 -0.075167492 2.4385645e-005 -0.019581698 -0.0013803379 7.071068e-011 7.071068e-011 7.071068e-011 7.071068e-011
7751951951.952 -0.030061694 0.064330764 0.0086598201 -0.017754555 7.071068e-011 7.071068e-011 7.071068e-011 7.071068e-011
7760360360.3604 -0.0028058167 0.017142801 0.013329997 0.014622192 7.071068e-011 7.071068e-011 7.071068e-011 7.071068e-011
7768768768.7688 -0.058475472 0.02867447 -0.01858094 0.0069668335 7.071068e-011 7.071068e-011 7.071068e-011 7.071068e-011
7777177177.1772 -0.027049536 0.095558397 0.00051248388 -0.01975554 7.071068e-011 7.071068e-011 7.071068e-011 7.071068e-011
7785585585.5856 0.033804931 0.057874065 0.018193379 0.0077599003 7.071068e-011 7.071068e-011 7.071068e-011 7.071068e-011
7793993993.994 -0.0057251337 0.02781846 -0.013879003 0.013783602 7.071068e-011 7.071068e-011 7.071068e-011 7.071068e-011
7802402402.4024 -0.00041598734 0.075100265 -0.0076653413 -0.01837606 7.071068e-011 7.071068e-011 7.071068e-011 7.071068e-011
7810810810.8108 0.058179881 0.04877159 0.019808892 -0.00054095453 7.071068e-011 7.071068e-011 7.071068e-011 7.071068e-011
7819219219.2192 0.025740946 -0.0064435997 -0.0070733093 0.0183986 7.071068e-011 7.071068e-011 7.071068e-011 7.071068e-011
7827627627.6276 -0.003524045 0.027116194 -0.014491808 -0.013427171 7.071068e-011 7.071068e-011 7.071068e-011 7.071068e-011
7836036036.036 0.037634891 0.025610533 0.01783454 -0.0084373988 7.071068e-011 7.071068e-011 7.071068e-011 7.071068e-011
7844444444.4444 0.016374778 -0.023766909 0.0012051088 0.019748883 7.071068e-011 7.071068e-011 7.071068e-011 7.071068e-011
7852852852.8529 -0.028260546 0.0030961237 -0.018867014 -0.006289802 7.071068e-011 7.071068e-011 7.071068e-011 7.071068e-011
7861261261.2613 0.0018090849 0.029526185 0.012732909 -0.015135745 7.071068e-011 7.071068e-011 7.071068e-011 7.071068e-011
7869669669.6697 0.0054843472 -0.0094145946 0.0091067543 0.017569341 7.071068e-011 7.071068e-011 7.071068e-011 7.071068e-011
7878078078.0781 -0.040601317 0.003504124 -0.019844037 0.0020576075 7.071068e-011 7.071068e-011 7.071068e-011 7.071068e-011
7886486486.4865 -0.024209477 0.047031958 0.0053027933 -0.019079644 7.071068e-011 7.071068e-011 7.071068e-011 7.071068e-011
7894894894.8949 0.010859952 0.0300717 0.015494779 0.011941656 7.071068e-011 7.071068e-011 7.071068e-011 7.071068e-011
7903303303.3033 -0.013642241 0.011215235 -0.017078498 0.0097933467 7.071068e-011 7.071068e-011 7.071068e-011 7.071068e-011
7911711711.7117 -0.017768176 0.043994002 -0.00286145 -0.019497124 7.071068e-011 7.071068e-011 7.071068e-011 7.071068e-011
7920120120.1201 0.023149982 0.044897035 0.018957017 0.0046545905 7.071068e-011 7.071068e-011 7.071068e-011 7.071068e-011
7928528528.5285 0.02355893 0.0018473526 -0.011411048 0.015804645 7.071068e-011 7.071068e-011 7.071068e-011 7.071068e-011
7936936936.9369 -0.010080276 0.011371897 -0.01024783 -0.016374042 7.071068e-011 7.071068e-011 7.071068e-011 7.071068e-011
7945345345.3453 0.018091042 0.032125171 0.019055232 -0.0031796615 7.071068e-011 7.071068e-011 7.071068e-011 7.071068e-011
