!Keysight Technologies,N5235B,MY61252044,A.15.00.15
!Date: Friday, January 20, 2023 18:33:38
!Correction: S11(Off) 
!S21(Off) 
!S12(Off) 
!S22(Off) 
!S2P File: Measurements: S11, S21, S12, S22:
# Hz S  RI   R 50
6600000000 0.01668071 -0.17426848 0.014915172 -0.0052130977 7.071068e-011 7.071068e-011 7.071068e-011 7.071068e-011
6608400000 -0.12332292 0.16681892 0.0067827068 0.01001552 7.071068e-011 7.071068e-011 7.071068e-011 7.071068e-011
6616800000 0.3069652 0.091309585 -0.0083340351 0.0048728376 7.071068e-011 7.071068e-011 7.071068e-011 7.071068e-011
6625200000 0.023280332 -0.27297345 -0.0029908617 -0.0090015465 7.071068e-011 7.071068e-011 7.071068e-011 7.071068e-011
6633600000 -0.16559051 0.16184372 0.009211625 -0.0015884863 7.071068e-011 7.071068e-011 7.071068e-011 7.071068e-011
6642000000 0.29049626 0.11362029 -0.00068127085 0.0094558718 7.071068e-011 7.071068e-011 7.071068e-011 7.071068e-011
6650400000 0.039361876 -0.25278744 -0.01111796 -0.0027956609 7.071068e-011 7.071068e-011 7.071068e-011 7.071068e-011
6658800000 -0.14904682 0.13372596 0.0046119555 -0.012104163 7.071068e-011 7.071068e-011 7.071068e-011 7.071068e-011
6667200000 0.22822684 0.10328163 0.013085802 0.0077417255 7.071068e-011 7.071068e-011 7.071068e-011 7.071068e-011
6675600000 0.04425633 -0.15281084 -0.01004272 0.014894187 7.071068e-011 7.071068e-011 7.071068e-011 7.071068e-011
6684000000 -0.045398407 0.084301822 -0.015859859 -0.011862689 7.071068e-011 7.071068e-011 7.071068e-011 7.071068e-011
6692400000 0.10561561 0.048499249 0.013297546 -0.01627369 7.071068e-011 7.071068e-011 7.071068e-011 7.071068e-011
6700800000 0.086036712 0.017050765 0.016068079 0.01401135 7.071068e-011 7.071068e-011 7.071068e-011 7.071068e-011
6709200000 0.077757969 -0.039967887 -0.014433888 0.014427669 7.071068e-011 7.071068e-011 7.071068e-011 7.071068e-011
6717600000 -0.031255715 0.031921707 -0.011524315 -0.015618853 7.071068e-011 7.071068e-011 7.071068e-011 7.071068e-011
6726000000 0.15302777 0.11780292 0.016188858 -0.0084154839 7.071068e-011 7.071068e-011 7.071068e-011 7.071068e-011
6734400000 0.1315854 -0.13861857 0.0047944812 0.015936617 7.071068e-011 7.071068e-011 7.071068e-011 7.071068e-011
6742800000 -0.10804398 0.022019768 -0.015925987 0.00089350005 7.071068e-011 7.071068e-011 7.071068e-011 7.071068e-011
6751200000 0.16751254 0.155596 0.0025712072 -0.01561656 7.071068e-011 7.071068e-011 7.071068e-011 7.071068e-011
6759600000 0.15566489 -0.16885141 0.013636042 0.0062170764 7.071068e-011 7.071068e-011 7.071068e-011 7.071068e-011
6768000000 -0.14683992 -0.011755273 -0.010204113 0.011043454 7.071068e-011 7.071068e-011 7.071068e-011 7.071068e-011
6776400000 0.12879837 0.18182129 -0.0087430654 -0.013012843 7.071068e-011 7.071068e-011 7.071068e-011 7.071068e-011
6784800000 0.15653598 -0.14225417 0.014314268 -0.0047892812 7.071068e-011 7.071068e-011 7.071068e-011 7.071068e-011
6793200000 -0.14661267 -0.014355004 0.00041275783 0.015506391 7.071068e-011 7.071068e-011 7.071068e-011 7.071068e-011
6801600000 0.09509483 0.20566058 -0.015911367 -0.0036191116 7.071068e-011 7.071068e-011 7.071068e-011 7.071068e-011
6810000000 0.1770332 -0.090454191 0.0081165973 -0.01478467 7.071068e-011 7.071068e-011 7.071068e-011 7.071068e-011
6818400000 -0.10300727 -0.017677121 0.012561303 0.012776102 7.071068e-011 7.071068e-011 7.071068e-011 7.071068e-011
6826800000 0.08051499 0.18789965 -0.015658109 0.0096654054 7.071068e-011 7.071068e-011 7.071068e-011 7.071068e-011
6835200000 0.18560448 -0.044460565 -0.0049593733 -0.017763013 7.071068e-011 7.071068e-011 7.071068e-011 7.071068e-011
6843600000 -0.042614292 -0.033146963 0.020184446 -0.00018180245 7.071068e-011 7.071068e-011 7.071068e-011 7.071068e-011
6852000000 0.068576887 0.13013546 -0.0042237006 0.020395447 7.071068e-011 7.071068e-011 7.071068e-011 7.071068e-011
6860400000 0.14843662 -0.016612815 -0.018715095 -0.0093605481 7.071068e-011 7.071068e-011 7.071068e-011 7.071068e-011
6868800000 0.0059938198 -0.030182999 0.014391325 -0.016196584 7.071068e-011 7.071068e-011 7.071068e-011 7.071068e-011
6877200000 0.050792549 0.072548412 0.012768129 0.018070748 7.071068e-011 7.071068e-011 7.071068e-011 7.071068e-011
6885600000 0.091967523 0.0087175062 -0.020460041 0.0077516814 7.071068e-011 7.071068e-011 7.071068e-011 7.071068e-011
6894000000 0.047668274 -0.0018351944 -0.0022317201 -0.022049781 7.071068e-011 7.071068e-011 7.071068e-011 7.071068e-011
6902400000 0.03834324 0.019277077 0.021992166 0.003439429 7.071068e-011 7.071068e-011 7.071068e-011 7.071068e-011
6910800000 0.030958906 0.036198545 -0.0090427669 0.020131389 7.071068e-011 7.071068e-011 7.071068e-011 7.071068e-011
6919200000 0.076557875 0.051466741 -0.016756311 -0.013890802 7.071068e-011 7.071068e-011 7.071068e-011 7.071068e-011
6927600000 0.053598136 -0.011688991 0.017529633 -0.012465767 7.071068e-011 7.071068e-011 7.071068e-011 7.071068e-011
6936000000 -0.0030961256 0.05775471 0.0068545588 0.019704252 7.071068e-011 7.071068e-011 7.071068e-011 7.071068e-011
6944400000 0.10808288 0.093162276 -0.020889537 0.00056436023 7.071068e-011 7.071068e-011 7.071068e-011 7.071068e-011
6952800000 0.090073764 -0.043362226 0.00512806 -0.019881753 7.071068e-011 7.071068e-011 7.071068e-011 7.071068e-011
6961200000 -0.029076755 0.047642127 0.01700242 0.010577091 7.071068e-011 7.071068e-011 7.071068e-011 7.071068e-011
6969600000 0.11804995 0.11055273 -0.01507856 0.012982777 7.071068e-011 7.071068e-011 7.071068e-011 7.071068e-011
6978000000 0.10985719 -0.066706255 -0.0076738219 -0.017749824 7.071068e-011 7.071068e-011 7.071068e-011 7.071068e-011
6986400000 -0.063904539 0.023367424 0.018832531 -0.0014486618 7.071068e-011 7.071068e-011 7.071068e-011 7.071068e-011
6994800000 0.094528884 0.13780209 -0.0045602545 0.018744864 7.071068e-011 7.071068e-011 7.071068e-011 7.071068e-011
7003200000 0.11714593 -0.051798452 -0.016146492 -0.0098614832 7.071068e-011 7.071068e-011 7.071068e-011 7.071068e-011
7011600000 -0.071381286 0.021413269 0.014812523 -0.011612569 7.071068e-011 7.071068e-011 7.071068e-011 7.071068e-011
7020000000 0.078132905 0.16479184 0.0066934759 0.01779465 7.071068e-011 7.071068e-011 7.071068e-011 7.071068e-011
7028400000 0.13966271 -0.021617377 -0.018630244 0.00062179967 7.071068e-011 7.071068e-011 7.071068e-011 7.071068e-011
7036800000 -0.050955739 0.019806024 0.0057642991 -0.018297257 7.071068e-011 7.071068e-011 7.071068e-011 7.071068e-011
7045200000 0.078938946 0.1730722 0.015698396 0.011045669 7.071068e-011 7.071068e-011 7.071068e-011 7.071068e-011
7053600000 0.17291316 0.0058606216 -0.015576715 0.010861508 7.071068e-011 7.071068e-011 7.071068e-011 7.071068e-011
7062000000 -0.002825482 -0.012581201 -0.0052378061 -0.01898306 7.071068e-011 7.071068e-011 7.071068e-011 7.071068e-011
7070400000 0.068396233 0.1402562 0.019851638 0.00055689638 7.071068e-011 7.071068e-011 7.071068e-011 7.071068e-011
7078800000 0.17133638 0.015997168 -0.0072038313 0.018195225 7.071068e-011 7.071068e-011 7.071068e-011 7.071068e-011
7087200000 0.038703103 -0.032370411 -0.015442082 -0.013060116 7.071068e-011 7.071068e-011 7.071068e-011 7.071068e-011
7095600000 0.052130289 0.08739119 0.017181292 -0.010845035 7.071068e-011 7.071068e-011 7.071068e-011 7.071068e-011
7104000000 0.14884578 0.017366314 0.0045189108 0.019753862 7.071068e-011 7.071068e-011 7.071068e-011 7.071068e-011
7112400000 0.056674283 -0.046485644 -0.020486923 -0.0023565518 7.071068e-011 7.071068e-011 7.071068e-011 7.071068e-011
7120800000 0.030969111 0.028438481 0.0085316077 -0.019009931 7.071068e-011 7.071068e-011 7.071068e-011 7.071068e-011
7129200000 0.089066207 0.018833708 0.014968782 0.013929876 7.071068e-011 7.071068e-011 7.071068e-011 7.071068e-011
7137600000 0.047444195 -0.037986625 -0.018517343 0.0095470324 7.071068e-011 7.071068e-011 7.071068e-011 7.071068e-011
7146000000 -0.00014022196 0.009674781 -0.0033019278 -0.020745251 7.071068e-011 7.071068e-011 7.071068e-011 7.071068e-011
7154400000 0.0281565 0.041932419 0.02053321 0.0035202783 7.071068e-011 7.071068e-011 7.071068e-011 7.071068e-011
7162800000 0.04628285 0.017077798 -0.010116834 0.017910933 7.071068e-011 7.071068e-011 7.071068e-011 7.071068e-011
7171200000 0.0033266023 0.017879866 -0.013768117 -0.015556472 7.071068e-011 7.071068e-011 7.071068e-011 7.071068e-011
7179600000 0.014847993 0.070181541 0.018977799 -0.0078849047 7.071068e-011 7.071068e-011 7.071068e-011 7.071068e-011
7188000000 0.066374503 0.059791572 0.00087024708 0.020812022 7.071068e-011 7.071068e-011 7.071068e-011 7.071068e-011
7196400000 0.043816 0.010300123 -0.019994631 -0.005818252 7.071068e-011 7.071068e-011 7.071068e-011 7.071068e-011
7204800000 0.010101824 0.062578112 0.012154952 -0.016328208 7.071068e-011 7.071068e-011 7.071068e-011 7.071068e-011
7213200000 0.0790812 0.071520425 0.011315459 0.017180799 7.071068e-011 7.071068e-011 7.071068e-011 7.071068e-011
7221600000 0.071750924 -0.0027086632 -0.02012483 0.0050907806 7.071068e-011 7.071068e-011 7.071068e-011 7.071068e-011
7230000000 -0.00081015204 0.028766856 0.0019381108 -0.02051335 7.071068e-011 7.071068e-011 7.071068e-011 7.071068e-011
7238400000 0.064987227 0.078633629 0.018660586 0.0091547212 7.071068e-011 7.071068e-011 7.071068e-011 7.071068e-011
7246800000 0.081016012 -0.0094983196 -0.014824398 0.014643417 7.071068e-011 7.071068e-011 7.071068e-011 7.071068e-011
7255200000 -0.01295128 0.00015828412 -0.0084275454 -0.018782381 7.071068e-011 7.071068e-011 7.071068e-011 7.071068e-011
7263600000 0.02697237 0.083999962 0.020772299 -0.0016354898 7.071068e-011 7.071068e-011 7.071068e-011 7.071068e-011
7272000000 0.078645684 0.0079689752 -0.0052634678 0.019967066 7.071068e-011 7.071068e-011 7.071068e-011 7.071068e-011
7280400000 -0.023633668 -0.0062557701 -0.016844723 -0.011870412 7.071068e-011 7.071068e-011 7.071068e-011 7.071068e-011
7288800000 -0.0088280868 0.1032734 0.017253483 -0.011474973 7.071068e-011 7.071068e-011 7.071068e-011 7.071068e-011
7297200000 0.084916912 0.059684355 0.0049014557 0.020200979 7.071068e-011 7.071068e-011 7.071068e-011 7.071068e-011
7305600000 0.0085770348 0.0045282817 -0.020469261 -0.0025295371 7.071068e-011 7.071068e-011 7.071068e-011 7.071068e-011
7314000000 -0.0038622688 0.10626629 0.0094499597 -0.018790267 7.071068e-011 7.071068e-011 7.071068e-011 7.071068e-011
7322400000 0.108684 0.085538648 0.014253236 0.015029334 7.071068e-011 7.071068e-011 7.071068e-011 7.071068e-011
7330800000 0.060352985 -0.011675383 -0.019409675 0.0077113891 7.071068e-011 7.071068e-011 7.071068e-011 7.071068e-011
7339200000 0.0040291939 0.060783207 -0.00067562814 -0.021252044 7.071068e-011 7.071068e-011 7.071068e-011 7.071068e-011
7347600000 0.099254347 0.072182126 0.020016544 0.006486454 7.071068e-011 7.071068e-011 7.071068e-011 7.071068e-011
7356000000 0.07598599 -0.033717964 -0.013124003 0.016228525 7.071068e-011 7.071068e-011 7.071068e-011 7.071068e-011
7364400000 -0.010162923 0.012533589 -0.010840494 -0.018186696 7.071068e-011 7.071068e-011 7.071068e-011 7.071068e-011
7372800000 0.054766782 0.054657396 0.02057671 -0.0039472431 7.071068e-011 7.071068e-011 7.071068e-011 7.071068e-011
7381200000 0.052876994 -0.030904774 -0.0039637336 0.020767272 7.071068e-011 7.071068e-011 7.071068e-011 7.071068e-011
7389600000 -0.040824264 0.00058730785 -0.018243626 -0.010891257 7.071068e-011 7.071068e-011 7.071068e-011 7.071068e-011
7398000000 0.0054682773 0.07198596 0.016555248 -0.013018328 7.071068e-011 7.071068e-011 7.071068e-011 7.071068e-011
7406400000 0.03306058 0.014884167 0.0063717016 0.02020999 7.071068e-011 7.071068e-011 7.071068e-011 7.071068e-011
7414800000 -0.038107157 0.02722319 -0.021338904 -0.0010324493 7.071068e-011 7.071068e-011 7.071068e-011 7.071068e-011
7423200000 -0.0016697558 0.1036884 0.0083589647 -0.019579707 7.071068e-011 7.071068e-011 7.071068e-011 7.071068e-011
7431600000 0.055600666 0.060522888 0.015267082 0.0149167 7.071068e-011 7.071068e-011 7.071068e-011 7.071068e-011
7440000000 0.013233894 0.038466949 -0.019332444 0.0092564579 7.071068e-011 7.071068e-011 7.071068e-011 7.071068e-011
7448400000 0.024181314 0.08558137 -0.0017450461 -0.021126984 7.071068e-011 7.071068e-011 7.071068e-011 7.071068e-011
7456800000 0.077411629 0.055383027 0.020410122 0.00594112 7.071068e-011 7.071068e-011 7.071068e-011 7.071068e-011
7465200000 0.046148971 0.013914219 -0.012752235 0.017073466 7.071068e-011 7.071068e-011 7.071068e-011 7.071068e-011
7473600000 0.028514534 0.036958311 -0.01142293 -0.017784834 7.071068e-011 7.071068e-011 7.071068e-011 7.071068e-011
7482000000 0.058436424 0.033292308 0.020645747 -0.0040843249 7.071068e-011 7.071068e-011 7.071068e-011 7.071068e-011
7490400000 0.043598324 -0.010934046 -0.0035218881 0.020822302 7.071068e-011 7.071068e-011 7.071068e-011 7.071068e-011
7498800000 -0.00078439643 -0.0014288984 -0.018046422 -0.010630935 7.071068e-011 7.071068e-011 7.071068e-011 7.071068e-011
7507200000 0.00057553995 0.030877102 0.016360166 -0.013055135 7.071068e-011 7.071068e-011 7.071068e-011 7.071068e-011
7515600000 0.02060581 0.015392837 0.0063238889 0.019841226 7.071068e-011 7.071068e-011 7.071068e-011 7.071068e-011
7524000000 -0.021015391 0.0031081082 -0.020656347 -0.0012768336 7.071068e-011 7.071068e-011 7.071068e-011 7.071068e-011
7532400000 -0.034188297 0.060094453 0.0087301638 -0.018711735 7.071068e-011 7.071068e-011 7.071068e-011 7.071068e-011
7540800000 0.022822862 0.073254451 0.01439206 0.014720741 7.071068e-011 7.071068e-011 7.071068e-011 7.071068e-011
7549200000 0.019438231 0.02228583 -0.018570069 0.0077785528 7.071068e-011 7.071068e-011 7.071068e-011 7.071068e-011
7557600000 -0.018415598 0.06111582 -0.00036597252 -0.020247871 7.071068e-011 7.071068e-011 7.071068e-011 7.071068e-011
7566000000 0.047928259 0.083519563 0.018841686 0.0069530406 7.071068e-011 7.071068e-011 7.071068e-011 7.071068e-011
7574400000 0.060871236 0.0078583881 -0.013520837 0.01484778 7.071068e-011 7.071068e-011 7.071068e-011 7.071068e-011
7582800000 -0.0098921387 0.015388631 -0.0088670151 -0.018019596 7.071068e-011 7.071068e-011 7.071068e-011 7.071068e-011
7591200000 0.036675505 0.064404175 0.019755011 -0.0017770971 7.071068e-011 7.071068e-011 7.071068e-011 7.071068e-011
7599600000 0.059236921 -0.015121623 -0.0057244245 0.018661775 7.071068e-011 7.071068e-011 7.071068e-011 7.071068e-011
7608000000 -0.03107184 -0.020542171 -0.015461568 -0.012641277 7.071068e-011 7.071068e-011 7.071068e-011 7.071068e-011
7616400000 -0.014865553 0.056810163 0.017210852 -0.010007868 7.071068e-011 7.071068e-011 7.071068e-011 7.071068e-011
7624800000 0.031477634 0.004949152 0.0026773142 0.019554405 7.071068e-011 7.071068e-011 7.071068e-011 7.071068e-011
7633200000 -0.052743696 -0.0061386693 -0.019118736 -0.0046742545 7.071068e-011 7.071068e-011 7.071068e-011 7.071068e-011
7641600000 -0.038235791 0.086836927 0.011412481 -0.01586088 7.071068e-011 7.071068e-011 7.071068e-011 7.071068e-011
7650000000 0.037725434 0.053100355 0.010466337 0.016599376 7.071068e-011 7.071068e-011 7.071068e-011 7.071068e-011
7658400000 -0.020932045 0.011685088 -0.019529415 0.0037350783 7.071068e-011 7.071068e-011 7.071068e-011 7.071068e-011
7666800000 -0.022812054 0.095894083 0.0034737394 -0.019258518 7.071068e-011 7.071068e-011 7.071068e-011 7.071068e-011
7675200000 0.069694228 0.071639284 0.016144399 0.010768569 7.071068e-011 7.071068e-011 7.071068e-011 7.071068e-011
7683600000 0.031864576 -0.0041395593 -0.016269447 0.011248399 7.071068e-011 7.071068e-011 7.071068e-011 7.071068e-011
7692000000 -0.0052323421 0.047049828 -0.0045453459 -0.019141715 7.071068e-011 7.071068e-011 7.071068e-011 7.071068e-011
7700400000 0.065821342 0.043739017 0.019446202 0.0028442279 7.071068e-011 7.071068e-011 7.071068e-011 7.071068e-011
7708800000 0.035583369 -0.039741773 -0.010008988 0.016925868 7.071068e-011 7.071068e-011 7.071068e-011 7.071068e-011
7717200000 -0.033643778 0.0007853178 -0.012010633 -0.015641181 7.071068e-011 7.071068e-011 7.071068e-011 7.071068e-011
7725600000 0.016908891 0.033808596 0.018996187 -0.0050950074 7.071068e-011 7.071068e-011 7.071068e-011 7.071068e-011
7734000000 0.014058278 -0.035700064 -0.0021585773 0.01975107 7.071068e-011 7.071068e-011 7.071068e-011 7.071068e-011
7742400000 -0.070814341 -0.012229083 -0.017280076 -0.0091820164 7.071068e-011 7.071068e-011 7.071068e-011 7.071068e-011
7750800000 -0.040501073 0.062488351 0.015223088 -0.012538633 7.071068e-011 7.071068e-011 7.071068e-011 7.071068e-011
7759200000 0.0015203909 0.025181454 0.0060150232 0.018885927 7.071068e-011 7.071068e-011 7.071068e-011 7.071068e-011
7767600000 -0.053419147 0.019556362 -0.019766541 -0.0014881643 7.071068e-011 7.071068e-011 7.071068e-011 7.071068e-011
7776000000 -0.037708212 0.090969309 0.0087653631 -0.017607538 7.071068e-011 7.071068e-011 7.071068e-011 7.071068e-011
7784400000 0.031460073 0.068020195 0.013092501 0.01477777 7.071068e-011 7.071068e-011 7.071068e-011 7.071068e-011
7792800000 0.001231301 0.024784308 -0.018465074 0.0065208911 7.071068e-011 7.071068e-011 7.071068e-011 7.071068e-011
7801200000 -0.0076379147 0.07028912 0.0011080101 -0.019844765 7.071068e-011 7.071068e-011 7.071068e-011 7.071068e-011
7809600000 0.053184129 0.058445666 0.018037679 0.0082278606 7.071068e-011 7.071068e-011 7.071068e-011 7.071068e-011
7818000000 0.035263628 -0.0043577291 -0.014420639 0.013310105 7.071068e-011 7.071068e-011 7.071068e-011 7.071068e-011
7826400000 -0.0055500539 0.020921405 -0.0069745369 -0.018447956 7.071068e-011 7.071068e-011 7.071068e-011 7.071068e-011
7834800000 0.032624003 0.031565432 0.019718328 0.00046228265 7.071068e-011 7.071068e-011 7.071068e-011 7.071068e-011
7843200000 0.025239259 -0.019708401 -0.0078660464 0.018149309 7.071068e-011 7.071068e-011 7.071068e-011 7.071068e-011
7851600000 -0.026806111 -0.0045770491 -0.013848763 -0.0141936 7.071068e-011 7.071068e-011 7.071068e-011 7.071068e-011
7860000000 -0.0041000252 0.030781649 0.018271159 -0.0075598932 7.071068e-011 7.071068e-011 7.071068e-011 7.071068e-011
7868400000 0.010381942 -0.0035578094 -7.9058445e-005 0.019716794 7.071068e-011 7.071068e-011 7.071068e-011 7.071068e-011
7876800000 -0.036276657 -0.0037889089 -0.018465452 -0.0074926964 7.071068e-011 7.071068e-011 7.071068e-011 7.071068e-011
7885200000 -0.030516131 0.04351759 0.013670717 -0.014326177 7.071068e-011 7.071068e-011 7.071068e-011 7.071068e-011
7893600000 0.0088630598 0.036123388 0.0079755755 0.017858971 7.071068e-011 7.071068e-011 7.071068e-011 7.071068e-011
7902000000 -0.0083448188 0.0093162637 -0.019644029 0.0003742734 7.071068e-011 7.071068e-011 7.071068e-011 7.071068e-011
7910400000 -0.021380456 0.039101467 0.0069479872 -0.018492814 7.071068e-011 7.071068e-011 7.071068e-011 7.071068e-011
7918800000 0.017126365 0.048990693 0.014326049 0.013217368 7.071068e-011 7.071068e-011 7.071068e-011 7.071068e-011
7927200000 0.028563006 0.007377164 -0.017658766 0.0081676887 7.071068e-011 7.071068e-011 7.071068e-011 7.071068e-011
7935600000 -0.008031439 0.0058512199 -0.00082790363 -0.019320181 7.071068e-011 7.071068e-011 7.071068e-011 7.071068e-011
7944000000 0.011015577 0.033223644 0.018138014 0.0066975006 7.071068e-011 7.071068e-011 7.071068e-011 7.071068e-011
7952400000 0.037516244 -0.005657088 -0.013124933 0.014201644 7.071068e-011 7.071068e-011 7.071068e-011 7.071068e-011
7960800000 -0.015083116 -0.0333413 -0.0082499664 -0.017461425 7.071068e-011 7.071068e-011 7.071068e-011 7.071068e-011
7969200000 -0.029161874 0.020854775 0.018998673 -0.00088580314 7.071068e-011 7.071068e-011 7.071068e-011 7.071068e-011
7977600000 0.020028817 0.0067888414 -0.0065526492 0.017885018 7.071068e-011 7.071068e-011 7.071068e-011 7.071068e-011
7986000000 -0.024264382 -0.039744291 -0.014053529 -0.012838019 7.071068e-011 7.071068e-011 7.071068e-011 7.071068e-011
7994400000 -0.065358631 0.024851155 0.017139846 -0.0081099942 7.071068e-011 7.071068e-011 7.071068e-011 7.071068e-011
