!Keysight Technologies,N5235B,MY61252044,A.15.00.15
!Date: Friday, January 20, 2023 18:25:49
!Correction: S11(Off) 
!S21(Off) 
!S12(Off) 
!S22(Off) 
!S2P File: Measurements: S11, S21, S12, S22:
# Hz S  RI   R 50
6600000000 0.016379558 -0.17407854 0.014882893 -0.0053894441 7.071068e-011 7.071068e-011 7.071068e-011 7.071068e-011
6608400000 -0.12305976 0.16725659 0.0069059734 0.0099513177 7.071068e-011 7.071068e-011 7.071068e-011 7.071068e-011
6616800000 0.30733854 0.090727583 -0.0082946541 0.004973304 7.071068e-011 7.071068e-011 7.071068e-011 7.071068e-011
6625200000 0.022447856 -0.27300349 -0.0030970662 -0.0089776302 7.071068e-011 7.071068e-011 7.071068e-011 7.071068e-011
6633600000 -0.16513902 0.16253978 0.0092058005 -0.0016991872 7.071068e-011 7.071068e-011 7.071068e-011 7.071068e-011
6642000000 0.29080799 0.11293772 -0.00056940247 0.0094727166 7.071068e-011 7.071068e-011 7.071068e-011 7.071068e-011
6650400000 0.038689326 -0.25271627 -0.011158163 -0.0026725007 7.071068e-011 7.071068e-011 7.071068e-011 7.071068e-011
6658800000 -0.14876233 0.13410962 0.0044816365 -0.012162887 7.071068e-011 7.071068e-011 7.071068e-011 7.071068e-011
6667200000 0.22850199 0.10305502 0.013181546 0.0076054502 7.071068e-011 7.071068e-011 7.071068e-011 7.071068e-011
6675600000 0.043836195 -0.15311101 -0.009899348 0.015020409 7.071068e-011 7.071068e-011 7.071068e-011 7.071068e-011
6684000000 -0.045280982 0.084853306 -0.016024178 -0.011703495 7.071068e-011 7.071068e-011 7.071068e-011 7.071068e-011
6692400000 0.10575693 0.048159413 0.013119627 -0.016450081 7.071068e-011 7.071068e-011 7.071068e-011 7.071068e-011
6700800000 0.085929096 0.017151553 0.016249962 0.013842675 7.071068e-011 7.071068e-011 7.071068e-011 7.071068e-011
6709200000 0.077730499 -0.040183574 -0.014281473 0.014610363 7.071068e-011 7.071068e-011 7.071068e-011 7.071068e-011
6717600000 -0.031379972 0.032391682 -0.011724723 -0.01549494 7.071068e-011 7.071068e-011 7.071068e-011 7.071068e-011
6726000000 0.15348682 0.11740115 0.016098201 -0.0086128358 7.071068e-011 7.071068e-011 7.071068e-011 7.071068e-011
6734400000 0.13101684 -0.13866791 0.0049751475 0.015896952 7.071068e-011 7.071068e-011 7.071068e-011 7.071068e-011
6742800000 -0.10783403 0.02239568 -0.015933763 0.0010699762 7.071068e-011 7.071068e-011 7.071068e-011 7.071068e-011
6751200000 0.16775 0.15540195 0.0023925807 -0.015667869 7.071068e-011 7.071068e-011 7.071068e-011 7.071068e-011
6759600000 0.1554224 -0.16914533 0.013726489 0.0060681766 7.071068e-011 7.071068e-011 7.071068e-011 7.071068e-011
6768000000 -0.14708239 -0.01128054 -0.010093511 0.01117985 7.071068e-011 7.071068e-011 7.071068e-011 7.071068e-011
6776400000 0.1294388 0.18172371 -0.0089053474 -0.01292822 7.071068e-011 7.071068e-011 7.071068e-011 7.071068e-011
6784800000 0.1560384 -0.14274928 0.014274788 -0.0049697915 7.071068e-011 7.071068e-011 7.071068e-011 7.071068e-011
6793200000 -0.14669809 -0.013702914 0.00060442032 0.015512142 7.071068e-011 7.071068e-011 7.071068e-011 7.071068e-011
6801600000 0.095592164 0.20538379 -0.015963105 -0.0034323549 7.071068e-011 7.071068e-011 7.071068e-011 7.071068e-011
6810000000 0.17663409 -0.090649843 0.0079544866 -0.014878384 7.071068e-011 7.071068e-011 7.071068e-011 7.071068e-011
6818400000 -0.10304832 -0.017447267 0.012708545 0.012645153 7.071068e-011 7.071068e-011 7.071068e-011 7.071068e-011
6826800000 0.080736406 0.18803117 -0.015558505 0.0098518766 7.071068e-011 7.071068e-011 7.071068e-011 7.071068e-011
6835200000 0.185635 -0.044930518 -0.0051683174 -0.017729485 7.071068e-011 7.071068e-011 7.071068e-011 7.071068e-011
6843600000 -0.043048024 -0.032785479 0.020210193 -0.00041935814 7.071068e-011 7.071068e-011 7.071068e-011 7.071068e-011
6852000000 0.069075808 0.13014677 -0.0039884108 0.020471251 7.071068e-011 7.071068e-011 7.071068e-011 7.071068e-011
6860400000 0.14814842 -0.016919205 -0.018845733 -0.0091390051 7.071068e-011 7.071068e-011 7.071068e-011 7.071068e-011
6868800000 0.0060146172 -0.02986897 0.014202543 -0.016387003 7.071068e-011 7.071068e-011 7.071068e-011 7.071068e-011
6877200000 0.050794747 0.072372414 0.012991595 0.017920403 7.071068e-011 7.071068e-011 7.071068e-011 7.071068e-011
6885600000 0.092067704 0.0088930763 -0.020377241 0.0079863695 7.071068e-011 7.071068e-011 7.071068e-011 7.071068e-011
6894000000 0.047539808 -0.0021238548 -0.002479885 -0.022041395 7.071068e-011 7.071068e-011 7.071068e-011 7.071068e-011
6902400000 0.038335983 0.019590801 0.022054171 0.0031935056 7.071068e-011 7.071068e-011 7.071068e-011 7.071068e-011
6910800000 0.03106158 0.035991944 -0.0088126408 0.020261541 7.071068e-011 7.071068e-011 7.071068e-011 7.071068e-011
6919200000 0.076462418 0.051565297 -0.016944898 -0.013706609 7.071068e-011 7.071068e-011 7.071068e-011 7.071068e-011
6927600000 0.053666156 -0.011841034 0.017397614 -0.012691036 7.071068e-011 7.071068e-011 7.071068e-011 7.071068e-011
6936000000 -0.0033008428 0.05797952 0.0070939646 0.019636353 7.071068e-011 7.071068e-011 7.071068e-011 7.071068e-011
6944400000 0.10850426 0.093020394 -0.020897187 0.0008112347 7.071068e-011 7.071068e-011 7.071068e-011 7.071068e-011
6952800000 0.089599065 -0.043528631 0.0048913928 -0.019954098 7.071068e-011 7.071068e-011 7.071068e-011 7.071068e-011
6961200000 -0.028827777 0.048017446 0.017136214 0.010377072 7.071068e-011 7.071068e-011 7.071068e-011 7.071068e-011
6969600000 0.11812265 0.11025479 -0.014944563 0.013169199 7.071068e-011 7.071068e-011 7.071068e-011 7.071068e-011
6978000000 0.10969684 -0.066687241 -0.0078850733 -0.017676868 7.071068e-011 7.071068e-011 7.071068e-011 7.071068e-011
6986400000 -0.063954137 0.023486707 0.018836373 -0.0016698583 7.071068e-011 7.071068e-011 7.071068e-011 7.071068e-011
6994800000 0.09477099 0.13786942 -0.0043370561 0.018821066 7.071068e-011 7.071068e-011 7.071068e-011 7.071068e-011
7003200000 0.11704691 -0.052176952 -0.016280903 -0.0096691102 7.071068e-011 7.071068e-011 7.071068e-011 7.071068e-011
7011600000 -0.071661562 0.021851853 0.014678034 -0.011805217 7.071068e-011 7.071068e-011 7.071068e-011 7.071068e-011
7020000000 0.078660965 0.16466981 0.0069089103 0.017718716 7.071068e-011 7.071068e-011 7.071068e-011 7.071068e-011
7028400000 0.13924329 -0.021899605 -0.018631574 0.00084552111 7.071068e-011 7.071068e-011 7.071068e-011 7.071068e-011
7036800000 -0.050908752 0.020197872 0.00554416 -0.018369175 7.071068e-011 7.071068e-011 7.071068e-011 7.071068e-011
7045200000 0.079089828 0.17292652 0.015833719 0.010870527 7.071068e-011 7.071068e-011 7.071068e-011 7.071068e-011
7053600000 0.17288256 0.0057708696 -0.015467792 0.011047776 7.071068e-011 7.071068e-011 7.071068e-011 7.071068e-011
7062000000 -0.0030739428 -0.012566087 -0.0054613515 -0.018945348 7.071068e-011 7.071068e-011 7.071068e-011 7.071068e-011
7070400000 0.068637103 0.14051941 0.01988044 0.0003145308 7.071068e-011 7.071068e-011 7.071068e-011 7.071068e-011
7078800000 0.17138824 0.015603678 -0.0069838311 0.018304745 7.071068e-011 7.071068e-011 7.071068e-011 7.071068e-011
7087200000 0.038360368 -0.032145493 -0.015617298 -0.012870417 7.071068e-011 7.071068e-011 7.071068e-011 7.071068e-011
7095600000 0.052494518 0.087487198 0.017049216 -0.011056748 7.071068e-011 7.071068e-011 7.071068e-011 7.071068e-011
7104000000 0.14867106 0.01711395 0.0047523361 0.019698832 7.071068e-011 7.071068e-011 7.071068e-011 7.071068e-011
7112400000 0.056736387 -0.046310142 -0.020513859 -0.0021133272 7.071068e-011 7.071068e-011 7.071068e-011 7.071068e-011
7120800000 0.030862171 0.028372372 0.0083144801 -0.019113582 7.071068e-011 7.071068e-011 7.071068e-011 7.071068e-011
7129200000 0.089284658 0.018935582 0.015139313 0.013770171 7.071068e-011 7.071068e-011 7.071068e-011 7.071068e-011
7137600000 0.047268495 -0.038239215 -0.018427195 0.0097739147 7.071068e-011 7.071068e-011 7.071068e-011 7.071068e-011
7146000000 -0.00014453079 0.0099623334 -0.0035582997 -0.020726357 7.071068e-011 7.071068e-011 7.071068e-011 7.071068e-011
7154400000 0.02831375 0.041760929 0.020593207 0.0032709618 7.071068e-011 7.071068e-011 7.071068e-011 7.071068e-011
7162800000 0.046103768 0.017084388 -0.0098958733 0.018047811 7.071068e-011 7.071068e-011 7.071068e-011 7.071068e-011
7171200000 0.0034531935 0.017918969 -0.013963899 -0.015389493 7.071068e-011 7.071068e-011 7.071068e-011 7.071068e-011
7179600000 0.014706499 0.070172995 0.018881118 -0.008119219 7.071068e-011 7.071068e-011 7.071068e-011 7.071068e-011
7188000000 0.066619493 0.059818361 0.0011164758 0.020797456 7.071068e-011 7.071068e-011 7.071068e-011 7.071068e-011
7196400000 0.043534238 0.010120997 -0.020059904 -0.0055889781 7.071068e-011 7.071068e-011 7.071068e-011 7.071068e-011
7204800000 0.010269389 0.062900372 0.011979813 -0.01647475 7.071068e-011 7.071068e-011 7.071068e-011 7.071068e-011
7213200000 0.079132535 0.07124152 0.011530134 0.017064901 7.071068e-011 7.071068e-011 7.071068e-011 7.071068e-011
7221600000 0.071615674 -0.0025791449 -0.020079961 0.0053388267 7.071068e-011 7.071068e-011 7.071068e-011 7.071068e-011
7230000000 -0.00072657724 0.028763996 0.0016860989 -0.020553833 7.071068e-011 7.071068e-011 7.071068e-011 7.071068e-011
7238400000 0.064988293 0.078701645 0.018784361 0.0089303898 7.071068e-011 7.071068e-011 7.071068e-011 7.071068e-011
7246800000 0.081116296 -0.0096434392 -0.014644007 0.014833736 7.071068e-011 7.071068e-011 7.071068e-011 7.071068e-011
7255200000 -0.013226539 0.00026561416 -0.0086594652 -0.018679243 7.071068e-011 7.071068e-011 7.071068e-011 7.071068e-011
7263600000 0.027316064 0.084134549 0.020751821 -0.0018818511 7.071068e-011 7.071068e-011 7.071068e-011 7.071068e-011
7272000000 0.078460656 0.0076308353 -0.0050350269 0.020031372 7.071068e-011 7.071068e-011 7.071068e-011 7.071068e-011
7280400000 -0.023706112 -0.0059453263 -0.016995087 -0.011685409 7.071068e-011 7.071068e-011 7.071068e-011 7.071068e-011
7288800000 -0.0086778924 0.10315225 0.017129723 -0.011691379 7.071068e-011 7.071068e-011 7.071068e-011 7.071068e-011
7297200000 0.084863842 0.059683748 0.0051492993 0.020161908 7.071068e-011 7.071068e-011 7.071068e-011 7.071068e-011
7305600000 0.0085457303 0.0044296943 -0.020514563 -0.0022846698 7.071068e-011 7.071068e-011 7.071068e-011 7.071068e-011
7314000000 -0.003926964 0.10649658 0.009226148 -0.018919593 7.071068e-011 7.071068e-011 7.071068e-011 7.071068e-011
7322400000 0.10896438 0.085363291 0.014445249 0.014858999 7.071068e-011 7.071068e-011 7.071068e-011 7.071068e-011
7330800000 0.059984121 -0.011741368 -0.019317714 0.0079561118 7.071068e-011 7.071068e-011 7.071068e-011 7.071068e-011
7339200000 0.0042165709 0.061082274 -0.00093163335 -0.021243405 7.071068e-011 7.071068e-011 7.071068e-011 7.071068e-011
7347600000 0.09931723 0.071923114 0.020098183 0.0062517086 7.071068e-011 7.071068e-011 7.071068e-011 7.071068e-011
7356000000 0.075847618 -0.033593472 -0.012939119 0.016391754 7.071068e-011 7.071068e-011 7.071068e-011 7.071068e-011
7364400000 -0.010097062 0.012509551 -0.011067711 -0.01807048 7.071068e-011 7.071068e-011 7.071068e-011 7.071068e-011
7372800000 0.054804496 0.054766711 0.020551916 -0.0041985046 7.071068e-011 7.071068e-011 7.071068e-011 7.071068e-011
7381200000 0.052938085 -0.031140076 -0.0037112937 0.020833021 7.071068e-011 7.071068e-011 7.071068e-011 7.071068e-011
7389600000 -0.041053873 0.00076873635 -0.018391373 -0.010668016 7.071068e-011 7.071068e-011 7.071068e-011 7.071068e-011
7398000000 0.0057878704 0.071988635 0.016393807 -0.01322717 7.071068e-011 7.071068e-011 7.071068e-011 7.071068e-011
7406400000 0.032863759 0.01466901 0.0066274735 0.02012936 7.071068e-011 7.071068e-011 7.071068e-011 7.071068e-011
7414800000 -0.038108263 0.027475186 -0.021350948 -0.0007735517 7.071068e-011 7.071068e-011 7.071068e-011 7.071068e-011
7423200000 -0.0015708548 0.1035359 0.008127653 -0.019680895 7.071068e-011 7.071068e-011 7.071068e-011 7.071068e-011
7431600000 0.055556212 0.060615655 0.015449931 0.014745364 7.071068e-011 7.071068e-011 7.071068e-011 7.071068e-011
7440000000 0.013224063 0.038331956 -0.019236557 0.00949605 7.071068e-011 7.071068e-011 7.071068e-011 7.071068e-011
7448400000 0.024123773 0.085795373 -0.002008039 -0.021122005 7.071068e-011 7.071068e-011 7.071068e-011 7.071068e-011
7456800000 0.077579543 0.055239178 0.020494601 0.0056875707 7.071068e-011 7.071068e-011 7.071068e-011 7.071068e-011
7465200000 0.045911487 0.013920986 -0.012544913 0.017241891 7.071068e-011 7.071068e-011 7.071068e-011 7.071068e-011
7473600000 0.028686594 0.037119601 -0.01165378 -0.017646467 7.071068e-011 7.071068e-011 7.071068e-011 7.071068e-011
7482000000 0.058404855 0.033107203 0.020597475 -0.0043444959 7.071068e-011 7.071068e-011 7.071068e-011 7.071068e-011
7490400000 0.043593183 -0.010799279 -0.0032655252 0.02086428 7.071068e-011 7.071068e-011 7.071068e-011 7.071068e-011
7498800000 -0.00078590534 -0.0015675912 -0.018174747 -0.010414197 7.071068e-011 7.071068e-011 7.071068e-011 7.071068e-011
7507200000 0.00056958693 0.031074887 0.016211271 -0.013259167 7.071068e-011 7.071068e-011 7.071068e-011 7.071068e-011
7515600000 0.020734476 0.015165128 0.0065674963 0.019777764 7.071068e-011 7.071068e-011 7.071068e-011 7.071068e-011
7524000000 -0.021242986 0.0032313713 -0.020691695 -0.0010249155 7.071068e-011 7.071068e-011 7.071068e-011 7.071068e-011
7532400000 -0.033988852 0.060139578 0.00850318 -0.018831264 7.071068e-011 7.071068e-011 7.071068e-011 7.071068e-011
7540800000 0.022772586 0.073138282 0.014586724 0.014541653 7.071068e-011 7.071068e-011 7.071068e-011 7.071068e-011
7549200000 0.01940215 0.022351701 -0.018473463 0.0080234604 7.071068e-011 7.071068e-011 7.071068e-011 7.071068e-011
7557600000 -0.018428367 0.061079472 -0.00062358024 -0.020243671 7.071068e-011 7.071068e-011 7.071068e-011 7.071068e-011
7566000000 0.047992665 0.083646566 0.01892459 0.0067187115 7.071068e-011 7.071068e-011 7.071068e-011 7.071068e-011
7574400000 0.060861733 0.0076213139 -0.013339673 0.015008075 7.071068e-011 7.071068e-011 7.071068e-011 7.071068e-011
7582800000 -0.010073062 0.015664021 -0.0090917097 -0.017916465 7.071068e-011 7.071068e-011 7.071068e-011 7.071068e-011
7591200000 0.036986105 0.064308584 0.019741191 -0.0020193066 7.071068e-011 7.071068e-011 7.071068e-011 7.071068e-011
7599600000 0.059013732 -0.015220796 -0.0054990137 0.018742865 7.071068e-011 7.071068e-011 7.071068e-011 7.071068e-011
7608000000 -0.03101578 -0.020385386 -0.015629336 -0.012458406 7.071068e-011 7.071068e-011 7.071068e-011 7.071068e-011
7616400000 -0.014806942 0.056763135 0.017088447 -0.010231806 7.071068e-011 7.071068e-011 7.071068e-011 7.071068e-011
7624800000 0.031490941 0.0049315887 0.0029366189 0.019527948 7.071068e-011 7.071068e-011 7.071068e-011 7.071068e-011
7633200000 -0.052850205 -0.0061706738 -0.019186193 -0.0044296412 7.071068e-011 7.071068e-011 7.071068e-011 7.071068e-011
7641600000 -0.038169801 0.087039627 0.011213136 -0.016006511 7.071068e-011 7.071068e-011 7.071068e-011 7.071068e-011
7650000000 0.037852634 0.052855961 0.010675849 0.016471855 7.071068e-011 7.071068e-011 7.071068e-011 7.071068e-011
7658400000 -0.02123997 0.011769144 -0.019491212 0.0039813849 7.071068e-011 7.071068e-011 7.071068e-011 7.071068e-011
7666800000 -0.022558467 0.096038558 0.0032388233 -0.019307461 7.071068e-011 7.071068e-011 7.071068e-011 7.071068e-011
7675200000 0.069614477 0.071411707 0.016282273 0.010578642 7.071068e-011 7.071068e-011 7.071068e-011 7.071068e-011
7683600000 0.031824395 -0.0040175747 -0.016139926 0.011464454 7.071068e-011 7.071068e-011 7.071068e-011 7.071068e-011
7692000000 -0.0052504074 0.04704807 -0.0047978731 -0.019096661 7.071068e-011 7.071068e-011 7.071068e-011 7.071068e-011
7700400000 0.065935381 0.043793228 0.019490147 0.0025908183 7.071068e-011 7.071068e-011 7.071068e-011 7.071068e-011
7708800000 0.035503253 -0.039890293 -0.0097953714 0.017058495 7.071068e-011 7.071068e-011 7.071068e-011 7.071068e-011
7717200000 -0.033723962 0.0010094595 -0.012213904 -0.015497562 7.071068e-011 7.071068e-011 7.071068e-011 7.071068e-011
7725600000 0.017176012 0.033756807 0.018936697 -0.005336877 7.071068e-011 7.071068e-011 7.071068e-011 7.071068e-011
7734000000 0.013841501 -0.035866536 -0.0019094929 0.019779257 7.071068e-011 7.071068e-011 7.071068e-011 7.071068e-011
7742400000 -0.070765987 -0.011994123 -0.017407315 -0.0089697698 7.071068e-011 7.071068e-011 7.071068e-011 7.071068e-011
7750800000 -0.040444322 0.062361676 0.015077953 -0.01273896 7.071068e-011 7.071068e-011 7.071068e-011 7.071068e-011
7759200000 0.0015331968 0.025217412 0.0062620705 0.01882498 7.071068e-011 7.071068e-011 7.071068e-011 7.071068e-011
7767600000 -0.053516079 0.019454315 -0.019801006 -0.001234596 7.071068e-011 7.071068e-011 7.071068e-011 7.071068e-011
7776000000 -0.037678491 0.091177903 0.0085351169 -0.017732734 7.071068e-011 7.071068e-011 7.071068e-011 7.071068e-011
7784400000 0.031582698 0.06782718 0.013288763 0.014606824 7.071068e-011 7.071068e-011 7.071068e-011 7.071068e-011
7792800000 0.00099649967 0.024838738 -0.018389303 0.0067617833 7.071068e-011 7.071068e-011 7.071068e-011 7.071068e-011
7801200000 -0.0074750637 0.070436381 0.00085339783 -0.019859426 7.071068e-011 7.071068e-011 7.071068e-011 7.071068e-011
7809600000 0.05315242 0.05828286 0.01814854 0.0080046002 7.071068e-011 7.071068e-011 7.071068e-011 7.071068e-011
7818000000 0.035209768 -0.0042266613 -0.014256288 0.013496229 7.071068e-011 7.071068e-011 7.071068e-011 7.071068e-011
7826400000 -0.0055521065 0.02088582 -0.0072225542 -0.018373584 7.071068e-011 7.071068e-011 7.071068e-011 7.071068e-011
7834800000 0.03266472 0.031682253 0.019737134 0.0001994272 7.071068e-011 7.071068e-011 7.071068e-011 7.071068e-011
7843200000 0.02526639 -0.019869329 -0.007630331 0.018258726 7.071068e-011 7.071068e-011 7.071068e-011 7.071068e-011
7851600000 -0.026946152 -0.004415568 -0.014045758 -0.014016529 7.071068e-011 7.071068e-011 7.071068e-011 7.071068e-011
7860000000 -0.0038731934 0.030758742 0.01817411 -0.0078043304 7.071068e-011 7.071068e-011 7.071068e-011 7.071068e-011
7868400000 0.010233252 -0.0036852763 0.00018561984 0.019722054 7.071068e-011 7.071068e-011 7.071068e-011 7.071068e-011
7876800000 -0.036253523 -0.0036427255 -0.018564103 -0.0072498727 7.071068e-011 7.071068e-011 7.071068e-011 7.071068e-011
7885200000 -0.030489104 0.043442652 0.013490965 -0.014504085 7.071068e-011 7.071068e-011 7.071068e-011 7.071068e-011
7893600000 0.0088844448 0.036186565 0.0082116267 0.017758003 7.071068e-011 7.071068e-011 7.071068e-011 7.071068e-011
7902000000 -0.0083773537 0.009191676 -0.019649252 0.00063689041 7.071068e-011 7.071068e-011 7.071068e-011 7.071068e-011
7910400000 -0.021453615 0.039274439 0.0067043426 -0.018591557 7.071068e-011 7.071068e-011 7.071068e-011 7.071068e-011
7918800000 0.017295439 0.04892803 0.014508211 0.013029122 7.071068e-011 7.071068e-011 7.071068e-011 7.071068e-011
7927200000 0.028389661 0.0073163463 -0.017549288 0.0084066084 7.071068e-011 7.071068e-011 7.071068e-011 7.071068e-011
7935600000 -0.0079731783 0.0060077044 -0.0010897963 -0.019306818 7.071068e-011 7.071068e-011 7.071068e-011 7.071068e-011
7944000000 0.011033064 0.033135027 0.018224046 0.0064516747 7.071068e-011 7.071068e-011 7.071068e-011 7.071068e-011
7952400000 0.03753962 -0.0056113573 -0.012939735 0.014378457 7.071068e-011 7.071068e-011 7.071068e-011 7.071068e-011
7960800000 -0.01515112 -0.033417135 -0.0084765777 -0.017356932 7.071068e-011 7.071068e-011 7.071068e-011 7.071068e-011
7969200000 -0.029126136 0.021056138 0.018994043 -0.0011402931 7.071068e-011 7.071068e-011 7.071068e-011 7.071068e-011
7977600000 0.020173963 0.0066021159 -0.0063168323 0.017972533 7.071068e-011 7.071068e-011 7.071068e-011 7.071068e-011
7986000000 -0.024495874 -0.039704092 -0.014236458 -0.012652813 7.071068e-011 7.071068e-011 7.071068e-011 7.071068e-011
7994400000 -0.065199941 0.025007116 0.017031506 -0.008341887 7.071068e-011 7.071068e-011 7.071068e-011 7.071068e-011
