!Keysight Technologies,N5235B,MY61252044,A.15.00.15
!Date: Friday, January 20, 2023 22:00:17
!Correction: S11(Off) 
!S21(Off) 
!S12(Off) 
!S22(Off) 
!S2P File: Measurements: S11, S21, S12, S22:
# Hz S  RI   R 50
6600000000 0.017530356 -0.17482372 0.015482739 -0.0030521548 7.071068e-011 7.071068e-011 7.071068e-011 7.071068e-011
6608408408.4084 -0.12364037 0.16656646 0.0053268136 0.010842918 7.071068e-011 7.071068e-011 7.071068e-011 7.071068e-011
6616816816.8168 0.30651751 0.0913473 -0.0089135431 0.0037083672 7.071068e-011 7.071068e-011 7.071068e-011 7.071068e-011
6625225225.2252 0.023057014 -0.27286854 -0.0018004066 -0.0093092835 7.071068e-011 7.071068e-011 7.071068e-011 7.071068e-011
6633633633.6336 -0.16485381 0.16273291 0.009340818 -0.0004069139 7.071068e-011 7.071068e-011 7.071068e-011 7.071068e-011
6642042042.042 0.29062659 0.11187424 -0.0018417169 0.0093249241 7.071068e-011 7.071068e-011 7.071068e-011 7.071068e-011
6650450450.4505 0.037700888 -0.25213751 -0.010733589 -0.0040757107 7.071068e-011 7.071068e-011 7.071068e-011 7.071068e-011
6658858858.8589 -0.14781235 0.1355643 0.0059599695 -0.011504683 7.071068e-011 7.071068e-011 7.071068e-011 7.071068e-011
6667267267.2673 0.22915776 0.10033365 0.012216883 0.0091545191 7.071068e-011 7.071068e-011 7.071068e-011 7.071068e-011
6675675675.6757 0.041954972 -0.15124026 -0.011519478 0.013843139 7.071068e-011 7.071068e-011 7.071068e-011 7.071068e-011
6684084084.0841 -0.044179875 0.084816776 -0.014616054 -0.01334036 7.071068e-011 7.071068e-011 7.071068e-011 7.071068e-011
6692492492.4925 0.10615776 0.047242645 0.014813829 -0.014944684 7.071068e-011 7.071068e-011 7.071068e-011 7.071068e-011
6700900900.9009 0.085848659 0.018052265 0.014797885 0.015407139 7.071068e-011 7.071068e-011 7.071068e-011 7.071068e-011
6709309309.3093 0.076857358 -0.041811749 -0.015549928 0.013141176 7.071068e-011 7.071068e-011 7.071068e-011 7.071068e-011
6717717717.7177 -0.030977668 0.034864113 -0.010180219 -0.01647866 7.071068e-011 7.071068e-011 7.071068e-011 7.071068e-011
6726126126.1261 0.15557444 0.11579403 0.016805353 -0.0071237348 7.071068e-011 7.071068e-011 7.071068e-011 7.071068e-011
6734534534.5345 0.12782511 -0.14094517 0.0035906194 0.016240945 7.071068e-011 7.071068e-011 7.071068e-011 7.071068e-011
6742942942.9429 -0.10775671 0.027579427 -0.015924534 -0.00024427072 7.071068e-011 7.071068e-011 7.071068e-011 7.071068e-011
6751351351.3514 0.17229685 0.15203479 0.0035864655 -0.015388907 7.071068e-011 7.071068e-011 7.071068e-011 7.071068e-011
6759759759.7598 0.14980392 -0.17206417 0.013207507 0.0070464658 7.071068e-011 7.071068e-011 7.071068e-011 7.071068e-011
6768168168.1682 -0.14698215 -0.0044495999 -0.010842796 0.010441498 7.071068e-011 7.071068e-011 7.071068e-011 7.071068e-011
6776576576.5766 0.13499309 0.17849132 -0.0080409525 -0.013461912 7.071068e-011 7.071068e-011 7.071068e-011 7.071068e-011
6784984984.985 0.15039293 -0.1468284 0.014557999 -0.0040495535 7.071068e-011 7.071068e-011 7.071068e-011 7.071068e-011
6793393393.3934 -0.14761606 -0.0056215571 -0.0003144175 0.015531357 7.071068e-011 7.071068e-011 7.071068e-011 7.071068e-011
6801801801.8018 0.10244625 0.20242462 -0.015734896 -0.0042626895 7.071068e-011 7.071068e-011 7.071068e-011 7.071068e-011
6810210210.2102 0.17181936 -0.095615998 0.0086489571 -0.014456357 7.071068e-011 7.071068e-011 7.071068e-011 7.071068e-011
6818618618.6186 -0.10563196 -0.0095392643 0.012177086 0.013217383 7.071068e-011 7.071068e-011 7.071068e-011 7.071068e-011
6827027027.027 0.088603467 0.18538652 -0.015945945 0.0092458883 7.071068e-011 7.071068e-011 7.071068e-011 7.071068e-011
6835435435.4354 0.18110025 -0.049394943 -0.00451768 -0.017894685 7.071068e-011 7.071068e-011 7.071068e-011 7.071068e-011
6843843843.8438 -0.045788053 -0.02748085 0.020180427 0.00020705017 7.071068e-011 7.071068e-011 7.071068e-011 7.071068e-011
6852252252.2523 0.07529325 0.1293004 -0.0045406502 0.02031658 7.071068e-011 7.071068e-011 7.071068e-011 7.071068e-011
6860660660.6607 0.14494301 -0.020705717 -0.01863296 -0.0095727555 7.071068e-011 7.071068e-011 7.071068e-011 7.071068e-011
6869069069.0691 0.0038737115 -0.026751542 0.014491374 -0.016125783 7.071068e-011 7.071068e-011 7.071068e-011 7.071068e-011
6877477477.4775 0.054327477 0.072654039 0.012724835 0.018070599 7.071068e-011 7.071068e-011 7.071068e-011 7.071068e-011
6885885885.8859 0.090368919 0.0066939504 -0.020443361 0.0077515319 7.071068e-011 7.071068e-011 7.071068e-011 7.071068e-011
6894294294.2943 0.047111403 -0.00099831051 -0.0023544754 -0.022022571 7.071068e-011 7.071068e-011 7.071068e-011 7.071068e-011
6902702702.7027 0.038227174 0.019477474 0.022004461 0.0031930981 7.071068e-011 7.071068e-011 7.071068e-011 7.071068e-011
6911111111.1111 0.031110249 0.037709814 -0.0087379673 0.020238828 7.071068e-011 7.071068e-011 7.071068e-011 7.071068e-011
6919519519.5195 0.078341007 0.04974046 -0.016982066 -0.013591091 7.071068e-011 7.071068e-011 7.071068e-011 7.071068e-011
6927927927.9279 0.050485022 -0.012378578 0.017218912 -0.012822862 7.071068e-011 7.071068e-011 7.071068e-011 7.071068e-011
6936336336.3363 -0.0020241721 0.062496439 0.0073178457 0.019465873 7.071068e-011 7.071068e-011 7.071068e-011 7.071068e-011
6944744744.7447 0.11269381 0.089049771 -0.020842887 0.0011955067 7.071068e-011 7.071068e-011 7.071068e-011 7.071068e-011
6953153153.1532 0.08385063 -0.045665793 0.0044382839 -0.020013919 7.071068e-011 7.071068e-011 7.071068e-011 7.071068e-011
6961561561.5616 -0.028217079 0.054960065 0.017368644 0.0099138999 7.071068e-011 7.071068e-011 7.071068e-011 7.071068e-011
6969969969.97 0.12509124 0.105531 -0.014485048 0.013588598 7.071068e-011 7.071068e-011 7.071068e-011 7.071068e-011
6978378378.3784 0.10113989 -0.07107497 -0.0084326295 -0.017355608 7.071068e-011 7.071068e-011 7.071068e-011 7.071068e-011
6986786786.7868 -0.06406524 0.03340859 0.018732142 -0.0023313302 7.071068e-011 7.071068e-011 7.071068e-011 7.071068e-011
6995195195.1952 0.10358146 0.1335811 -0.0035043056 0.018934404 7.071068e-011 7.071068e-011 7.071068e-011 7.071068e-011
7003603603.6036 0.10834185 -0.05830818 -0.016633704 -0.0088645788 7.071068e-011 7.071068e-011 7.071068e-011 7.071068e-011
7012012012.012 -0.072790429 0.033194583 0.014091929 -0.012516256 7.071068e-011 7.071068e-011 7.071068e-011 7.071068e-011
7020420420.4204 0.088713206 0.16119973 0.0078426208 0.017312111 7.071068e-011 7.071068e-011 7.071068e-011 7.071068e-011
7028828828.8288 0.13212407 -0.029555008 -0.018528592 0.0018805591 7.071068e-011 7.071068e-011 7.071068e-011 7.071068e-011
7037237237.2372 -0.054214992 0.031383581 0.0043663899 -0.018661847 7.071068e-011 7.071068e-011 7.071068e-011 7.071068e-011
7045645645.6456 0.090724714 0.17080341 0.016478535 0.0097578783 7.071068e-011 7.071068e-011 7.071068e-011 7.071068e-011
7054054054.0541 0.16725181 -0.0036669103 -0.014649448 0.012089672 7.071068e-011 7.071068e-011 7.071068e-011 7.071068e-011
7062462462.4625 -0.0084925415 -0.0034463673 -0.0068904911 -0.018460695 7.071068e-011 7.071068e-011 7.071068e-011 7.071068e-011
7070870870.8709 0.07887651 0.14046679 0.019775262 -0.0012501811 7.071068e-011 7.071068e-011 7.071068e-011 7.071068e-011
7079279279.2793 0.16819522 0.0068190941 -0.0055005602 0.018816696 7.071068e-011 7.071068e-011 7.071068e-011 7.071068e-011
7087687687.6877 0.032120146 -0.026630158 -0.016684636 -0.011444633 7.071068e-011 7.071068e-011 7.071068e-011 7.071068e-011
7096096096.0961 0.059949681 0.089469701 0.015913893 -0.012529377 7.071068e-011 7.071068e-011 7.071068e-011 7.071068e-011
7104504504.5045 0.14779186 0.0099574598 0.0065899151 0.019128341 7.071068e-011 7.071068e-011 7.071068e-011 7.071068e-011
7112912912.9129 0.050505169 -0.04450427 -0.020654045 -6.7257977e-005 7.071068e-011 7.071068e-011 7.071068e-011 7.071068e-011
7121321321.3213 0.034617867 0.032139841 0.0062543745 -0.019868625 7.071068e-011 7.071068e-011 7.071068e-011 7.071068e-011
7129729729.7297 0.089444265 0.014226728 0.016488839 0.012036994 7.071068e-011 7.071068e-011 7.071068e-011 7.071068e-011
7138138138.1381 0.043163292 -0.037843961 -0.017159572 0.011753514 7.071068e-011 7.071068e-011 7.071068e-011 7.071068e-011
7146546546.5465 -0.00049048977 0.013846984 -0.0059092846 -0.020111447 7.071068e-011 7.071068e-011 7.071068e-011 7.071068e-011
7154954954.955 0.030844036 0.041252017 0.020813923 0.0007936912 7.071068e-011 7.071068e-011 7.071068e-011 7.071068e-011
7163363363.3634 0.0448451 0.015574177 -0.0076067233 0.019128386 7.071068e-011 7.071068e-011 7.071068e-011 7.071068e-011
7171771771.7718 0.0010620279 0.020415349 -0.015791843 -0.013438386 7.071068e-011 7.071068e-011 7.071068e-011 7.071068e-011
7180180180.1802 0.018638443 0.07261236 0.017597375 -0.010446966 7.071068e-011 7.071068e-011 7.071068e-011 7.071068e-011
7188588588.5886 0.067812569 0.055943336 0.0039431574 0.020445628 7.071068e-011 7.071068e-011 7.071068e-011 7.071068e-011
7196996996.997 0.039634418 0.010147157 -0.020623365 -0.0026824416 7.071068e-011 7.071068e-011 7.071068e-011 7.071068e-011
7205405405.4054 0.012425159 0.06735044 0.0094969114 -0.01803189 7.071068e-011 7.071068e-011 7.071068e-011 7.071068e-011
7213813813.8138 0.083382957 0.067028172 0.013896771 0.015156803 7.071068e-011 7.071068e-011 7.071068e-011 7.071068e-011
7222222222.2222 0.065946013 -0.0055796877 -0.018971588 0.0082810521 7.071068e-011 7.071068e-011 7.071068e-011 7.071068e-011
7230630630.6306 -0.0012932592 0.035434239 -0.0014994559 -0.020496694 7.071068e-011 7.071068e-011 7.071068e-011 7.071068e-011
7239039039.039 0.071807049 0.07545203 0.01997852 0.0057931133 7.071068e-011 7.071068e-011 7.071068e-011 7.071068e-011
7247447447.4474 0.075019054 -0.015006863 -0.011968142 0.017021826 7.071068e-011 7.071068e-011 7.071068e-011 7.071068e-011
7255855855.8559 -0.016704956 0.0076550143 -0.011651493 -0.016990842 7.071068e-011 7.071068e-011 7.071068e-011 7.071068e-011
7264264264.2643 0.035226393 0.084036417 0.020112511 -0.0054120915 7.071068e-011 7.071068e-011 7.071068e-011 7.071068e-011
7272672672.6727 0.074219815 0.00033216158 -0.0014561877 0.020550754 7.071068e-011 7.071068e-011 7.071068e-011 7.071068e-011
7281081081.0811 -0.030088702 0.0010857292 -0.018756211 -0.0084013985 7.071068e-011 7.071068e-011 7.071068e-011 7.071068e-011
7289489489.4895 0.00033264857 0.10771263 0.014661362 -0.014670244 7.071068e-011 7.071068e-011 7.071068e-011 7.071068e-011
7297897897.8979 0.084944569 0.050290328 0.0088653853 0.018808268 7.071068e-011 7.071068e-011 7.071068e-011 7.071068e-011
7306306306.3063 0.00074527907 0.0090332618 -0.020580988 0.0016401282 7.071068e-011 7.071068e-011 7.071068e-011 7.071068e-011
7314714714.7147 0.0043758922 0.11303621 0.0053376574 -0.020318462 7.071068e-011 7.071068e-011 7.071068e-011 7.071068e-011
7323123123.1231 0.11278564 0.075024776 0.017050838 0.011688334 7.071068e-011 7.071068e-011 7.071068e-011 7.071068e-011
7331531531.5315 0.05086033 -0.011795827 -0.01730171 0.01177257 7.071068e-011 7.071068e-011 7.071068e-011 7.071068e-011
7339939939.9399 0.0080975024 0.068981774 -0.005388645 -0.020544507 7.071068e-011 7.071068e-011 7.071068e-011 7.071068e-011
7348348348.3483 0.10570153 0.063394725 0.020935629 0.0018632255 7.071068e-011 7.071068e-011 7.071068e-011 7.071068e-011
7356756756.7568 0.065822355 -0.037061345 -0.0091499686 0.018824523 7.071068e-011 7.071068e-011 7.071068e-011 7.071068e-011
7365165165.1652 -0.010170321 0.021212174 -0.01479739 -0.015153224 7.071068e-011 7.071068e-011 7.071068e-011 7.071068e-011
7373573573.5736 0.061823532 0.04965743 0.01899516 -0.0086296564 7.071068e-011 7.071068e-011 7.071068e-011 7.071068e-011
7381981981.982 0.043707881 -0.035554681 0.0011362976 0.021126354 7.071068e-011 7.071068e-011 7.071068e-011 7.071068e-011
7390390390.3904 -0.043146752 0.0099633317 -0.020364264 -0.0060956962 7.071068e-011 7.071068e-011 7.071068e-011 7.071068e-011
7398798798.7988 0.013264716 0.071156479 0.012843768 -0.016748171 7.071068e-011 7.071068e-011 7.071068e-011 7.071068e-011
7407207207.2072 0.027764607 0.0096156336 0.011252945 0.017956331 7.071068e-011 7.071068e-011 7.071068e-011 7.071068e-011
7415615615.6156 -0.041065603 0.035582684 -0.020869676 0.0044618687 7.071068e-011 7.071068e-011 7.071068e-011 7.071068e-011
7424024024.024 0.0070062485 0.10503712 0.0029940924 -0.02105586 7.071068e-011 7.071068e-011 7.071068e-011 7.071068e-011
7432432432.4324 0.05464793 0.053925555 0.018718544 0.010359937 7.071068e-011 7.071068e-011 7.071068e-011 7.071068e-011
7440840840.8408 0.0096429484 0.042473398 -0.016097197 0.014116356 7.071068e-011 7.071068e-011 7.071068e-011 7.071068e-011
7449249249.2492 0.030411601 0.087205917 -0.0073955017 -0.01985557 7.071068e-011 7.071068e-011 7.071068e-011 7.071068e-011
7457657657.6577 0.077975534 0.048819058 0.021266345 9.8083088e-005 7.071068e-011 7.071068e-011 7.071068e-011 7.071068e-011
7466066066.0661 0.041603137 0.014115334 -0.007454569 0.019969717 7.071068e-011 7.071068e-011 7.071068e-011 7.071068e-011
7474474474.4745 0.030583719 0.039448768 -0.015989138 -0.013785831 7.071068e-011 7.071068e-011 7.071068e-011 7.071068e-011
7482882882.8829 0.059968524 0.029010812 0.018604698 -0.0098654199 7.071068e-011 7.071068e-011 7.071068e-011 7.071068e-011
7491291291.2913 0.038801759 -0.013429716 0.0027136565 0.020928409 7.071068e-011 7.071068e-011 7.071068e-011 7.071068e-011
7499699699.6997 -0.0033554437 0.0025247212 -0.020384818 -0.0048611802 7.071068e-011 7.071068e-011 7.071068e-011 7.071068e-011
7508108108.1081 0.0034250512 0.031950135 0.011697212 -0.017363243 7.071068e-011 7.071068e-011 7.071068e-011 7.071068e-011
7516516516.5165 0.019360242 0.011803052 0.012051534 0.016957745 7.071068e-011 7.071068e-011 7.071068e-011 7.071068e-011
7524924924.9249 -0.026531056 0.0066792886 -0.020019745 0.005138272 7.071068e-011 7.071068e-011 7.071068e-011 7.071068e-011
7533333333.3333 -0.029687911 0.066089794 0.0024785406 -0.020513859 7.071068e-011 7.071068e-011 7.071068e-011 7.071068e-011
7541741741.7417 0.027907779 0.068715736 0.018287066 0.0094339689 7.071068e-011 7.071068e-011 7.071068e-011 7.071068e-011
7550150150.1502 0.012815495 0.020581882 -0.015183581 0.013269831 7.071068e-011 7.071068e-011 7.071068e-011 7.071068e-011
7558558558.5586 -0.015270515 0.068647057 -0.0069093364 -0.019024391 7.071068e-011 7.071068e-011 7.071068e-011 7.071068e-011
7566966966.967 0.05577489 0.077974878 0.020006735 0.00042780166 7.071068e-011 7.071068e-011 7.071068e-011 7.071068e-011
7575375375.3754 0.053376067 0.00085918774 -0.0078651616 0.018485148 7.071068e-011 7.071068e-011 7.071068e-011 7.071068e-011
7583783783.7838 -0.011899105 0.024266854 -0.01444105 -0.014044152 7.071068e-011 7.071068e-011 7.071068e-011 7.071068e-011
7592192192.1922 0.045723941 0.060550231 0.017988728 -0.0083659077 7.071068e-011 7.071068e-011 7.071068e-011 7.071068e-011
7600600600.6006 0.051601503 -0.024509862 0.00092179613 0.019485015 7.071068e-011 7.071068e-011 7.071068e-011 7.071068e-011
7609009009.009 -0.038057908 -0.010555832 -0.018900648 -0.0064897938 7.071068e-011 7.071068e-011 7.071068e-011 7.071068e-011
7617417417.4174 -0.0049156691 0.058124479 0.012587347 -0.015355635 7.071068e-011 7.071068e-011 7.071068e-011 7.071068e-011
7625825825.8258 0.026298435 -0.0043223109 0.0094731087 0.017382329 7.071068e-011 7.071068e-011 7.071068e-011 7.071068e-011
7634234234.2342 -0.060802389 0.0041755657 -0.019549366 0.0024972761 7.071068e-011 7.071068e-011 7.071068e-011 7.071068e-011
7642642642.6426 -0.026356122 0.091725565 0.0049393792 -0.018919595 7.071068e-011 7.071068e-011 7.071068e-011 7.071068e-011
7651051051.0511 0.037514709 0.042230714 0.015784973 0.011667612 7.071068e-011 7.071068e-011 7.071068e-011 7.071068e-011
7659459459.4595 -0.030041257 0.018256713 -0.016754052 0.010708367 7.071068e-011 7.071068e-011 7.071068e-011 7.071068e-011
7667867867.8679 -0.011359795 0.10259264 -0.0039445371 -0.019112982 7.071068e-011 7.071068e-011 7.071068e-011 7.071068e-011
7676276276.2763 0.07389082 0.058782347 0.019110151 0.0039157877 7.071068e-011 7.071068e-011 7.071068e-011 7.071068e-011
7684684684.6847 0.021185091 -0.0038686797 -0.010733961 0.016649358 7.071068e-011 7.071068e-011 7.071068e-011 7.071068e-011
7693093093.0931 0.00078046724 0.054580495 -0.0115253 -0.015941571 7.071068e-011 7.071068e-011 7.071068e-011 7.071068e-011
7701501501.5015 0.071195625 0.032413945 0.019019 -0.0048840023 7.071068e-011 7.071068e-011 7.071068e-011 7.071068e-011
7709909909.9099 0.023132537 -0.042536553 -0.0025590865 0.019527758 7.071068e-011 7.071068e-011 7.071068e-011 7.071068e-011
7718318318.3183 -0.033131197 0.011083246 -0.017249996 -0.0095498841 7.071068e-011 7.071068e-011 7.071068e-011 7.071068e-011
7726726726.7267 0.024603998 0.027691333 0.015420913 -0.012286994 7.071068e-011 7.071068e-011 7.071068e-011 7.071068e-011
7735135135.1351 0.0026843601 -0.041407328 0.0059900903 0.018949997 7.071068e-011 7.071068e-011 7.071068e-011 7.071068e-011
7743543543.5435 -0.075048134 -2.4072328e-005 -0.019547423 -0.0014058237 7.071068e-011 7.071068e-011 7.071068e-011 7.071068e-011
7751951951.952 -0.03020883 0.064292416 0.0086813485 -0.017722286 7.071068e-011 7.071068e-011 7.071068e-011 7.071068e-011
7760360360.3604 -0.0027021896 0.017291203 0.013300714 0.014628899 7.071068e-011 7.071068e-011 7.071068e-011 7.071068e-011
7768768768.7688 -0.058444444 0.028541472 -0.018576602 0.0069282926 7.071068e-011 7.071068e-011 7.071068e-011 7.071068e-011
7777177177.1772 -0.02711281 0.095638193 0.00053270342 -0.019733781 7.071068e-011 7.071068e-011 7.071068e-011 7.071068e-011
7785585585.5856 0.033858776 0.05785656 0.01816103 0.0077683823 7.071068e-011 7.071068e-011 7.071068e-011 7.071068e-011
7793993993.994 -0.0057303403 0.027854703 -0.01387467 0.013742318 7.071068e-011 7.071068e-011 7.071068e-011 7.071068e-011
7802402402.4024 -0.00035301814 0.075026669 -0.0076369555 -0.018360205 7.071068e-011 7.071068e-011 7.071068e-011 7.071068e-011
7810810810.8108 0.058063962 0.048794325 0.019787006 -0.00051036465 7.071068e-011 7.071068e-011 7.071068e-011 7.071068e-011
7819219219.2192 0.025893945 -0.0064263507 -0.0070901155 0.018368084 7.071068e-011 7.071068e-011 7.071068e-011 7.071068e-011
7827627627.6276 -0.0036074398 0.026968459 -0.014457504 -0.013420716 7.071068e-011 7.071068e-011 7.071068e-011 7.071068e-011
7836036036.036 0.037616748 0.025710503 0.017830366 -0.0084024724 7.071068e-011 7.071068e-011 7.071068e-011 7.071068e-011
7844444444.4444 0.016435649 -0.023848964 0.0011788243 0.019726764 7.071068e-011 7.071068e-011 7.071068e-011 7.071068e-011
7852852852.8529 -0.028303074 0.0031416793 -0.01882484 -0.0062993532 7.071068e-011 7.071068e-011 7.071068e-011 7.071068e-011
7861261261.2613 0.0018348419 0.029486451 0.012732349 -0.015095263 7.071068e-011 7.071068e-011 7.071068e-011 7.071068e-011
7869669669.6697 0.0054119616 -0.0093461508 0.0090717282 0.017540457 7.071068e-011 7.071068e-011 7.071068e-011 7.071068e-011
7878078078.0781 -0.040463332 0.0034949197 -0.019815609 0.0020241197 7.071068e-011 7.071068e-011 7.071068e-011 7.071068e-011
7886486486.4865 -0.024323618 0.046969604 0.0053291833 -0.01904613 7.071068e-011 7.071068e-011 7.071068e-011 7.071068e-011
7894894894.8949 0.010932133 0.030190067 0.015452188 0.011948697 7.071068e-011 7.071068e-011 7.071068e-011 7.071068e-011
7903303303.3033 -0.013620215 0.011108954 -0.017071562 0.0097521441 7.071068e-011 7.071068e-011 7.071068e-011 7.071068e-011
7911711711.7117 -0.017805479 0.044055026 -0.0028289435 -0.019488825 7.071068e-011 7.071068e-011 7.071068e-011 7.071068e-011
7920120120.1201 0.023177849 0.044825051 0.018921467 0.0046699308 7.071068e-011 7.071068e-011 7.071068e-011 7.071068e-011
7928528528.5285 0.023512328 0.0019088135 -0.011418141 0.01577148 7.071068e-011 7.071068e-011 7.071068e-011 7.071068e-011
7936936936.9369 -0.0099754445 0.011299756 -0.010213948 -0.016364837 7.071068e-011 7.071068e-011 7.071068e-011 7.071068e-011
7945345345.3453 0.017952196 0.032105494 0.01902331 -0.0031463695 7.071068e-011 7.071068e-011 7.071068e-011 7.071068e-011
