!Keysight Technologies,N5235B,MY61252044,A.15.00.15
!Date: Friday, January 20, 2023 21:15:17
!Correction: S11(Off) 
!S21(Off) 
!S12(Off) 
!S22(Off) 
!S2P File: Measurements: S11, S21, S12, S22:
# Hz S  RI   R 50
6600000000 0.017343597 -0.17481266 0.015492236 -0.0030353465 7.071068e-011 7.071068e-011 7.071068e-011 7.071068e-011
6608408408.4084 -0.12354425 0.16678043 0.005324177 0.010853893 7.071068e-011 7.071068e-011 7.071068e-011 7.071068e-011
6616816816.8168 0.30682129 0.091167077 -0.0089213476 0.003700485 7.071068e-011 7.071068e-011 7.071068e-011 7.071068e-011
6625225225.2252 0.022804307 -0.27301532 -0.0017888742 -0.0093140705 7.071068e-011 7.071068e-011 7.071068e-011 7.071068e-011
6633633633.6336 -0.16480577 0.16303287 0.0093456879 -0.0003969043 7.071068e-011 7.071068e-011 7.071068e-011 7.071068e-011
6642042042.042 0.29092968 0.11173227 -0.0018407677 0.009327882 7.071068e-011 7.071068e-011 7.071068e-011 7.071068e-011
6650450450.4505 0.037474941 -0.25228557 -0.010727179 -0.0040782532 7.071068e-011 7.071068e-011 7.071068e-011 7.071068e-011
6658858858.8589 -0.14777884 0.1358173 0.0059608184 -0.011516257 7.071068e-011 7.071068e-011 7.071068e-011 7.071068e-011
6667267267.2673 0.22939208 0.10025227 0.012210926 0.0091621568 7.071068e-011 7.071068e-011 7.071068e-011 7.071068e-011
6675675675.6757 0.041803315 -0.15130845 -0.011536016 0.013842477 7.071068e-011 7.071068e-011 7.071068e-011 7.071068e-011
6684084084.0841 -0.044165149 0.084941842 -0.014607941 -0.013340005 7.071068e-011 7.071068e-011 7.071068e-011 7.071068e-011
6692492492.4925 0.10623767 0.047223091 0.014829488 -0.014928363 7.071068e-011 7.071068e-011 7.071068e-011 7.071068e-011
6700900900.9009 0.085834682 0.018025821 0.014791703 0.0154232 7.071068e-011 7.071068e-011 7.071068e-011 7.071068e-011
6709309309.3093 0.076789618 -0.041799106 -0.015566764 0.01313557 7.071068e-011 7.071068e-011 7.071068e-011 7.071068e-011
6717717717.7177 -0.0309553 0.034956712 -0.010165915 -0.016486196 7.071068e-011 7.071068e-011 7.071068e-011 7.071068e-011
6726126126.1261 0.15571401 0.11577254 0.016813667 -0.0071159401 7.071068e-011 7.071068e-011 7.071068e-011 7.071068e-011
6734534534.5345 0.12773503 -0.14103413 0.0035828184 0.016249405 7.071068e-011 7.071068e-011 7.071068e-011 7.071068e-011
6742942942.9429 -0.10776743 0.027751671 -0.015931325 -0.00025912945 7.071068e-011 7.071068e-011 7.071068e-011 7.071068e-011
6751351351.3514 0.17253269 0.15203208 0.0035951743 -0.015385258 7.071068e-011 7.071068e-011 7.071068e-011 7.071068e-011
6759759759.7598 0.14970569 -0.17226273 0.013207689 0.0070659798 7.071068e-011 7.071068e-011 7.071068e-011 7.071068e-011
6768168168.1682 -0.14703734 -0.0042786291 -0.010851249 0.010438934 7.071068e-011 7.071068e-011 7.071068e-011 7.071068e-011
6776576576.5766 0.1352102 0.17852379 -0.0080293762 -0.013473958 7.071068e-011 7.071068e-011 7.071068e-011 7.071068e-011
6784984984.985 0.15032859 -0.14701518 0.014563138 -0.0040319641 7.071068e-011 7.071068e-011 7.071068e-011 7.071068e-011
6793393393.3934 -0.14768742 -0.0054508308 -0.00032325854 0.015530996 7.071068e-011 7.071068e-011 7.071068e-011 7.071068e-011
6801801801.8018 0.10265476 0.20248893 -0.01573915 -0.0042694258 7.071068e-011 7.071068e-011 7.071068e-011 7.071068e-011
6810210210.2102 0.17177065 -0.095792465 0.0086547369 -0.01445205 7.071068e-011 7.071068e-011 7.071068e-011 7.071068e-011
6818618618.6186 -0.10572405 -0.0093865665 0.012178935 0.013223461 7.071068e-011 7.071068e-011 7.071068e-011 7.071068e-011
6827027027.027 0.088782199 0.18546738 -0.015956681 0.0092344247 7.071068e-011 7.071068e-011 7.071068e-011 7.071068e-011
6835435435.4354 0.18109424 -0.049536414 -0.0045107729 -0.017899632 7.071068e-011 7.071068e-011 7.071068e-011 7.071068e-011
6843843843.8438 -0.045881633 -0.027371451 0.020185539 0.00022312709 7.071068e-011 7.071068e-011 7.071068e-011 7.071068e-011
6852252252.2523 0.075425468 0.12935737 -0.0045661302 0.020326978 7.071068e-011 7.071068e-011 7.071068e-011 7.071068e-011
6860660660.6607 0.14493069 -0.020811759 -0.018641762 -0.0095867589 7.071068e-011 7.071068e-011 7.071068e-011 7.071068e-011
6869069069.0691 0.0038152239 -0.026705708 0.014512758 -0.016121164 7.071068e-011 7.071068e-011 7.071068e-011 7.071068e-011
6877477477.4775 0.054369666 0.072708562 0.012714682 0.018084215 7.071068e-011 7.071068e-011 7.071068e-011 7.071068e-011
6885885885.8859 0.090373576 0.0066614449 -0.020451771 0.0077441786 7.071068e-011 7.071068e-011 7.071068e-011 7.071068e-011
6894294294.2943 0.047076285 -0.00098222494 -0.0023350881 -0.022025682 7.071068e-011 7.071068e-011 7.071068e-011 7.071068e-011
6902702702.7027 0.038213711 0.01950839 0.022013266 0.0032115416 7.071068e-011 7.071068e-011 7.071068e-011 7.071068e-011
6911111111.1111 0.031130858 0.037713457 -0.0087573072 0.02024686 7.071068e-011 7.071068e-011 7.071068e-011 7.071068e-011
6919519519.5195 0.078347757 0.049725503 -0.016982097 -0.013605409 7.071068e-011 7.071068e-011 7.071068e-011 7.071068e-011
6927927927.9279 0.050434358 -0.012378066 0.017233487 -0.012817698 7.071068e-011 7.071068e-011 7.071068e-011 7.071068e-011
6936336336.3363 -0.002011369 0.062580667 0.0073093413 0.019483209 7.071068e-011 7.071068e-011 7.071068e-011 7.071068e-011
6944744744.7447 0.11275902 0.089017287 -0.020841826 0.0011888924 7.071068e-011 7.071068e-011 7.071068e-011 7.071068e-011
6953153153.1532 0.083777688 -0.045681175 0.0044566677 -0.02000319 7.071068e-011 7.071068e-011 7.071068e-011 7.071068e-011
6961561561.5616 -0.028209763 0.055052128 0.017372513 0.0099244593 7.071068e-011 7.071068e-011 7.071068e-011 7.071068e-011
6969969969.97 0.12520133 0.10551347 -0.014506212 0.013589515 7.071068e-011 7.071068e-011 7.071068e-011 7.071068e-011
6978378378.3784 0.10105878 -0.071138076 -0.008423266 -0.017372048 7.071068e-011 7.071068e-011 7.071068e-011 7.071068e-011
6986786786.7868 -0.064087406 0.033529565 0.018738609 -0.0023226899 7.071068e-011 7.071068e-011 7.071068e-011 7.071068e-011
6995195195.1952 0.10370068 0.1335801 -0.0035208019 0.018945312 7.071068e-011 7.071068e-011 7.071068e-011 7.071068e-011
7003603603.6036 0.10825712 -0.058400683 -0.016644211 -0.008871696 7.071068e-011 7.071068e-011 7.071068e-011 7.071068e-011
7012012012.012 -0.07282158 0.033322211 0.01409908 -0.012506796 7.071068e-011 7.071068e-011 7.071068e-011 7.071068e-011
7020420420.4204 0.088842556 0.16123641 0.0078358371 0.017323915 7.071068e-011 7.071068e-011 7.071068e-011 7.071068e-011
7028828828.8288 0.13206449 -0.029654155 -0.018534236 0.0018705854 7.071068e-011 7.071068e-011 7.071068e-011 7.071068e-011
7037237237.2372 -0.054285254 0.031508457 0.0043786881 -0.018661425 7.071068e-011 7.071068e-011 7.071068e-011 7.071068e-011
7045645645.6456 0.090862833 0.1708706 0.016481495 0.0097771408 7.071068e-011 7.071068e-011 7.071068e-011 7.071068e-011
7054054054.0541 0.1672533 -0.0037604056 -0.014663803 0.012075732 7.071068e-011 7.071068e-011 7.071068e-011 7.071068e-011
7062462462.4625 -0.008570726 -0.0033454662 -0.0068817702 -0.018474681 7.071068e-011 7.071068e-011 7.071068e-011 7.071068e-011
7070870870.8709 0.078988917 0.14053863 0.019793406 -0.0012403964 7.071068e-011 7.071068e-011 7.071068e-011 7.071068e-011
7079279279.2793 0.16821989 0.0067256973 -0.0055119991 0.018819649 7.071068e-011 7.071068e-011 7.071068e-011 7.071068e-011
7087687687.6877 0.032047462 -0.026562586 -0.016683022 -0.011461457 7.071068e-011 7.071068e-011 7.071068e-011 7.071068e-011
7096096096.0961 0.060029604 0.089542612 0.015936801 -0.012525729 7.071068e-011 7.071068e-011 7.071068e-011 7.071068e-011
7104504504.5045 0.14783086 0.0098969638 0.0065863505 0.019132078 7.071068e-011 7.071068e-011 7.071068e-011 7.071068e-011
7112912912.9129 0.05044451 -0.04448403 -0.02066021 -7.8921628e-005 7.071068e-011 7.071068e-011 7.071068e-011 7.071068e-011
7121321321.3213 0.034658365 0.03219837 0.0062632379 -0.019873843 7.071068e-011 7.071068e-011 7.071068e-011 7.071068e-011
7129729729.7297 0.089486346 0.014199046 0.016483504 0.012042152 7.071068e-011 7.071068e-011 7.071068e-011 7.071068e-011
7138138138.1381 0.043126933 -0.037851956 -0.017175525 0.011747022 7.071068e-011 7.071068e-011 7.071068e-011 7.071068e-011
7146546546.5465 -0.00049919909 0.013880716 -0.0058946395 -0.020120488 7.071068e-011 7.071068e-011 7.071068e-011 7.071068e-011
7154954954.955 0.030875806 0.041251879 0.020822607 0.00081429869 7.071068e-011 7.071068e-011 7.071068e-011 7.071068e-011
7163363363.3634 0.044829708 0.015543188 -0.0076269833 0.019130858 7.071068e-011 7.071068e-011 7.071068e-011 7.071068e-011
7171771771.7718 0.0010293904 0.020430841 -0.015787411 -0.013451222 7.071068e-011 7.071068e-011 7.071068e-011 7.071068e-011
7180180180.1802 0.018657913 0.072640441 0.017612137 -0.010435235 7.071068e-011 7.071068e-011 7.071068e-011 7.071068e-011
7188588588.5886 0.067834891 0.0559185 0.0039296369 0.02044728 7.071068e-011 7.071068e-011 7.071068e-011 7.071068e-011
7196996996.997 0.039583046 0.010156375 -0.020630525 -0.0026994476 7.071068e-011 7.071068e-011 7.071068e-011 7.071068e-011
7205405405.4054 0.012431934 0.067389593 0.0095182303 -0.018029887 7.071068e-011 7.071068e-011 7.071068e-011 7.071068e-011
7213813813.8138 0.083405882 0.067002743 0.013889996 0.01517903 7.071068e-011 7.071068e-011 7.071068e-011 7.071068e-011
7222222222.2222 0.065890342 -0.0055929571 -0.018975275 0.0082742684 7.071068e-011 7.071068e-011 7.071068e-011 7.071068e-011
7230630630.6306 -0.0013042832 0.035502631 -0.0014903756 -0.020505425 7.071068e-011 7.071068e-011 7.071068e-011 7.071068e-011
7239039039.039 0.071868978 0.075439222 0.019976258 0.0058109025 7.071068e-011 7.071068e-011 7.071068e-011 7.071068e-011
7247447447.4474 0.07498569 -0.015037303 -0.011969942 0.017013891 7.071068e-011 7.071068e-011 7.071068e-011 7.071068e-011
7255855855.8559 -0.016731158 0.0077192755 -0.011658506 -0.017001037 7.071068e-011 7.071068e-011 7.071068e-011 7.071068e-011
7264264264.2643 0.035298962 0.084046289 0.020121789 -0.005408925 7.071068e-011 7.071068e-011 7.071068e-011 7.071068e-011
7272672672.6727 0.074194729 0.00028180494 -0.0014595999 0.020549994 7.071068e-011 7.071068e-011 7.071068e-011 7.071068e-011
7281081081.0811 -0.030142689 0.0011462169 -0.018747168 -0.0084027303 7.071068e-011 7.071068e-011 7.071068e-011 7.071068e-011
7289489489.4895 0.00038713211 0.10775128 0.01467277 -0.014665599 7.071068e-011 7.071068e-011 7.071068e-011 7.071068e-011
7297897897.8979 0.084940724 0.050227892 0.0088578388 0.018822799 7.071068e-011 7.071068e-011 7.071068e-011 7.071068e-011
7306306306.3063 0.00066090142 0.0090645952 -0.020596212 0.001623339 7.071068e-011 7.071068e-011 7.071068e-011 7.071068e-011
7314714714.7147 0.0044251098 0.11309312 0.005362404 -0.02031533 7.071068e-011 7.071068e-011 7.071068e-011 7.071068e-011
7323123123.1231 0.11282594 0.074975371 0.017048415 0.011708183 7.071068e-011 7.071068e-011 7.071068e-011 7.071068e-011
7331531531.5315 0.05077187 -0.011792111 -0.017318774 0.011759097 7.071068e-011 7.071068e-011 7.071068e-011 7.071068e-011
7339939939.9399 0.0081270356 0.069059096 -0.0053708553 -0.02055227 7.071068e-011 7.071068e-011 7.071068e-011 7.071068e-011
7348348348.3483 0.10575268 0.063353308 0.020941667 0.0018825596 7.071068e-011 7.071068e-011 7.071068e-011 7.071068e-011
7356756756.7568 0.065769516 -0.037072401 -0.0091651166 0.018817162 7.071068e-011 7.071068e-011 7.071068e-011 7.071068e-011
7365165165.1652 -0.010168398 0.021281421 -0.014796504 -0.01517105 7.071068e-011 7.071068e-011 7.071068e-011 7.071068e-011
7373573573.5736 0.061887801 0.049635001 0.019004665 -0.008626556 7.071068e-011 7.071068e-011 7.071068e-011 7.071068e-011
7381981981.982 0.043672111 -0.035593692 0.0011300197 0.021127602 7.071068e-011 7.071068e-011 7.071068e-011 7.071068e-011
7390390390.3904 -0.043168515 0.010004322 -0.020363487 -0.0061090128 7.071068e-011 7.071068e-011 7.071068e-011 7.071068e-011
7398798798.7988 0.013319278 0.07114435 0.012857932 -0.016753122 7.071068e-011 7.071068e-011 7.071068e-011 7.071068e-011
7407207207.2072 0.027729871 0.0095716501 0.01125113 0.017956844 7.071068e-011 7.071068e-011 7.071068e-011 7.071068e-011
7415615615.6156 -0.041095152 0.035620388 -0.020873044 0.0044559138 7.071068e-011 7.071068e-011 7.071068e-011 7.071068e-011
7424024024.024 0.0070455638 0.10504629 0.0030050643 -0.021065218 7.071068e-011 7.071068e-011 7.071068e-011 7.071068e-011
7432432432.4324 0.054624677 0.053880308 0.018713979 0.010380632 7.071068e-011 7.071068e-011 7.071068e-011 7.071068e-011
7440840840.8408 0.0095936749 0.042497609 -0.016115138 0.014118371 7.071068e-011 7.071068e-011 7.071068e-011 7.071068e-011
7449249249.2492 0.030429786 0.087254532 -0.0073855729 -0.019873051 7.071068e-011 7.071068e-011 7.071068e-011 7.071068e-011
7457657657.6577 0.077985503 0.048790701 0.021279022 0.00011483313 7.071068e-011 7.071068e-011 7.071068e-011 7.071068e-011
7466066066.0661 0.041576289 0.014145806 -0.0074772337 0.019965559 7.071068e-011 7.071068e-011 7.071068e-011 7.071068e-011
7474474474.4745 0.030587547 0.039500725 -0.015990647 -0.013793373 7.071068e-011 7.071068e-011 7.071068e-011 7.071068e-011
7482882882.8829 0.060002599 0.028985387 0.018620132 -0.0098501202 7.071068e-011 7.071068e-011 7.071068e-011 7.071068e-011
7491291291.2913 0.038785215 -0.013439153 0.0027056707 0.020934187 7.071068e-011 7.071068e-011 7.071068e-011 7.071068e-011
7499699699.6997 -0.0033764357 0.0025643583 -0.020394951 -0.0048690843 7.071068e-011 7.071068e-011 7.071068e-011 7.071068e-011
7508108108.1081 0.0034675074 0.031943839 0.011700744 -0.017347274 7.071068e-011 7.071068e-011 7.071068e-011 7.071068e-011
7516516516.5165 0.019356247 0.011779767 0.012047883 0.016970165 7.071068e-011 7.071068e-011 7.071068e-011 7.071068e-011
7524924924.9249 -0.026576327 0.006690124 -0.0200336 0.0051385402 7.071068e-011 7.071068e-011 7.071068e-011 7.071068e-011
7533333333.3333 -0.029675312 0.066103406 0.0024868201 -0.020512834 7.071068e-011 7.071068e-011 7.071068e-011 7.071068e-011
7541741741.7417 0.027925452 0.068686381 0.018289458 0.0094494885 7.071068e-011 7.071068e-011 7.071068e-011 7.071068e-011
7550150150.1502 0.012758312 0.020570565 -0.015189258 0.013271643 7.071068e-011 7.071068e-011 7.071068e-011 7.071068e-011
7558558558.5586 -0.015265265 0.068684414 -0.006907491 -0.01903047 7.071068e-011 7.071068e-011 7.071068e-011 7.071068e-011
7566966966.967 0.055809952 0.077950597 0.020010317 0.00044239406 7.071068e-011 7.071068e-011 7.071068e-011 7.071068e-011
7575375375.3754 0.05331767 0.00085294945 -0.0078795953 0.018480098 7.071068e-011 7.071068e-011 7.071068e-011 7.071068e-011
7583783783.7838 -0.011897435 0.024334025 -0.014432545 -0.014055979 7.071068e-011 7.071068e-011 7.071068e-011 7.071068e-011
7592192192.1922 0.04578048 0.060547911 0.017991113 -0.0083554033 7.071068e-011 7.071068e-011 7.071068e-011 7.071068e-011
7600600600.6006 0.05156225 -0.024547031 0.00090959313 0.019497992 7.071068e-011 7.071068e-011 7.071068e-011 7.071068e-011
7609009009.009 -0.038073685 -0.010499452 -0.018895749 -0.0065148645 7.071068e-011 7.071068e-011 7.071068e-011 7.071068e-011
7617417417.4174 -0.0048521976 0.058131363 0.012601096 -0.015338592 7.071068e-011 7.071068e-011 7.071068e-011 7.071068e-011
7625825825.8258 0.026277205 -0.0043866588 0.0094619719 0.017384389 7.071068e-011 7.071068e-011 7.071068e-011 7.071068e-011
7634234234.2342 -0.060838588 0.0042322613 -0.01955457 0.002498189 7.071068e-011 7.071068e-011 7.071068e-011 7.071068e-011
7642642642.6426 -0.026314858 0.091756418 0.0049451129 -0.018922441 7.071068e-011 7.071068e-011 7.071068e-011 7.071068e-011
7651051051.0511 0.03750436 0.042182002 0.015790824 0.011678321 7.071068e-011 7.071068e-011 7.071068e-011 7.071068e-011
7659459459.4595 -0.030113963 0.018308351 -0.016761703 0.010702383 7.071068e-011 7.071068e-011 7.071068e-011 7.071068e-011
7667867867.8679 -0.011314497 0.10264626 -0.0039456934 -0.019121025 7.071068e-011 7.071068e-011 7.071068e-011 7.071068e-011
7676276276.2763 0.07391151 0.058741648 0.019104337 0.0039161332 7.071068e-011 7.071068e-011 7.071068e-011 7.071068e-011
7684684684.6847 0.021123435 -0.0038480684 -0.010746527 0.016644759 7.071068e-011 7.071068e-011 7.071068e-011 7.071068e-011
7693093093.0931 0.00079967745 0.054646883 -0.01150901 -0.015952431 7.071068e-011 7.071068e-011 7.071068e-011 7.071068e-011
7701501501.5015 0.071232699 0.03239651 0.019024068 -0.0048691649 7.071068e-011 7.071068e-011 7.071068e-011 7.071068e-011
7709909909.9099 0.023078522 -0.042535391 -0.0025831605 0.019530246 7.071068e-011 7.071068e-011 7.071068e-011 7.071068e-011
7718318318.3183 -0.033112723 0.01114772 -0.017250355 -0.0095696347 7.071068e-011 7.071068e-011 7.071068e-011 7.071068e-011
7726726726.7267 0.024667952 0.02766905 0.015436092 -0.01227578 7.071068e-011 7.071068e-011 7.071068e-011 7.071068e-011
7735135135.1351 0.0026585232 -0.041438539 0.0059757475 0.018944625 7.071068e-011 7.071068e-011 7.071068e-011 7.071068e-011
7743543543.5435 -0.075057738 2.6134265e-005 -0.019540973 -0.0014204489 7.071068e-011 7.071068e-011 7.071068e-011 7.071068e-011
7751951951.952 -0.030155605 0.06427414 0.0087046521 -0.017714681 7.071068e-011 7.071068e-011 7.071068e-011 7.071068e-011
7760360360.3604 -0.0027366523 0.017226744 0.013282117 0.01462853 7.071068e-011 7.071068e-011 7.071068e-011 7.071068e-011
7768768768.7688 -0.058483716 0.028573351 -0.01859149 0.0069143106 7.071068e-011 7.071068e-011 7.071068e-011 7.071068e-011
7777177177.1772 -0.02706187 0.095658921 0.00054754369 -0.019735074 7.071068e-011 7.071068e-011 7.071068e-011 7.071068e-011
7785585585.5856 0.033851247 0.057811875 0.018165905 0.0077687032 7.071068e-011 7.071068e-011 7.071068e-011 7.071068e-011
7793993993.994 -0.0057779336 0.027881173 -0.013878368 0.013740857 7.071068e-011 7.071068e-011 7.071068e-011 7.071068e-011
7802402402.4024 -0.00032633592 0.075072169 -0.0076240622 -0.018377671 7.071068e-011 7.071068e-011 7.071068e-011 7.071068e-011
7810810810.8108 0.05807256 0.048756633 0.019795099 -0.00051128917 7.071068e-011 7.071068e-011 7.071068e-011 7.071068e-011
7819219219.2192 0.025857918 -0.0064074253 -0.0070988308 0.018374514 7.071068e-011 7.071068e-011 7.071068e-011 7.071068e-011
7827627627.6276 -0.003593236 0.02702301 -0.014448051 -0.013434652 7.071068e-011 7.071068e-011 7.071068e-011 7.071068e-011
7836036036.036 0.037646111 0.025702851 0.017839909 -0.0083946716 7.071068e-011 7.071068e-011 7.071068e-011 7.071068e-011
7844444444.4444 0.01640431 -0.023855332 0.0011629482 0.019742131 7.071068e-011 7.071068e-011 7.071068e-011 7.071068e-011
7852852852.8529 -0.028294953 0.0031861006 -0.0188234 -0.0063139661 7.071068e-011 7.071068e-011 7.071068e-011 7.071068e-011
7861261261.2613 0.0018607329 0.029479995 0.012756155 -0.015090474 7.071068e-011 7.071068e-011 7.071068e-011 7.071068e-011
7869669669.6697 0.0053972257 -0.00938264 0.0090501569 0.017554577 7.071068e-011 7.071068e-011 7.071068e-011 7.071068e-011
7878078078.0781 -0.040488336 0.0035104088 -0.019818524 0.0020128314 7.071068e-011 7.071068e-011 7.071068e-011 7.071068e-011
7886486486.4865 -0.024290202 0.046978459 0.0053437045 -0.019042309 7.071068e-011 7.071068e-011 7.071068e-011 7.071068e-011
7894894894.8949 0.010924551 0.030157389 0.015449482 0.011954454 7.071068e-011 7.071068e-011 7.071068e-011 7.071068e-011
7903303303.3033 -0.013657163 0.011112695 -0.017082529 0.0097365761 7.071068e-011 7.071068e-011 7.071068e-011 7.071068e-011
7911711711.7117 -0.017803969 0.044090092 -0.0028131395 -0.019505706 7.071068e-011 7.071068e-011 7.071068e-011 7.071068e-011
7920120120.1201 0.023191819 0.044809651 0.018928854 0.0046782717 7.071068e-011 7.071068e-011 7.071068e-011 7.071068e-011
7928528528.5285 0.023474192 0.0019100312 -0.011422006 0.015771937 7.071068e-011 7.071068e-011 7.071068e-011 7.071068e-011
7936936936.9369 -0.0099958545 0.011337374 -0.010213367 -0.016369671 7.071068e-011 7.071068e-011 7.071068e-011 7.071068e-011
7945345345.3453 0.017986558 0.032116733 0.019035462 -0.0031324646 7.071068e-011 7.071068e-011 7.071068e-011 7.071068e-011
