!Keysight Technologies,N5235B,MY61252044,A.15.00.15
!Date: Friday, January 20, 2023 19:26:12
!Correction: S11(Off) 
!S21(Off) 
!S12(Off) 
!S22(Off) 
!S2P File: Measurements: S11, S21, S12, S22:
# Hz S  RI   R 50
6600000000 0.016957415 -0.1744024 0.014860495 -0.0053735771 7.071068e-011 7.071068e-011 7.071068e-011 7.071068e-011
6608400000 -0.12360737 0.16674531 0.0068856836 0.009945225 7.071068e-011 7.071068e-011 7.071068e-011 7.071068e-011
6616800000 0.30709085 0.091494188 -0.0082939118 0.0049561374 7.071068e-011 7.071068e-011 7.071068e-011 7.071068e-011
6625200000 0.023329018 -0.27306667 -0.0030766497 -0.0089750132 7.071068e-011 7.071068e-011 7.071068e-011 7.071068e-011
6633600000 -0.16560493 0.16177383 0.0092061982 -0.0016787394 7.071068e-011 7.071068e-011 7.071068e-011 7.071068e-011
6642000000 0.29038829 0.11367675 -0.00059030927 0.0094702188 7.071068e-011 7.071068e-011 7.071068e-011 7.071068e-011
6650400000 0.039514631 -0.25264215 -0.011148659 -0.0026924845 7.071068e-011 7.071068e-011 7.071068e-011 7.071068e-011
6658800000 -0.14905219 0.1334154 0.0044960324 -0.012156074 7.071068e-011 7.071068e-011 7.071068e-011 7.071068e-011
6667200000 0.22810167 0.10355187 0.013169407 0.0076202247 7.071068e-011 7.071068e-011 7.071068e-011 7.071068e-011
6675600000 0.044365734 -0.15298361 -0.0099221123 0.015005128 7.071068e-011 7.071068e-011 7.071068e-011 7.071068e-011
6684000000 -0.045324389 0.084458351 -0.016008552 -0.011721861 7.071068e-011 7.071068e-011 7.071068e-011 7.071068e-011
6692400000 0.1054535 0.048256196 0.013138181 -0.016433241 7.071068e-011 7.071068e-011 7.071068e-011 7.071068e-011
6700800000 0.086041503 0.017365638 0.016231146 0.013849457 7.071068e-011 7.071068e-011 7.071068e-011 7.071068e-011
6709200000 0.077973738 -0.040245563 -0.014293298 0.014583205 7.071068e-011 7.071068e-011 7.071068e-011 7.071068e-011
6717600000 -0.031513713 0.032084148 -0.011685145 -0.015506035 7.071068e-011 7.071068e-011 7.071068e-011 7.071068e-011
6726000000 0.1531955 0.1177108 0.0160999 -0.0085785147 7.071068e-011 7.071068e-011 7.071068e-011 7.071068e-011
6734400000 0.13149209 -0.13847877 0.004954055 0.015893009 7.071068e-011 7.071068e-011 7.071068e-011 7.071068e-011
6742800000 -0.10787777 0.02181061 -0.015927095 0.0010396305 7.071068e-011 7.071068e-011 7.071068e-011 7.071068e-011
6751200000 0.1672333 0.15573727 0.0024258401 -0.015655175 7.071068e-011 7.071068e-011 7.071068e-011 7.071068e-011
6759600000 0.15597673 -0.16881773 0.01370486 0.0060960879 7.071068e-011 7.071068e-011 7.071068e-011 7.071068e-011
6768000000 -0.14701195 -0.011921784 -0.01010587 0.011158891 7.071068e-011 7.071068e-011 7.071068e-011 7.071068e-011
6776400000 0.12882906 0.18196729 -0.0088792425 -0.012937444 7.071068e-011 7.071068e-011 7.071068e-011 7.071068e-011
6784800000 0.15652558 -0.14230478 0.014279961 -0.0049451198 7.071068e-011 7.071068e-011 7.071068e-011 7.071068e-011
6793200000 -0.14651018 -0.01431354 0.00056832627 0.015504807 7.071068e-011 7.071068e-011 7.071068e-011 7.071068e-011
6801600000 0.094995745 0.20551069 -0.015951827 -0.0034638154 7.071068e-011 7.071068e-011 7.071068e-011 7.071068e-011
6810000000 0.17701995 -0.09015397 0.0079729157 -0.014866715 7.071068e-011 7.071068e-011 7.071068e-011 7.071068e-011
6818400000 -0.10279858 -0.017965298 0.012685999 0.012659478 7.071068e-011 7.071068e-011 7.071068e-011 7.071068e-011
6826800000 0.08022289 0.18805018 -0.015575675 0.0098195421 7.071068e-011 7.071068e-011 7.071068e-011 7.071068e-011
6835200000 0.18584073 -0.044503346 -0.0051302793 -0.017730135 7.071068e-011 7.071068e-011 7.071068e-011 7.071068e-011
6843600000 -0.042760912 -0.033102144 0.020201692 -0.00037999536 7.071068e-011 7.071068e-011 7.071068e-011 7.071068e-011
6852000000 0.068708271 0.13005409 -0.0040240479 0.020455655 7.071068e-011 7.071068e-011 7.071068e-011 7.071068e-011
6860400000 0.14823368 -0.016596697 -0.018821016 -0.0091655804 7.071068e-011 7.071068e-011 7.071068e-011 7.071068e-011
6868800000 0.0062344945 -0.030042158 0.014221801 -0.016354723 7.071068e-011 7.071068e-011 7.071068e-011 7.071068e-011
6877200000 0.050611462 0.072261527 0.012952972 0.017934497 7.071068e-011 7.071068e-011 7.071068e-011 7.071068e-011
6885600000 0.092052445 0.0090468861 -0.020379702 0.0079490114 7.071068e-011 7.071068e-011 7.071068e-011 7.071068e-011
6894000000 0.047652356 -0.002118364 -0.0024388412 -0.022029461 7.071068e-011 7.071068e-011 7.071068e-011 7.071068e-011
6902400000 0.038356464 0.019516651 0.022042798 0.0032284397 7.071068e-011 7.071068e-011 7.071068e-011 7.071068e-011
6910800000 0.030967759 0.035950109 -0.0088466574 0.020235345 7.071068e-011 7.071068e-011 7.071068e-011 7.071068e-011
6919200000 0.07645572 0.051714294 -0.01690349 -0.013727656 7.071068e-011 7.071068e-011 7.071068e-011 7.071068e-011
6927600000 0.053824153 -0.011848692 0.017416045 -0.012648795 7.071068e-011 7.071068e-011 7.071068e-011 7.071068e-011
6936000000 -0.003373394 0.057801712 0.0070583671 0.019639429 7.071068e-011 7.071068e-011 7.071068e-011 7.071068e-011
6944400000 0.10834577 0.09320803 -0.020888029 0.00077980798 7.071068e-011 7.071068e-011 7.071068e-011 7.071068e-011
6952800000 0.089874171 -0.043433186 0.0049303598 -0.019936623 7.071068e-011 7.071068e-011 7.071068e-011 7.071068e-011
6961200000 -0.028878741 0.047688145 0.017101048 0.010409961 7.071068e-011 7.071068e-011 7.071068e-011 7.071068e-011
6969600000 0.11785656 0.11045778 -0.014961406 0.013135105 7.071068e-011 7.071068e-011 7.071068e-011 7.071068e-011
6978000000 0.11002503 -0.066487119 -0.0078402665 -0.017683998 7.071068e-011 7.071068e-011 7.071068e-011 7.071068e-011
6986400000 -0.063933507 0.023076732 0.018828522 -0.0016351212 7.071068e-011 7.071068e-011 7.071068e-011 7.071068e-011
6994800000 0.094426893 0.13803861 -0.0043704254 0.018802926 7.071068e-011 7.071068e-011 7.071068e-011 7.071068e-011
7003200000 0.11733988 -0.051908694 -0.016254142 -0.0096955961 7.071068e-011 7.071068e-011 7.071068e-011 7.071068e-011
7011600000 -0.071535401 0.021445215 0.014694166 -0.011766773 7.071068e-011 7.071068e-011 7.071068e-011 7.071068e-011
7020000000 0.078263506 0.16476601 0.0068739336 0.017726447 7.071068e-011 7.071068e-011 7.071068e-011 7.071068e-011
7028400000 0.13950546 -0.021562666 -0.018621184 0.00080460135 7.071068e-011 7.071068e-011 7.071068e-011 7.071068e-011
7036800000 -0.050710265 0.019803038 0.0055792346 -0.018344419 7.071068e-011 7.071068e-011 7.071068e-011 7.071068e-011
7045200000 0.07869193 0.17294049 0.015808739 0.01089726 7.071068e-011 7.071068e-011 7.071068e-011 7.071068e-011
7053600000 0.17304243 0.006113295 -0.015482445 0.011012015 7.071068e-011 7.071068e-011 7.071068e-011 7.071068e-011
7062000000 -0.0028130712 -0.012855724 -0.0054220632 -0.018946765 7.071068e-011 7.071068e-011 7.071068e-011 7.071068e-011
7070400000 0.068309151 0.14041109 0.019865841 0.00035700761 7.071068e-011 7.071068e-011 7.071068e-011 7.071068e-011
7078800000 0.17143834 0.015903071 -0.0070209983 0.018279085 7.071068e-011 7.071068e-011 7.071068e-011 7.071068e-011
7087200000 0.038626246 -0.032302611 -0.015583714 -0.012889355 7.071068e-011 7.071068e-011 7.071068e-011 7.071068e-011
7095600000 0.052266568 0.087305091 0.01706936 -0.011021089 7.071068e-011 7.071068e-011 7.071068e-011 7.071068e-011
7104000000 0.14862271 0.017365862 0.0047152336 0.019709608 7.071068e-011 7.071068e-011 7.071068e-011 7.071068e-011
7112400000 0.056958016 -0.04636433 -0.020501247 -0.0021586514 7.071068e-011 7.071068e-011 7.071068e-011 7.071068e-011
7120800000 0.030757159 0.028215488 0.0083554741 -0.01908735 7.071068e-011 7.071068e-011 7.071068e-011 7.071068e-011
7129200000 0.089183152 0.01907539 0.015106339 0.01380291 7.071068e-011 7.071068e-011 7.071068e-011 7.071068e-011
7137600000 0.047405157 -0.038183432 -0.018441394 0.0097316671 7.071068e-011 7.071068e-011 7.071068e-011 7.071068e-011
7146000000 -0.00012222977 0.0098162787 -0.003516241 -0.020734645 7.071068e-011 7.071068e-011 7.071068e-011 7.071068e-011
7154400000 0.02817658 0.041800778 0.020579822 0.0033092189 7.071068e-011 7.071068e-011 7.071068e-011 7.071068e-011
7162800000 0.046161864 0.017194103 -0.0099346228 0.018013425 7.071068e-011 7.071068e-011 7.071068e-011 7.071068e-011
7171200000 0.0035500969 0.017834617 -0.013921516 -0.015412758 7.071068e-011 7.071068e-011 7.071068e-011 7.071068e-011
7179600000 0.01458934 0.070120215 0.018886639 -0.0080713248 7.071068e-011 7.071068e-011 7.071068e-011 7.071068e-011
7188000000 0.066594183 0.059946343 0.0010738866 0.020788319 7.071068e-011 7.071068e-011 7.071068e-011 7.071068e-011
7196400000 0.043677263 0.010119625 -0.020038484 -0.0056285039 7.071068e-011 7.071068e-011 7.071068e-011 7.071068e-011
7204800000 0.010213341 0.062747508 0.012009055 -0.016436759 7.071068e-011 7.071068e-011 7.071068e-011 7.071068e-011
7213200000 0.078989238 0.071343683 0.011482646 0.017078664 7.071068e-011 7.071068e-011 7.071068e-011 7.071068e-011
7221600000 0.071803294 -0.002505325 -0.020082615 0.0052911206 7.071068e-011 7.071068e-011 7.071068e-011 7.071068e-011
7230000000 -0.00073855207 0.028570848 0.0017262334 -0.020536484 7.071068e-011 7.071068e-011 7.071068e-011 7.071068e-011
7238400000 0.064809874 0.078750417 0.018751599 0.0089594144 7.071068e-011 7.071068e-011 7.071068e-011 7.071068e-011
7246800000 0.081238657 -0.0094892271 -0.01467072 0.014788517 7.071068e-011 7.071068e-011 7.071068e-011 7.071068e-011
7255200000 -0.013142604 6.6820037e-005 -0.0086120265 -0.018683737 7.071068e-011 7.071068e-011 7.071068e-011 7.071068e-011
7263600000 0.027090268 0.084125273 0.020746727 -0.0018385127 7.071068e-011 7.071068e-011 7.071068e-011 7.071068e-011
7272000000 0.078517459 0.0078448746 -0.0050765672 0.020017758 7.071068e-011 7.071068e-011 7.071068e-011 7.071068e-011
7280400000 -0.023503892 -0.0060984036 -0.016956134 -0.01171661 7.071068e-011 7.071068e-011 7.071068e-011 7.071068e-011
7288800000 -0.0088935867 0.10304163 0.017142855 -0.011642527 7.071068e-011 7.071068e-011 7.071068e-011 7.071068e-011
7297200000 0.084871553 0.059928928 0.0051053488 0.020158691 7.071068e-011 7.071068e-011 7.071068e-011 7.071068e-011
7305600000 0.0087564783 0.004352828 -0.020499285 -0.0023230605 7.071068e-011 7.071068e-011 7.071068e-011 7.071068e-011
7314000000 -0.0040578749 0.10631318 0.0092617478 -0.018891152 7.071068e-011 7.071068e-011 7.071068e-011 7.071068e-011
7322400000 0.10884488 0.085572794 0.014402487 0.014882749 7.071068e-011 7.071068e-011 7.071068e-011 7.071068e-011
7330800000 0.060238272 -0.011735855 -0.01932564 0.0079031419 7.071068e-011 7.071068e-011 7.071068e-011 7.071068e-011
7339200000 0.0041450942 0.060856182 -0.0008811024 -0.021236081 7.071068e-011 7.071068e-011 7.071068e-011 7.071068e-011
7347600000 0.099125385 0.072051816 0.020079205 0.0062883026 7.071068e-011 7.071068e-011 7.071068e-011 7.071068e-011
7356000000 0.07605812 -0.033502765 -0.012963343 0.016349327 7.071068e-011 7.071068e-011 7.071068e-011 7.071068e-011
7364400000 -0.010112565 0.012280687 -0.011016455 -0.018096527 7.071068e-011 7.071068e-011 7.071068e-011 7.071068e-011
7372800000 0.054602336 0.054853495 0.020544689 -0.0041504903 7.071068e-011 7.071068e-011 7.071068e-011 7.071068e-011
7381200000 0.053069334 -0.031001776 -0.0037530551 0.020809229 7.071068e-011 7.071068e-011 7.071068e-011 7.071068e-011
7389600000 -0.040976916 0.00060266815 -0.018352062 -0.010709429 7.071068e-011 7.071068e-011 7.071068e-011 7.071068e-011
7398000000 0.0055728275 0.072001167 0.016416935 -0.01318083 7.071068e-011 7.071068e-011 7.071068e-011 7.071068e-011
7406400000 0.032937601 0.01483984 0.0065713865 0.020130651 7.071068e-011 7.071068e-011 7.071068e-011 7.071068e-011
7414800000 -0.037975594 0.027343154 -0.021342918 -0.00082024082 7.071068e-011 7.071068e-011 7.071068e-011 7.071068e-011
7423200000 -0.0017482381 0.10348325 0.0081685781 -0.019654388 7.071068e-011 7.071068e-011 7.071068e-011 7.071068e-011
7431600000 0.055577647 0.060773525 0.015411018 0.01477345 7.071068e-011 7.071068e-011 7.071068e-011 7.071068e-011
7440000000 0.013354079 0.038253859 -0.019247232 0.0094427383 7.071068e-011 7.071068e-011 7.071068e-011 7.071068e-011
7448400000 0.024028528 0.08570531 -0.0019549113 -0.021112874 7.071068e-011 7.071068e-011 7.071068e-011 7.071068e-011
7456800000 0.077534311 0.055320445 0.020472106 0.0057292632 7.071068e-011 7.071068e-011 7.071068e-011 7.071068e-011
7465200000 0.046034381 0.013920755 -0.012575815 0.017208863 7.071068e-011 7.071068e-011 7.071068e-011 7.071068e-011
7473600000 0.028634166 0.036997531 -0.011602633 -0.017666638 7.071068e-011 7.071068e-011 7.071068e-011 7.071068e-011
7482000000 0.058303583 0.033161681 0.020600775 -0.0042884154 7.071068e-011 7.071068e-011 7.071068e-011 7.071068e-011
7490400000 0.043669824 -0.010737541 -0.0033152883 0.020847492 7.071068e-011 7.071068e-011 7.071068e-011 7.071068e-011
7498800000 -0.00076104631 -0.00166442 -0.01814365 -0.010451313 7.071068e-011 7.071068e-011 7.071068e-011 7.071068e-011
7507200000 0.00047280558 0.031065309 0.016234497 -0.013214005 7.071068e-011 7.071068e-011 7.071068e-011 7.071068e-011
7515600000 0.020735467 0.01526696 0.0065215765 0.019781286 7.071068e-011 7.071068e-011 7.071068e-011 7.071068e-011
7524000000 -0.021131281 0.0031869125 -0.020674516 -0.0010775854 7.071068e-011 7.071068e-011 7.071068e-011 7.071068e-011
7532400000 -0.034063905 0.06004858 0.0085429056 -0.018808024 7.071068e-011 7.071068e-011 7.071068e-011 7.071068e-011
7540800000 0.022689201 0.073249705 0.014547384 0.014576978 7.071068e-011 7.071068e-011 7.071068e-011 7.071068e-011
7549200000 0.019569503 0.022377685 -0.01848416 0.0079790615 7.071068e-011 7.071068e-011 7.071068e-011 7.071068e-011
7557600000 -0.018457687 0.060926512 -0.00057490915 -0.02023796 7.071068e-011 7.071068e-011 7.071068e-011 7.071068e-011
7566000000 0.047856193 0.08370433 0.018903032 0.0067671593 7.071068e-011 7.071068e-011 7.071068e-011 7.071068e-011
7574400000 0.060993012 0.0077162548 -0.01337226 0.014973025 7.071068e-011 7.071068e-011 7.071068e-011 7.071068e-011
7582800000 -0.010014197 0.015486387 -0.0090403249 -0.017927239 7.071068e-011 7.071068e-011 7.071068e-011 7.071068e-011
7591200000 0.036772452 0.064320028 0.019733999 -0.0019669966 7.071068e-011 7.071068e-011 7.071068e-011 7.071068e-011
7599600000 0.059121121 -0.015066893 -0.0055364207 0.018721128 7.071068e-011 7.071068e-011 7.071068e-011 7.071068e-011
7608000000 -0.030911395 -0.020554341 -0.015589899 -0.012489744 7.071068e-011 7.071068e-011 7.071068e-011 7.071068e-011
7616400000 -0.015029106 0.056713279 0.017105734 -0.010184367 7.071068e-011 7.071068e-011 7.071068e-011 7.071068e-011
7624800000 0.031547531 0.0051275389 0.002881343 0.019527972 7.071068e-011 7.071068e-011 7.071068e-011 7.071068e-011
7633200000 -0.052695513 -0.0063089188 -0.019170199 -0.0044727437 7.071068e-011 7.071068e-011 7.071068e-011 7.071068e-011
7641600000 -0.038349245 0.086932316 0.011250276 -0.015971599 7.071068e-011 7.071068e-011 7.071068e-011 7.071068e-011
7650000000 0.037832197 0.053052817 0.010629759 0.016488478 7.071068e-011 7.071068e-011 7.071068e-011 7.071068e-011
7658400000 -0.021028128 0.011707561 -0.019486042 0.0039283265 7.071068e-011 7.071068e-011 7.071068e-011 7.071068e-011
7666800000 -0.022703258 0.095859148 0.003285117 -0.019289592 7.071068e-011 7.071068e-011 7.071068e-011 7.071068e-011
7675200000 0.069529437 0.071596302 0.016254621 0.01060879 7.071068e-011 7.071068e-011 7.071068e-011 7.071068e-011
7683600000 0.032036602 -0.0040186648 -0.016161378 0.011415952 7.071068e-011 7.071068e-011 7.071068e-011 7.071068e-011
7692000000 -0.005318813 0.04685317 -0.0047410871 -0.019100413 7.071068e-011 7.071068e-011 7.071068e-011 7.071068e-011
7700400000 0.065797351 0.043915853 0.019478749 0.0026402678 7.071068e-011 7.071068e-011 7.071068e-011 7.071068e-011
7708800000 0.035678405 -0.039844409 -0.009827245 0.017029805 7.071068e-011 7.071068e-011 7.071068e-011 7.071068e-011
7717200000 -0.033735208 0.00080380344 -0.012165778 -0.015520775 7.071068e-011 7.071068e-011 7.071068e-011 7.071068e-011
7725600000 0.016979845 0.03380724 0.018937996 -0.0052892584 7.071068e-011 7.071068e-011 7.071068e-011 7.071068e-011
7734000000 0.0139599 -0.03570376 -0.0019589989 0.019763799 7.071068e-011 7.071068e-011 7.071068e-011 7.071068e-011
7742400000 -0.070675902 -0.012185067 -0.017377682 -0.0090028774 7.071068e-011 7.071068e-011 7.071068e-011 7.071068e-011
7750800000 -0.040630635 0.062340003 0.015098278 -0.012695253 7.071068e-011 7.071068e-011 7.071068e-011 7.071068e-011
7759200000 0.0015696683 0.025389558 0.0062149251 0.018832926 7.071068e-011 7.071068e-011 7.071068e-011 7.071068e-011
7767600000 -0.053363632 0.019360814 -0.019780014 -0.0012801203 7.071068e-011 7.071068e-011 7.071068e-011 7.071068e-011
7776000000 -0.037813269 0.091080055 0.0085775629 -0.017700849 7.071068e-011 7.071068e-011 7.071068e-011 7.071068e-011
7784400000 0.031552885 0.067972764 0.013250091 0.01463198 7.071068e-011 7.071068e-011 7.071068e-011 7.071068e-011
7792800000 0.0011516501 0.024803974 -0.018399753 0.0067110984 7.071068e-011 7.071068e-011 7.071068e-011 7.071068e-011
7801200000 -0.0075372239 0.070267983 0.00090585329 -0.019850396 7.071068e-011 7.071068e-011 7.071068e-011 7.071068e-011
7809600000 0.053056117 0.058399461 0.018117214 0.0080479598 7.071068e-011 7.071068e-011 7.071068e-011 7.071068e-011
7818000000 0.035360113 -0.0042254436 -0.014284309 0.013455457 7.071068e-011 7.071068e-011 7.071068e-011 7.071068e-011
7826400000 -0.0055642575 0.020727396 -0.0071650422 -0.018379262 7.071068e-011 7.071068e-011 7.071068e-011 7.071068e-011
7834800000 0.032537825 0.031722043 0.019727537 0.00025219994 7.071068e-011 7.071068e-011 7.071068e-011 7.071068e-011
7843200000 0.0253505 -0.019809877 -0.0076648672 0.018232862 7.071068e-011 7.071068e-011 7.071068e-011 7.071068e-011
7851600000 -0.026909471 -0.0045502512 -0.014006199 -0.014049219 7.071068e-011 7.071068e-011 7.071068e-011 7.071068e-011
7860000000 -0.0040012929 0.030755561 0.018176829 -0.0077536893 7.071068e-011 7.071068e-011 7.071068e-011 7.071068e-011
7868400000 0.010262759 -0.0035638369 0.00013969561 0.01971256 7.071068e-011 7.071068e-011 7.071068e-011 7.071068e-011
7876800000 -0.036134686 -0.0037399754 -0.018536551 -0.0072901305 7.071068e-011 7.071068e-011 7.071068e-011 7.071068e-011
7885200000 -0.030595351 0.043379676 0.013519906 -0.014459127 7.071068e-011 7.071068e-011 7.071068e-011 7.071068e-011
7893600000 0.008852982 0.036284842 0.0081564514 0.017777996 7.071068e-011 7.071068e-011 7.071068e-011 7.071068e-011
7902000000 -0.0082534691 0.0091858599 -0.019641858 0.00058398122 7.071068e-011 7.071068e-011 7.071068e-011 7.071068e-011
7910400000 -0.021478355 0.039150927 0.0067460779 -0.01856775 7.071068e-011 7.071068e-011 7.071068e-011 7.071068e-011
7918800000 0.017198868 0.048966937 0.014469031 0.013062722 7.071068e-011 7.071068e-011 7.071068e-011 7.071068e-011
7927200000 0.028479964 0.0073766513 -0.017564273 0.0083604138 7.071068e-011 7.071068e-011 7.071068e-011 7.071068e-011
7935600000 -0.0079089077 0.005877221 -0.0010307117 -0.019297706 7.071068e-011 7.071068e-011 7.071068e-011 7.071068e-011
7944000000 0.010893972 0.033106592 0.018201737 0.006498856 7.071068e-011 7.071068e-011 7.071068e-011 7.071068e-011
7952400000 0.037575383 -0.0054944265 -0.012964697 0.014331368 7.071068e-011 7.071068e-011 7.071068e-011 7.071068e-011
7960800000 -0.015032554 -0.033506941 -0.0084286919 -0.017369553 7.071068e-011 7.071068e-011 7.071068e-011 7.071068e-011
7969200000 -0.029256638 0.020944159 0.018986929 -0.0010937528 7.071068e-011 7.071068e-011 7.071068e-011 7.071068e-011
7977600000 0.020111045 0.0067562256 -0.0063592969 0.017948538 7.071068e-011 7.071068e-011 7.071068e-011 7.071068e-011
7986000000 -0.024321107 -0.03971855 -0.014193564 -0.012685645 7.071068e-011 7.071068e-011 7.071068e-011 7.071068e-011
7994400000 -0.065273538 0.024831109 0.017044183 -0.0082960306 7.071068e-011 7.071068e-011 7.071068e-011 7.071068e-011
