!Keysight Technologies,N5235B,MY61252044,A.15.00.15
!Date: Friday, January 20, 2023 20:58:33
!Correction: S11(Off) 
!S21(Off) 
!S12(Off) 
!S22(Off) 
!S2P File: Measurements: S11, S21, S12, S22:
# Hz S  RI   R 50
6600000000 0.016978549 -0.17466086 0.014876974 -0.0052498244 7.071068e-011 7.071068e-011 7.071068e-011 7.071068e-011
6601680336.0672 -0.060464568 -0.15834634 0.0033208316 -0.014796513 7.071068e-011 7.071068e-011 7.071068e-011 7.071068e-011
6603360672.1344 -0.12838222 -0.10452119 -0.010302531 -0.010299045 7.071068e-011 7.071068e-011 7.071068e-011 7.071068e-011
6605041008.2016 -0.16817498 -0.020887084 -0.013515932 0.0029923434 7.071068e-011 7.071068e-011 7.071068e-011 7.071068e-011
6606721344.2689 -0.16748928 0.076303884 -0.0046300655 0.012113862 7.071068e-011 7.071068e-011 7.071068e-011 7.071068e-011
6608401680.3361 -0.12360842 0.16668768 0.0068039857 0.0099828495 7.071068e-011 7.071068e-011 7.071068e-011 7.071068e-011
6610082016.4033 -0.043885246 0.23138107 0.011343523 0.00036861381 7.071068e-011 7.071068e-011 7.071068e-011 7.071068e-011
6611762352.4705 0.05694719 0.25743172 0.0067671826 -0.0084541077 7.071068e-011 7.071068e-011 7.071068e-011 7.071068e-011
6613442688.5377 0.16061834 0.23972949 -0.0026217501 -0.01011045 7.071068e-011 7.071068e-011 7.071068e-011 7.071068e-011
6615123024.6049 0.24897234 0.1811807 -0.0093118576 -0.0038067766 7.071068e-011 7.071068e-011 7.071068e-011 7.071068e-011
6616803360.6721 0.30693886 0.091543593 -0.0083116163 0.0048935018 7.071068e-011 7.071068e-011 7.071068e-011 7.071068e-011
6618483696.7393 0.32468179 -0.014570434 -0.0012679923 0.0091999415 7.071068e-011 7.071068e-011 7.071068e-011 7.071068e-011
6620164032.8066 0.29870495 -0.12006133 0.0062001697 0.0066563063 7.071068e-011 7.071068e-011 7.071068e-011 7.071068e-011
6621844368.8738 0.23226471 -0.20758153 0.0091103325 -0.00060539553 7.071068e-011 7.071068e-011 7.071068e-011 7.071068e-011
6623524704.941 0.13529693 -0.26195458 0.0052616973 -0.0076927892 7.071068e-011 7.071068e-011 7.071068e-011 7.071068e-011
6625205041.0082 0.023432285 -0.27296558 -0.0030210137 -0.0089839827 7.071068e-011 7.071068e-011 7.071068e-011 7.071068e-011
6626885377.0754 -0.08436314 -0.2374845 -0.0090153748 -0.0029243606 7.071068e-011 7.071068e-011 7.071068e-011 7.071068e-011
6628565713.1426 -0.16897267 -0.16066603 -0.0076768175 0.005332523 7.071068e-011 7.071068e-011 7.071068e-011 7.071068e-011
6630246049.2098 -0.21480384 -0.055620663 -0.00053891871 0.009221483 7.071068e-011 7.071068e-011 7.071068e-011 7.071068e-011
6631926385.2771 -0.21343826 0.058748983 0.0068882941 0.0061698174 7.071068e-011 7.071068e-011 7.071068e-011 7.071068e-011
6633606721.3443 -0.16557738 0.16178501 0.0092029832 -0.001625513 7.071068e-011 7.071068e-011 7.071068e-011 7.071068e-011
6635287057.4115 -0.080670662 0.23548636 0.004355886 -0.0083374688 7.071068e-011 7.071068e-011 7.071068e-011 7.071068e-011
6636967393.4787 0.025512654 0.26790056 -0.0038961649 -0.0085002566 7.071068e-011 7.071068e-011 7.071068e-011 7.071068e-011
6638647729.5459 0.1342562 0.25485447 -0.0089789163 -0.0022576195 7.071068e-011 7.071068e-011 7.071068e-011 7.071068e-011
6640328065.6131 0.22746801 0.20005132 -0.0074781748 0.0054741027 7.071068e-011 7.071068e-011 7.071068e-011 7.071068e-011
6642008401.6803 0.29048213 0.11354633 -0.00063490821 0.0094632031 7.071068e-011 7.071068e-011 7.071068e-011 7.071068e-011
6643688737.7475 0.31377622 0.009814119 0.0072149164 0.0067804479 7.071068e-011 7.071068e-011 7.071068e-011 7.071068e-011
6645369073.8148 0.29393712 -0.094292335 0.010292221 -0.0015353827 7.071068e-011 7.071068e-011 7.071068e-011 7.071068e-011
6647049409.882 0.23416242 -0.18174537 0.0052438453 -0.0095017664 7.071068e-011 7.071068e-011 7.071068e-011 7.071068e-011
6648729745.9492 0.14420475 -0.23782313 -0.0045217499 -0.010222658 7.071068e-011 7.071068e-011 7.071068e-011 7.071068e-011
6650410082.0164 0.039177217 -0.25267327 -0.011141179 -0.0027274387 7.071068e-011 7.071068e-011 7.071068e-011 7.071068e-011
6652090418.0836 -0.062655672 -0.22338822 -0.0092439959 0.0073601119 7.071068e-011 7.071068e-011 7.071068e-011 7.071068e-011
6653770754.1508 -0.14305115 -0.15517063 0.0002376062 0.012212097 7.071068e-011 7.071068e-011 7.071068e-011 7.071068e-011
6655451090.218 -0.18759347 -0.060786225 0.01017946 0.0073670433 7.071068e-011 7.071068e-011 7.071068e-011 7.071068e-011
6657131426.2853 -0.18905 0.041890834 0.012238024 -0.003763333 7.071068e-011 7.071068e-011 7.071068e-011 7.071068e-011
6658811762.3525 -0.14873289 0.13388842 0.004523539 -0.01214014 7.071068e-011 7.071068e-011 7.071068e-011 7.071068e-011
6660492098.4197 -0.075996444 0.19911402 -0.006858605 -0.011235899 7.071068e-011 7.071068e-011 7.071068e-011 7.071068e-011
6662172434.4869 0.014146445 0.22751224 -0.013419857 -0.001649366 7.071068e-011 7.071068e-011 7.071068e-011 7.071068e-011
6663852770.5541 0.10456198 0.21678469 -0.0099501843 0.0098920632 7.071068e-011 7.071068e-011 7.071068e-011 7.071068e-011
6665533106.6213 0.17973214 0.1718569 0.0018200427 0.014505324 7.071068e-011 7.071068e-011 7.071068e-011 7.071068e-011
6667213442.6885 0.22819817 0.10290357 0.013163381 0.007633667 7.071068e-011 7.071068e-011 7.071068e-011 7.071068e-011
6668893778.7558 0.24378575 0.023168575 0.014547216 -0.0061319745 7.071068e-011 7.071068e-011 7.071068e-011 7.071068e-011
6670574114.823 0.22605741 -0.053310174 0.0039784671 -0.015878299 7.071068e-011 7.071068e-011 7.071068e-011 7.071068e-011
6672254450.8902 0.17996854 -0.11371143 -0.010725114 -0.013132233 7.071068e-011 7.071068e-011 7.071068e-011 7.071068e-011
6673934786.9574 0.1150241 -0.14842017 -0.017489178 0.00086381071 7.071068e-011 7.071068e-011 7.071068e-011 7.071068e-011
6675615123.0246 0.043919139 -0.15251963 -0.0099009937 0.014995715 7.071068e-011 7.071068e-011 7.071068e-011 7.071068e-011
6677295459.0918 -0.019820031 -0.12713136 0.0063353283 0.017208168 7.071068e-011 7.071068e-011 7.071068e-011 7.071068e-011
6678975795.159 -0.064753845 -0.07909479 0.017904997 0.0052620089 7.071068e-011 7.071068e-011 7.071068e-011 7.071068e-011
6680656131.2262 -0.08375854 -0.019421317 0.015213614 -0.011422904 7.071068e-011 7.071068e-011 7.071068e-011 7.071068e-011
6682336467.2935 -0.0754987 0.038996678 -9.3324423e-005 -0.019421151 7.071068e-011 7.071068e-011 7.071068e-011 7.071068e-011
6684016803.3607 -0.044903412 0.084377281 -0.015992757 -0.011693377 7.071068e-011 7.071068e-011 7.071068e-011 7.071068e-011
6685697139.4279 -0.0017154131 0.10926457 -0.019198272 0.0060553504 7.071068e-011 7.071068e-011 7.071068e-011 7.071068e-011
6687377475.4951 0.042626556 0.11213338 -0.0065899589 0.019282022 7.071068e-011 7.071068e-011 7.071068e-011 7.071068e-011
6689057811.5623 0.078089923 0.097230889 0.011696384 0.016935684 7.071068e-011 7.071068e-011 7.071068e-011 7.071068e-011
6690738147.6295 0.098968044 0.072924711 0.020777555 0.0007181128 7.071068e-011 7.071068e-011 7.071068e-011 7.071068e-011
6692418483.6967 0.10529643 0.048279263 0.013096582 -0.01643296 7.071068e-011 7.071068e-011 7.071068e-011 7.071068e-011
6694098819.764 0.101477 0.02953589 -0.0054815505 -0.020509969 7.071068e-011 7.071068e-011 7.071068e-011 7.071068e-011
6695779155.8312 0.093315937 0.01907743 -0.019942492 -0.0077942964 7.071068e-011 7.071068e-011 7.071068e-011 7.071068e-011
6697459491.8984 0.086168036 0.01604424 -0.01813156 0.011528582 7.071068e-011 7.071068e-011 7.071068e-011 7.071068e-011
6699139827.9656 0.08363691 0.016954022 -0.0014336894 0.021390321 7.071068e-011 7.071068e-011 7.071068e-011 7.071068e-011
6700820164.0328 0.086203493 0.017278273 0.016232682 0.013804569 7.071068e-011 7.071068e-011 7.071068e-011 7.071068e-011
6702500500.1 0.091690555 0.013679092 0.020645756 -0.0047162124 7.071068e-011 7.071068e-011 7.071068e-011 7.071068e-011
6704180836.1672 0.096835412 0.004756805 0.0085695386 -0.01925141 7.071068e-011 7.071068e-011 7.071068e-011 7.071068e-011
6705861172.2344 0.098045669 -0.0091146464 -0.010252118 -0.018283717 7.071068e-011 7.071068e-011 7.071068e-011 7.071068e-011
6707541508.3017 0.092132263 -0.025459452 -0.020574527 -0.0026677931 7.071068e-011 7.071068e-011 7.071068e-011 7.071068e-011
6709221844.3689 0.077722229 -0.040247023 -0.014231348 0.014607167 7.071068e-011 7.071068e-011 7.071068e-011 7.071068e-011
6710902180.4361 0.055477988 -0.049212795 0.0029108096 0.019770538 7.071068e-011 7.071068e-011 7.071068e-011 7.071068e-011
6712582516.5033 0.027810097 -0.048276749 0.017099705 0.0096737025 7.071068e-011 7.071068e-011 7.071068e-011 7.071068e-011
6714262852.5705 -0.0005471296 -0.03411356 0.018002223 -0.0074352105 7.071068e-011 7.071068e-011 7.071068e-011 7.071068e-011
6715943188.6377 -0.022635169 -0.006081589 0.005158152 -0.018744454 7.071068e-011 7.071068e-011 7.071068e-011 7.071068e-011
6717623524.7049 -0.031447563 0.032345302 -0.011735336 -0.015444341 7.071068e-011 7.071068e-011 7.071068e-011 7.071068e-011
6719303860.7722 -0.022379238 0.074385978 -0.019212775 1.72936e-005 7.071068e-011 7.071068e-011 7.071068e-011 7.071068e-011
6720984196.8394 0.0057063699 0.11143347 -0.011460572 0.014996605 7.071068e-011 7.071068e-011 7.071068e-011 7.071068e-011
6722664532.9066 0.049685448 0.13470386 0.0046882066 0.017931905 7.071068e-011 7.071068e-011 7.071068e-011 7.071068e-011
6724344868.9738 0.10221173 0.137577 0.016787456 0.0073443921 7.071068e-011 7.071068e-011 7.071068e-011 7.071068e-011
6726025205.041 0.15364775 0.11757918 0.016049169 -0.0086552734 7.071068e-011 7.071068e-011 7.071068e-011 7.071068e-011
6727705541.1082 0.19415562 0.076563656 0.0029118885 -0.01788347 7.071068e-011 7.071068e-011 7.071068e-011 7.071068e-011
6729385877.1754 0.21524872 0.020372415 -0.012230961 -0.012963926 7.071068e-011 7.071068e-011 7.071068e-011 7.071068e-011
6731066213.2426 0.21142764 -0.041599043 -0.017276822 0.0016498037 7.071068e-011 7.071068e-011 7.071068e-011 7.071068e-011
6732746549.3099 0.18195289 -0.098206967 -0.009261325 0.014145023 7.071068e-011 7.071068e-011 7.071068e-011 7.071068e-011
6734426885.3771 0.13092105 -0.13903533 0.0050363746 0.01585157 7.071068e-011 7.071068e-011 7.071068e-011 7.071068e-011
6736107221.4443 0.066277429 -0.15618421 0.015394479 0.006043592 7.071068e-011 7.071068e-011 7.071068e-011 7.071068e-011
6737787557.5115 -0.0011819901 -0.14537883 0.014295847 -0.0082464134 7.071068e-011 7.071068e-011 7.071068e-011 7.071068e-011
6739467893.5787 -0.059396006 -0.10729107 0.002370113 -0.016209373 7.071068e-011 7.071068e-011 7.071068e-011 7.071068e-011
6741148229.6459 -0.097495079 -0.047844108 -0.011051139 -0.011780974 7.071068e-011 7.071068e-011 7.071068e-011 7.071068e-011
6742828565.7131 -0.10803004 0.022939146 -0.015895067 0.0011428396 7.071068e-011 7.071068e-011 7.071068e-011 7.071068e-011
6744508901.7804 -0.088313691 0.092629366 -0.0091482224 0.012979073 7.071068e-011 7.071068e-011 7.071068e-011 7.071068e-011
6746189237.8476 -0.041231949 0.14857008 0.0043526613 0.015364232 7.071068e-011 7.071068e-011 7.071068e-011 7.071068e-011
6747869573.9148 0.025074515 0.18052818 0.014862156 0.0061550927 7.071068e-011 7.071068e-011 7.071068e-011 7.071068e-011
6749549909.982 0.099095732 0.1828796 0.013951294 -0.0079398872 7.071068e-011 7.071068e-011 7.071068e-011 7.071068e-011
6751230246.0492 0.16836812 0.1550699 0.0022985251 -0.015649127 7.071068e-011 7.071068e-011 7.071068e-011 7.071068e-011
6752910582.1164 0.22166561 0.10157152 -0.0105599 -0.011342593 7.071068e-011 7.071068e-011 7.071068e-011 7.071068e-011
6754590918.1836 0.24920082 0.03045862 -0.015233988 0.00099571131 7.071068e-011 7.071068e-011 7.071068e-011 7.071068e-011
6756271254.2508 0.24641658 -0.046494402 -0.0088147055 0.012338044 7.071068e-011 7.071068e-011 7.071068e-011 7.071068e-011
6757951590.3181 0.21332522 -0.11694316 0.0040099546 0.014555218 7.071068e-011 7.071068e-011 7.071068e-011 7.071068e-011
6759631926.3853 0.15468232 -0.16943717 0.013738651 0.0059728953 7.071068e-011 7.071068e-011 7.071068e-011 7.071068e-011
6761312262.4525 0.079358175 -0.19509992 0.013150574 -0.0067837704 7.071068e-011 7.071068e-011 7.071068e-011 7.071068e-011
6762992598.5197 -0.00074321608 -0.18919426 0.0031613305 -0.014307191 7.071068e-011 7.071068e-011 7.071068e-011 7.071068e-011
6764672934.5869 -0.072657853 -0.15202864 -0.0089212982 -0.011617178 7.071068e-011 7.071068e-011 7.071068e-011 7.071068e-011
6766353270.6541 -0.12439997 -0.089105889 -0.01478818 -0.00060397276 7.071068e-011 7.071068e-011 7.071068e-011 7.071068e-011
6768033606.7213 -0.14692508 -0.010469947 -0.0099978298 0.011233397 7.071068e-011 7.071068e-011 7.071068e-011 7.071068e-011
6769713942.7886 -0.13595018 0.07064601 0.0025117644 0.015040655 7.071068e-011 7.071068e-011 7.071068e-011 7.071068e-011
6771394278.8558 -0.093215562 0.14014515 0.013432473 0.0075073666 7.071068e-011 7.071068e-011 7.071068e-011 7.071068e-011
6773074614.923 -0.026323795 0.18594143 0.014345699 -0.0058247289 7.071068e-011 7.071068e-011 7.071068e-011 7.071068e-011
6774754950.9902 0.052730065 0.20028 0.0044477768 -0.014943215 7.071068e-011 7.071068e-011 7.071068e-011 7.071068e-011
6776435287.0574 0.12995179 0.18123567 -0.0089999866 -0.012836616 7.071068e-011 7.071068e-011 7.071068e-011 7.071068e-011
6778115623.1246 0.19200982 0.13282111 -0.01562268 -0.00087541481 7.071068e-011 7.071068e-011 7.071068e-011 7.071068e-011
6779795959.1918 0.22876622 0.063968807 -0.010285623 0.011558347 7.071068e-011 7.071068e-011 7.071068e-011 7.071068e-011
6781476295.2591 0.23448215 -0.013482114 0.0024475618 0.015038846 7.071068e-011 7.071068e-011 7.071068e-011 7.071068e-011
6783156631.3263 0.20852667 -0.086518444 0.013009725 0.0076485467 7.071068e-011 7.071068e-011 7.071068e-011 7.071068e-011
6784836967.3935 0.15542243 -0.14298232 0.014216385 -0.0050736284 7.071068e-011 7.071068e-011 7.071068e-011 7.071068e-011
6786517303.4607 0.084145062 -0.17359211 0.0051991213 -0.014309192 7.071068e-011 7.071068e-011 7.071068e-011 7.071068e-011
6788197639.5279 0.0063831126 -0.17349884 -0.0078721074 -0.013191883 7.071068e-011 7.071068e-011 7.071068e-011 7.071068e-011
6789877975.5951 -0.065277614 -0.14271621 -0.015260208 -0.0022118115 7.071068e-011 7.071068e-011 7.071068e-011 7.071068e-011
6791558311.6623 -0.11924463 -0.086131684 -0.011392714 0.010403268 7.071068e-011 7.071068e-011 7.071068e-011 7.071068e-011
6793238647.7295 -0.1467936 -0.012919289 0.00073633477 0.015495174 7.071068e-011 7.071068e-011 7.071068e-011 7.071068e-011
6794918983.7968 -0.14365406 0.065144993 0.012582274 0.0094505511 7.071068e-011 7.071068e-011 7.071068e-011 7.071068e-011
6796599319.864 -0.1103996 0.13563277 0.015586643 -0.0038752155 7.071068e-011 7.071068e-011 7.071068e-011 7.071068e-011
6798279655.9312 -0.052445795 0.18724544 0.006771537 -0.014851145 7.071068e-011 7.071068e-011 7.071068e-011 7.071068e-011
6799959991.9984 0.020606456 0.21163899 -0.007482287 -0.014585317 7.071068e-011 7.071068e-011 7.071068e-011 7.071068e-011
6801640328.0656 0.096495762 0.20520672 -0.01598266 -0.0032680985 7.071068e-011 7.071068e-011 7.071068e-011 7.071068e-011
6803320664.1328 0.16279973 0.16967213 -0.012624993 0.010252224 7.071068e-011 7.071068e-011 7.071068e-011 7.071068e-011
6805001000.2 0.20888242 0.11132652 -0.00015696062 0.016355719 7.071068e-011 7.071068e-011 7.071068e-011 7.071068e-011
6806681336.2673 0.22735591 0.040160667 0.012720775 0.010628895 7.071068e-011 7.071068e-011 7.071068e-011 7.071068e-011
6808361672.3345 0.21548644 -0.031517036 0.016455306 -0.0032788925 7.071068e-011 7.071068e-011 7.071068e-011 7.071068e-011
6810042008.4017 0.17593934 -0.091411069 0.0077710873 -0.014962227 7.071068e-011 7.071068e-011 7.071068e-011 7.071068e-011
6811722344.4689 0.11604477 -0.12953456 -0.0067029349 -0.015453951 7.071068e-011 7.071068e-011 7.071068e-011 7.071068e-011
6813402680.5361 0.046464533 -0.13971671 -0.016209433 -0.0047067259 7.071068e-011 7.071068e-011 7.071068e-011 7.071068e-011
6815083016.6033 -0.020443905 -0.12071992 -0.014173557 0.0095644183 7.071068e-011 7.071068e-011 7.071068e-011 7.071068e-011
6816763352.6705 -0.073106803 -0.07675758 -0.0016505041 0.017416792 7.071068e-011 7.071068e-011 7.071068e-011 7.071068e-011
6818443688.7377 -0.10327259 -0.016259694 0.012875414 0.012471911 7.071068e-011 7.071068e-011 7.071068e-011 7.071068e-011
6820124024.805 -0.10700733 0.050366439 0.018049816 -0.0024554068 7.071068e-011 7.071068e-011 7.071068e-011 7.071068e-011
6821804360.8722 -0.084483191 0.11240847 0.0092732226 -0.015789578 7.071068e-011 7.071068e-011 7.071068e-011 7.071068e-011
6823484696.9394 -0.039975479 0.16004884 -0.0065561626 -0.017082267 7.071068e-011 7.071068e-011 7.071068e-011 7.071068e-011
6825165033.0066 0.018693592 0.18618439 -0.017426288 -0.005638171 7.071068e-011 7.071068e-011 7.071068e-011 7.071068e-011
6826845369.0738 0.081885457 0.18758115 -0.015410068 0.010055541 7.071068e-011 7.071068e-011 7.071068e-011 7.071068e-011
6828525705.141 0.13980973 0.16486114 -0.001823585 0.018401258 7.071068e-011 7.071068e-011 7.071068e-011 7.071068e-011
6830206041.2082 0.18369955 0.12219665 0.01321049 0.012940189 7.071068e-011 7.071068e-011 7.071068e-011 7.071068e-011
6831886377.2755 0.20716162 0.066894278 0.018287009 -0.0020968034 7.071068e-011 7.071068e-011 7.071068e-011 7.071068e-011
6833566713.3427 0.20731312 0.0079327794 0.0099998452 -0.015380701 7.071068e-011 7.071068e-011 7.071068e-011 7.071068e-011
6835247049.4099 0.1847803 -0.045530364 -0.0054049361 -0.017633148 7.071068e-011 7.071068e-011 7.071068e-011 7.071068e-011
6836927385.4771 0.14347099 -0.085074656 -0.017278332 -0.0072536687 7.071068e-011 7.071068e-011 7.071068e-011 7.071068e-011
6838607721.5443 0.090519391 -0.10419982 -0.016950615 0.0089581152 7.071068e-011 7.071068e-011 7.071068e-011 7.071068e-011
6840288057.6115 0.035499651 -0.099983692 -0.0037266256 0.019242611 7.071068e-011 7.071068e-011 7.071068e-011 7.071068e-011
6841968393.6787 -0.011708093 -0.074028745 0.012954463 0.015152054 7.071068e-011 7.071068e-011 7.071068e-011 7.071068e-011
6843648729.7459 -0.043044962 -0.03192943 0.020169064 -0.00072648452 7.071068e-011 7.071068e-011 7.071068e-011 7.071068e-011
6845329065.8132 -0.053650625 0.017932946 0.012126496 -0.016401194 7.071068e-011 7.071068e-011 7.071068e-011 7.071068e-011
6847009401.8804 -0.042856637 0.06605307 -0.0053436556 -0.019889833 7.071068e-011 7.071068e-011 7.071068e-011 7.071068e-011
6848689737.9476 -0.014231708 0.10396643 -0.019064052 -0.008225943 7.071068e-011 7.071068e-011 7.071068e-011 7.071068e-011
6850370074.0148 0.025819203 0.12603331 -0.018339444 0.0098912464 7.071068e-011 7.071068e-011 7.071068e-011 7.071068e-011
6852050410.082 0.069649376 0.12988463 -0.0036567217 0.020499716 7.071068e-011 7.071068e-011 7.071068e-011 7.071068e-011
6853730746.1492 0.10971321 0.11645441 0.013665474 0.015629156 7.071068e-011 7.071068e-011 7.071068e-011 7.071068e-011
6855411082.2164 0.13998 0.089570023 0.020721104 -0.00079624756 7.071068e-011 7.071068e-011 7.071068e-011 7.071068e-011
6857091418.2837 0.15690999 0.054615919 0.012457326 -0.016609346 7.071068e-011 7.071068e-011 7.071068e-011 7.071068e-011
6858771754.3509 0.15935151 0.017205838 -0.0050665354 -0.020212011 7.071068e-011 7.071068e-011 7.071068e-011 7.071068e-011
6860452090.4181 0.14790814 -0.017379096 -0.018970981 -0.0088207843 7.071068e-011 7.071068e-011 7.071068e-011 7.071068e-011
6862132426.4853 0.12482075 -0.04441553 -0.018873585 0.0092245704 7.071068e-011 7.071068e-011 7.071068e-011 7.071068e-011
6863812762.5525 0.093840875 -0.060212877 -0.004754412 0.020564329 7.071068e-011 7.071068e-011 7.071068e-011 7.071068e-011
6865493098.6197 0.059895348 -0.062602594 0.013049807 0.016771475 7.071068e-011 7.071068e-011 7.071068e-011 7.071068e-011
6867173434.6869 0.028669463 -0.051500294 0.021446574 0.00041619295 7.071068e-011 7.071068e-011 7.071068e-011 7.071068e-011
6868853770.7542 0.0055774613 -0.029404294 0.013910448 -0.016620178 7.071068e-011 7.071068e-011 7.071068e-011 7.071068e-011
