!Keysight Technologies,N5235B,MY61252044,A.15.00.15
!Date: Friday, January 20, 2023 20:29:13
!Correction: S11(Off) 
!S21(Off) 
!S12(Off) 
!S22(Off) 
!S2P File: Measurements: S11, S21, S12, S22:
# Hz S  RI   R 50
6600000000 0.016964221 -0.17463057 0.01488032 -0.0052405018 7.071068e-011 7.071068e-011 7.071068e-011 7.071068e-011
6601680336.0672 -0.060465068 -0.15831023 0.0033336617 -0.014795541 7.071068e-011 7.071068e-011 7.071068e-011 7.071068e-011
6603360672.1344 -0.12836857 -0.10449322 -0.010294219 -0.01029974 7.071068e-011 7.071068e-011 7.071068e-011 7.071068e-011
6605041008.2016 -0.168167 -0.020874286 -0.013520578 0.0029801319 7.071068e-011 7.071068e-011 7.071068e-011 7.071068e-011
6606721344.2689 -0.16748327 0.076320454 -0.0046414323 0.012110906 7.071068e-011 7.071068e-011 7.071068e-011 7.071068e-011
6608401680.3361 -0.1235913 0.16669315 0.0067966501 0.0099847196 7.071068e-011 7.071068e-011 7.071068e-011 7.071068e-011
6610082016.4033 -0.043867309 0.23138538 0.011345707 0.00037541334 7.071068e-011 7.071068e-011 7.071068e-011 7.071068e-011
6611762352.4705 0.056954917 0.25742561 0.0067705205 -0.0084495936 7.071068e-011 7.071068e-011 7.071068e-011 7.071068e-011
6613442688.5377 0.16062035 0.23970823 -0.0026120986 -0.01010871 7.071068e-011 7.071068e-011 7.071068e-011 7.071068e-011
6615123024.6049 0.24897443 0.18115318 -0.0093118455 -0.003813429 7.071068e-011 7.071068e-011 7.071068e-011 7.071068e-011
6616803360.6721 0.30692089 0.091519699 -0.0083197495 0.0048855664 7.071068e-011 7.071068e-011 7.071068e-011 7.071068e-011
6618483696.7393 0.32465816 -0.014592597 -0.0012763332 0.0091933776 7.071068e-011 7.071068e-011 7.071068e-011 7.071068e-011
6620164032.8066 0.29868251 -0.12007429 0.0061954046 0.0066648689 7.071068e-011 7.071068e-011 7.071068e-011 7.071068e-011
6621844368.8738 0.23224504 -0.20757787 0.0091168387 -0.0006007909 7.071068e-011 7.071068e-011 7.071068e-011 7.071068e-011
6623524704.941 0.1352718 -0.26195291 0.0052707614 -0.0076851477 7.071068e-011 7.071068e-011 7.071068e-011 7.071068e-011
6625205041.0082 0.023403455 -0.27295038 -0.0030175955 -0.0089908736 7.071068e-011 7.071068e-011 7.071068e-011 7.071068e-011
6626885377.0754 -0.084382899 -0.2374583 -0.009012715 -0.0029314694 7.071068e-011 7.071068e-011 7.071068e-011 7.071068e-011
6628565713.1426 -0.16898069 -0.16063944 -0.0076775188 0.0053278343 7.071068e-011 7.071068e-011 7.071068e-011 7.071068e-011
6630246049.2098 -0.21479826 -0.055589937 -0.0005452715 0.0092230793 7.071068e-011 7.071068e-011 7.071068e-011 7.071068e-011
6631926385.2771 -0.21341951 0.058779512 0.0068836696 0.0061746924 7.071068e-011 7.071068e-011 7.071068e-011 7.071068e-011
6633606721.3443 -0.16555186 0.16179775 0.009204885 -0.0016223326 7.071068e-011 7.071068e-011 7.071068e-011 7.071068e-011
6635287057.4115 -0.080649354 0.23547831 0.0043581221 -0.0083327517 7.071068e-011 7.071068e-011 7.071068e-011 7.071068e-011
6636967393.4787 0.025535662 0.26788181 -0.0038907297 -0.0085043563 7.071068e-011 7.071068e-011 7.071068e-011 7.071068e-011
6638647729.5459 0.13426493 0.2548357 -0.0089782327 -0.0022617676 7.071068e-011 7.071068e-011 7.071068e-011 7.071068e-011
6640328065.6131 0.22748399 0.20004596 -0.0074830065 0.0054673902 7.071068e-011 7.071068e-011 7.071068e-011 7.071068e-011
6642008401.6803 0.29047996 0.11352311 -0.00063991145 0.0094633168 7.071068e-011 7.071068e-011 7.071068e-011 7.071068e-011
6643688737.7475 0.31376699 0.0097963642 0.0072133811 0.0067850458 7.071068e-011 7.071068e-011 7.071068e-011 7.071068e-011
6645369073.8148 0.2939153 -0.094315141 0.010293477 -0.0015312037 7.071068e-011 7.071068e-011 7.071068e-011 7.071068e-011
6647049409.882 0.23413333 -0.18175484 0.0052513429 -0.0094959168 7.071068e-011 7.071068e-011 7.071068e-011 7.071068e-011
6648729745.9492 0.14416343 -0.23781995 -0.004514778 -0.01022952 7.071068e-011 7.071068e-011 7.071068e-011 7.071068e-011
6650410082.0164 0.03914994 -0.25265685 -0.011138531 -0.0027313076 7.071068e-011 7.071068e-011 7.071068e-011 7.071068e-011
6652090418.0836 -0.0626809 -0.22337413 -0.0092515917 0.0073522083 7.071068e-011 7.071068e-011 7.071068e-011 7.071068e-011
6653770754.1508 -0.14305381 -0.15513965 0.00023207108 0.012213864 7.071068e-011 7.071068e-011 7.071068e-011 7.071068e-011
6655451090.218 -0.18761438 -0.060767416 0.010179651 0.0073741674 7.071068e-011 7.071068e-011 7.071068e-011 7.071068e-011
6657131426.2853 -0.18904272 0.041908823 0.01223762 -0.0037543457 7.071068e-011 7.071068e-011 7.071068e-011 7.071068e-011
6658811762.3525 -0.14872187 0.13390692 0.0045344275 -0.012139251 7.071068e-011 7.071068e-011 7.071068e-011 7.071068e-011
6660492098.4197 -0.075978562 0.19911641 -0.0068514906 -0.011242653 7.071068e-011 7.071068e-011 7.071068e-011 7.071068e-011
6662172434.4869 0.014156537 0.22752708 -0.013419854 -0.0016578498 7.071068e-011 7.071068e-011 7.071068e-011 7.071068e-011
6663852770.5541 0.1045773 0.2167916 -0.00995846 0.0098850252 7.071068e-011 7.071068e-011 7.071068e-011 7.071068e-011
6665533106.6213 0.17974931 0.1718533 0.001809086 0.014509016 7.071068e-011 7.071068e-011 7.071068e-011 7.071068e-011
6667213442.6885 0.2282078 0.10288802 0.013159871 0.0076401178 7.071068e-011 7.071068e-011 7.071068e-011 7.071068e-011
6668893778.7558 0.24378937 0.023143655 0.014558906 -0.0061172154 7.071068e-011 7.071068e-011 7.071068e-011 7.071068e-011
6670574114.823 0.22605281 -0.053326458 0.0039851097 -0.015875926 7.071068e-011 7.071068e-011 7.071068e-011 7.071068e-011
6672254450.8902 0.17995676 -0.11373251 -0.010712645 -0.013148088 7.071068e-011 7.071068e-011 7.071068e-011 7.071068e-011
6673934786.9574 0.11500374 -0.14842965 -0.017490622 0.00085727219 7.071068e-011 7.071068e-011 7.071068e-011 7.071068e-011
6675615123.0246 0.043898743 -0.15252894 -0.0099135116 0.014988877 7.071068e-011 7.071068e-011 7.071068e-011 7.071068e-011
6677295459.0918 -0.019837137 -0.12713245 0.0063237515 0.017209643 7.071068e-011 7.071068e-011 7.071068e-011 7.071068e-011
6678975795.159 -0.064770587 -0.079099342 0.017902011 0.0052786404 7.071068e-011 7.071068e-011 7.071068e-011 7.071068e-011
6680656131.2262 -0.083772883 -0.019418173 0.015221489 -0.01141151 7.071068e-011 7.071068e-011 7.071068e-011 7.071068e-011
6682336467.2935 -0.075515129 0.039000615 -7.8793673e-005 -0.019422656 7.071068e-011 7.071068e-011 7.071068e-011 7.071068e-011
6684016803.3607 -0.044922233 0.084392741 -0.015988665 -0.011702258 7.071068e-011 7.071068e-011 7.071068e-011 7.071068e-011
6685697139.4279 -0.0017218161 0.10928391 -0.01920281 0.0060443319 7.071068e-011 7.071068e-011 7.071068e-011 7.071068e-011
6687377475.4951 0.042624779 0.11214164 -0.0066027516 0.019278176 7.071068e-011 7.071068e-011 7.071068e-011 7.071068e-011
6689057811.5623 0.078101717 0.097241513 0.011680769 0.016943362 7.071068e-011 7.071068e-011 7.071068e-011 7.071068e-011
6690738147.6295 0.098983087 0.072923481 0.020777412 0.00072704395 7.071068e-011 7.071068e-011 7.071068e-011 7.071068e-011
6692418483.6967 0.10532033 0.048276182 0.013109403 -0.016418234 7.071068e-011 7.071068e-011 7.071068e-011 7.071068e-011
6694098819.764 0.10149699 0.029523166 -0.0054732738 -0.020516887 7.071068e-011 7.071068e-011 7.071068e-011 7.071068e-011
6695779155.8312 0.093325406 0.019053765 -0.019934524 -0.0078133019 7.071068e-011 7.071068e-011 7.071068e-011 7.071068e-011
6697459491.8984 0.086167566 0.016022939 -0.018140415 0.011523023 7.071068e-011 7.071068e-011 7.071068e-011 7.071068e-011
6699139827.9656 0.08363077 0.016937723 -0.0014536746 0.021392427 7.071068e-011 7.071068e-011 7.071068e-011 7.071068e-011
6700820164.0328 0.086193904 0.017261531 0.016228469 0.013814061 7.071068e-011 7.071068e-011 7.071068e-011 7.071068e-011
6702500500.1 0.09168537 0.013667177 0.020650316 -0.0046990374 7.071068e-011 7.071068e-011 7.071068e-011 7.071068e-011
6704180836.1672 0.096819162 0.0047503607 0.0085833948 -0.019247811 7.071068e-011 7.071068e-011 7.071068e-011 7.071068e-011
6705861172.2344 0.098023057 -0.0091166887 -0.010243597 -0.01829043 7.071068e-011 7.071068e-011 7.071068e-011 7.071068e-011
6707541508.3017 0.09211114 -0.02546614 -0.020577971 -0.0026856409 7.071068e-011 7.071068e-011 7.071068e-011 7.071068e-011
6709221844.3689 0.077703081 -0.040242653 -0.014243629 0.014600375 7.071068e-011 7.071068e-011 7.071068e-011 7.071068e-011
6710902180.4361 0.055468723 -0.049201336 0.0028993045 0.019774873 7.071068e-011 7.071068e-011 7.071068e-011 7.071068e-011
6712582516.5033 0.027804213 -0.048259478 0.017098283 0.0096840421 7.071068e-011 7.071068e-011 7.071068e-011 7.071068e-011
6714262852.5705 -0.00054379768 -0.034091782 0.018008487 -0.0074235597 7.071068e-011 7.071068e-011 7.071068e-011 7.071068e-011
6715943188.6377 -0.022624368 -0.0060706795 0.00517157 -0.018742628 7.071068e-011 7.071068e-011 7.071068e-011 7.071068e-011
6717623524.7049 -0.031437486 0.032357249 -0.011727927 -0.015454799 7.071068e-011 7.071068e-011 7.071068e-011 7.071068e-011
6719303860.7722 -0.02236671 0.074389711 -0.019212648 9.3901308e-006 7.071068e-011 7.071068e-011 7.071068e-011 7.071068e-011
6720984196.8394 0.0057223379 0.11142788 -0.011472095 0.014993213 7.071068e-011 7.071068e-011 7.071068e-011 7.071068e-011
6722664532.9066 0.049686171 0.13470012 0.0046747955 0.017937953 7.071068e-011 7.071068e-011 7.071068e-011 7.071068e-011
6724344868.9738 0.10222016 0.13756689 0.016785992 0.0073544043 7.071068e-011 7.071068e-011 7.071068e-011 7.071068e-011
6726025205.041 0.1536373 0.11756284 0.016056849 -0.008644511 7.071068e-011 7.071068e-011 7.071068e-011 7.071068e-011
6727705541.1082 0.19414894 0.07654997 0.002929257 -0.017885176 7.071068e-011 7.071068e-011 7.071068e-011 7.071068e-011
6729385877.1754 0.21523952 0.02036033 -0.012224943 -0.012975787 7.071068e-011 7.071068e-011 7.071068e-011 7.071068e-011
6731066213.2426 0.21141589 -0.041610606 -0.01728113 0.0016364095 7.071068e-011 7.071068e-011 7.071068e-011 7.071068e-011
6732746549.3099 0.18194696 -0.098220132 -0.0092710806 0.014140106 7.071068e-011 7.071068e-011 7.071068e-011 7.071068e-011
6734426885.3771 0.1309059 -0.13904597 0.0050229537 0.015857631 7.071068e-011 7.071068e-011 7.071068e-011 7.071068e-011
6736107221.4443 0.066259481 -0.15619081 0.015397996 0.0060557704 7.071068e-011 7.071068e-011 7.071068e-011 7.071068e-011
6737787557.5115 -0.0011944043 -0.14537641 0.014303048 -0.0082404139 7.071068e-011 7.071068e-011 7.071068e-011 7.071068e-011
6739467893.5787 -0.059403632 -0.10728162 0.0023811713 -0.016209416 7.071068e-011 7.071068e-011 7.071068e-011 7.071068e-011
6741148229.6459 -0.097495735 -0.047821973 -0.011040381 -0.011791185 7.071068e-011 7.071068e-011 7.071068e-011 7.071068e-011
6742828565.7131 -0.10802703 0.02296089 -0.01590321 0.0011348939 7.071068e-011 7.071068e-011 7.071068e-011 7.071068e-011
6744508901.7804 -0.08830604 0.09264183 -0.0091577852 0.012972252 7.071068e-011 7.071068e-011 7.071068e-011 7.071068e-011
6746189237.8476 -0.041218821 0.14857338 0.004342813 0.01537103 7.071068e-011 7.071068e-011 7.071068e-011 7.071068e-011
6747869573.9148 0.025093783 0.1805349 0.01486046 0.0061689974 7.071068e-011 7.071068e-011 7.071068e-011 7.071068e-011
6749549909.982 0.099115402 0.1828756 0.013958229 -0.0079309763 7.071068e-011 7.071068e-011 7.071068e-011 7.071068e-011
6751230246.0492 0.16838455 0.1550571 0.0023127976 -0.015648101 7.071068e-011 7.071068e-011 7.071068e-011 7.071068e-011
6752910582.1164 0.22168691 0.10155034 -0.010549622 -0.011350426 7.071068e-011 7.071068e-011 7.071068e-011 7.071068e-011
6754590918.1836 0.24921507 0.030441707 -0.01523999 0.00098285545 7.071068e-011 7.071068e-011 7.071068e-011 7.071068e-011
6756271254.2508 0.24641894 -0.046520013 -0.0088221515 0.012328844 7.071068e-011 7.071068e-011 7.071068e-011 7.071068e-011
6757951590.3181 0.21332221 -0.11695285 0.0040027304 0.014560431 7.071068e-011 7.071068e-011 7.071068e-011 7.071068e-011
6759631926.3853 0.15467191 -0.16944711 0.013734119 0.0059857583 7.071068e-011 7.071068e-011 7.071068e-011 7.071068e-011
6761312262.4525 0.079348519 -0.19511348 0.013160295 -0.0067739515 7.071068e-011 7.071068e-011 7.071068e-011 7.071068e-011
6762992598.5197 -0.00075444381 -0.18917246 0.0031682989 -0.014303837 7.071068e-011 7.071068e-011 7.071068e-011 7.071068e-011
6764672934.5869 -0.072661392 -0.1520133 -0.0089126742 -0.011619045 7.071068e-011 7.071068e-011 7.071068e-011 7.071068e-011
6766353270.6541 -0.12440451 -0.08908876 -0.014791843 -0.00061286666 7.071068e-011 7.071068e-011 7.071068e-011 7.071068e-011
6768033606.7213 -0.14692566 -0.010450549 -0.010008978 0.01122663 7.071068e-011 7.071068e-011 7.071068e-011 7.071068e-011
6769713942.7886 -0.13594592 0.070664667 0.0025053534 0.015043939 7.071068e-011 7.071068e-011 7.071068e-011 7.071068e-011
6771394278.8558 -0.093201898 0.14015724 0.013426974 0.0075134845 7.071068e-011 7.071068e-011 7.071068e-011 7.071068e-011
6773074614.923 -0.026320385 0.18594621 0.014353512 -0.0058146985 7.071068e-011 7.071068e-011 7.071068e-011 7.071068e-011
6774754950.9902 0.052744355 0.20028827 0.0044579986 -0.014941998 7.071068e-011 7.071068e-011 7.071068e-011 7.071068e-011
6776435287.0574 0.12996826 0.1812415 -0.0089869695 -0.01284744 7.071068e-011 7.071068e-011 7.071068e-011 7.071068e-011
6778115623.1246 0.19203332 0.13282253 -0.015624306 -0.00088609953 7.071068e-011 7.071068e-011 7.071068e-011 7.071068e-011
6779795959.1918 0.22876495 0.063957796 -0.010293897 0.01155312 7.071068e-011 7.071068e-011 7.071068e-011 7.071068e-011
6781476295.2591 0.2344816 -0.013501093 0.0024381503 0.015045262 7.071068e-011 7.071068e-011 7.071068e-011 7.071068e-011
6783156631.3263 0.20851018 -0.086532235 0.013001208 0.0076558604 7.071068e-011 7.071068e-011 7.071068e-011 7.071068e-011
6784836967.3935 0.15540679 -0.14298183 0.014225082 -0.005071003 7.071068e-011 7.071068e-011 7.071068e-011 7.071068e-011
6786517303.4607 0.084122367 -0.17359383 0.0052107149 -0.014308866 7.071068e-011 7.071068e-011 7.071068e-011 7.071068e-011
6788197639.5279 0.0063686795 -0.17349441 -0.007865903 -0.013199523 7.071068e-011 7.071068e-011 7.071068e-011 7.071068e-011
6789877975.5951 -0.06530048 -0.1427104 -0.01526317 -0.0022217331 7.071068e-011 7.071068e-011 7.071068e-011 7.071068e-011
6791558311.6623 -0.11925796 -0.086114794 -0.011405224 0.01039828 7.071068e-011 7.071068e-011 7.071068e-011 7.071068e-011
6793238647.7295 -0.14680468 -0.012903811 0.00072151923 0.015494633 7.071068e-011 7.071068e-011 7.071068e-011 7.071068e-011
6794918983.7968 -0.14364532 0.065153413 0.012576288 0.0094632963 7.071068e-011 7.071068e-011 7.071068e-011 7.071068e-011
6796599319.864 -0.11039565 0.13564231 0.015590215 -0.0038626869 7.071068e-011 7.071068e-011 7.071068e-011 7.071068e-011
6798279655.9312 -0.05243196 0.18726096 0.0067816572 -0.01484389 7.071068e-011 7.071068e-011 7.071068e-011 7.071068e-011
6799959991.9984 0.020625802 0.21164761 -0.0074758339 -0.01458729 7.071068e-011 7.071068e-011 7.071068e-011 7.071068e-011
6801640328.0656 0.096514158 0.20521636 -0.015983874 -0.0032817463 7.071068e-011 7.071068e-011 7.071068e-011 7.071068e-011
6803320664.1328 0.16281116 0.16967337 -0.012633029 0.010242535 7.071068e-011 7.071068e-011 7.071068e-011 7.071068e-011
6805001000.2 0.20889665 0.11131655 -0.00016499868 0.016355107 7.071068e-011 7.071068e-011 7.071068e-011 7.071068e-011
6806681336.2673 0.22736822 0.040140275 0.012713747 0.010637634 7.071068e-011 7.071068e-011 7.071068e-011 7.071068e-011
6808361672.3345 0.21550192 -0.031541258 0.016468866 -0.0032660402 7.071068e-011 7.071068e-011 7.071068e-011 7.071068e-011
6810042008.4017 0.17593935 -0.091433793 0.0077850912 -0.014959513 7.071068e-011 7.071068e-011 7.071068e-011 7.071068e-011
6811722344.4689 0.11603245 -0.1295498 -0.006690599 -0.015459633 7.071068e-011 7.071068e-011 7.071068e-011 7.071068e-011
6813402680.5361 0.046447419 -0.13972186 -0.01620516 -0.0047183847 7.071068e-011 7.071068e-011 7.071068e-011 7.071068e-011
6815083016.6033 -0.020463461 -0.12071569 -0.014183315 0.0095544858 7.071068e-011 7.071068e-011 7.071068e-011 7.071068e-011
6816763352.6705 -0.073124766 -0.076743744 -0.0016608629 0.01741429 7.071068e-011 7.071068e-011 7.071068e-011 7.071068e-011
6818443688.7377 -0.10328795 -0.01624516 0.01286478 0.012480606 7.071068e-011 7.071068e-011 7.071068e-011 7.071068e-011
6820124024.805 -0.10701635 0.050386395 0.018054204 -0.0024381618 7.071068e-011 7.071068e-011 7.071068e-011 7.071068e-011
6821804360.8722 -0.08448147 0.11242186 0.0092824167 -0.015780719 7.071068e-011 7.071068e-011 7.071068e-011 7.071068e-011
6823484696.9394 -0.039966725 0.16005439 -0.0065469667 -0.017083267 7.071068e-011 7.071068e-011 7.071068e-011 7.071068e-011
6825165033.0066 0.018702278 0.18619035 -0.017421747 -0.0056506451 7.071068e-011 7.071068e-011 7.071068e-011 7.071068e-011
6826845369.0738 0.081898004 0.18758851 -0.015418824 0.01003987 7.071068e-011 7.071068e-011 7.071068e-011 7.071068e-011
6828525705.141 0.13982572 0.16485757 -0.0018348157 0.018399397 7.071068e-011 7.071068e-011 7.071068e-011 7.071068e-011
6830206041.2082 0.18370725 0.12219341 0.013202338 0.012944526 7.071068e-011 7.071068e-011 7.071068e-011 7.071068e-011
6831886377.2755 0.20716682 0.066881217 0.018287383 -0.0020805269 7.071068e-011 7.071068e-011 7.071068e-011 7.071068e-011
6833566713.3427 0.20731349 0.0079159951 0.010010326 -0.015370981 7.071068e-011 7.071068e-011 7.071068e-011 7.071068e-011
6835247049.4099 0.18477614 -0.045534141 -0.0053900443 -0.01763743 7.071068e-011 7.071068e-011 7.071068e-011 7.071068e-011
6836927385.4771 0.14346087 -0.085081249 -0.017273849 -0.0072685834 7.071068e-011 7.071068e-011 7.071068e-011 7.071068e-011
6838607721.5443 0.090507038 -0.10421148 -0.016952908 0.008946145 7.071068e-011 7.071068e-011 7.071068e-011 7.071068e-011
6840288057.6115 0.035486139 -0.099986181 -0.003743585 0.019237984 7.071068e-011 7.071068e-011 7.071068e-011 7.071068e-011
6841968393.6787 -0.011722755 -0.074023187 0.012948996 0.015165181 7.071068e-011 7.071068e-011 7.071068e-011 7.071068e-011
6843648729.7459 -0.043058049 -0.031922143 0.020176927 -0.00070961349 7.071068e-011 7.071068e-011 7.071068e-011 7.071068e-011
6845329065.8132 -0.053661171 0.017941721 0.012134544 -0.016394189 7.071068e-011 7.071068e-011 7.071068e-011 7.071068e-011
6847009401.8804 -0.042865939 0.066064045 -0.0053284341 -0.019896956 7.071068e-011 7.071068e-011 7.071068e-011 7.071068e-011
6848689737.9476 -0.014229971 0.10398285 -0.019058358 -0.0082396958 7.071068e-011 7.071068e-011 7.071068e-011 7.071068e-011
6850370074.0148 0.025822893 0.12605089 -0.018352712 0.0098800324 7.071068e-011 7.071068e-011 7.071068e-011 7.071068e-011
6852050410.082 0.069659568 0.12990205 -0.0036721251 0.020497644 7.071068e-011 7.071068e-011 7.071068e-011 7.071068e-011
6853730746.1492 0.10972863 0.11645499 0.013658097 0.015641976 7.071068e-011 7.071068e-011 7.071068e-011 7.071068e-011
6855411082.2164 0.13998784 0.089567132 0.020719152 -0.00078253279 7.071068e-011 7.071068e-011 7.071068e-011 7.071068e-011
6857091418.2837 0.15690917 0.054602761 0.012468164 -0.016598992 7.071068e-011 7.071068e-011 7.071068e-011 7.071068e-011
6858771754.3509 0.1593527 0.017193016 -0.0050511728 -0.020212367 7.071068e-011 7.071068e-011 7.071068e-011 7.071068e-011
6860452090.4181 0.14790936 -0.01739363 -0.01896877 -0.0088373618 7.071068e-011 7.071068e-011 7.071068e-011 7.071068e-011
6862132426.4853 0.12481503 -0.04442827 -0.018880181 0.0092134345 7.071068e-011 7.071068e-011 7.071068e-011 7.071068e-011
6863812762.5525 0.093830928 -0.060221169 -0.0047657173 0.020560594 7.071068e-011 7.071068e-011 7.071068e-011 7.071068e-011
6865493098.6197 0.05988726 -0.062613979 0.013038813 0.016782735 7.071068e-011 7.071068e-011 7.071068e-011 7.071068e-011
6867173434.6869 0.028658194 -0.051506773 0.021450428 0.0004328168 7.071068e-011 7.071068e-011 7.071068e-011 7.071068e-011
6868853770.7542 0.0055661639 -0.029402208 0.013921067 -0.016608823 7.071068e-011 7.071068e-011 7.071068e-011 7.071068e-011
