!Keysight Technologies,N5235B,MY61252044,A.15.00.15
!Date: Friday, January 20, 2023 20:49:02
!Correction: S11(Off) 
!S21(Off) 
!S12(Off) 
!S22(Off) 
!S2P File: Measurements: S11, S21, S12, S22:
# Hz S  RI   R 50
6600000000 0.016950021 -0.17465854 0.014879761 -0.0052438853 7.071068e-011 7.071068e-011 7.071068e-011 7.071068e-011
6601680336.0672 -0.060488027 -0.1583261 0.0033313669 -0.0147925 7.071068e-011 7.071068e-011 7.071068e-011 7.071068e-011
6603360672.1344 -0.12840146 -0.10449071 -0.010294119 -0.010304324 7.071068e-011 7.071068e-011 7.071068e-011 7.071068e-011
6605041008.2016 -0.16818443 -0.020850658 -0.013517352 0.0029869473 7.071068e-011 7.071068e-011 7.071068e-011 7.071068e-011
6606721344.2689 -0.16749096 0.076353192 -0.0046413811 0.012107407 7.071068e-011 7.071068e-011 7.071068e-011 7.071068e-011
6608401680.3361 -0.12358419 0.16674292 0.0067997086 0.0099874455 7.071068e-011 7.071068e-011 7.071068e-011 7.071068e-011
6610082016.4033 -0.043847311 0.23143581 0.011349282 0.00038007583 7.071068e-011 7.071068e-011 7.071068e-011 7.071068e-011
6611762352.4705 0.056994516 0.25745624 0.0067675933 -0.0084569119 7.071068e-011 7.071068e-011 7.071068e-011 7.071068e-011
6613442688.5377 0.16067365 0.23973237 -0.0026083577 -0.010110924 7.071068e-011 7.071068e-011 7.071068e-011 7.071068e-011
6615123024.6049 0.24902323 0.18114954 -0.0093148714 -0.0038075864 7.071068e-011 7.071068e-011 7.071068e-011 7.071068e-011
6616803360.6721 0.30697459 0.091502137 -0.0083222389 0.0048865736 7.071068e-011 7.071068e-011 7.071068e-011 7.071068e-011
6618483696.7393 0.32470509 -0.014625656 -0.0012699129 0.0091976877 7.071068e-011 7.071068e-011 7.071068e-011 7.071068e-011
6620164032.8066 0.29870689 -0.12012661 0.0061936425 0.006667675 7.071068e-011 7.071068e-011 7.071068e-011 7.071068e-011
6621844368.8738 0.23223069 -0.20760515 0.0091145532 -0.00060424453 7.071068e-011 7.071068e-011 7.071068e-011 7.071068e-011
6623524704.941 0.13526064 -0.26197848 0.0052754446 -0.0076862252 7.071068e-011 7.071068e-011 7.071068e-011 7.071068e-011
6625205041.0082 0.023386627 -0.27296853 -0.0030214717 -0.0089845434 7.071068e-011 7.071068e-011 7.071068e-011 7.071068e-011
6626885377.0754 -0.084415548 -0.23747469 -0.009012958 -0.0029328561 7.071068e-011 7.071068e-011 7.071068e-011 7.071068e-011
6628565713.1426 -0.16900772 -0.16062291 -0.0076766824 0.0053298785 7.071068e-011 7.071068e-011 7.071068e-011 7.071068e-011
6630246049.2098 -0.21482576 -0.055561747 -0.00054590887 0.0092226733 7.071068e-011 7.071068e-011 7.071068e-011 7.071068e-011
6631926385.2771 -0.21343613 0.058809225 0.0068883765 0.0061732759 7.071068e-011 7.071068e-011 7.071068e-011 7.071068e-011
6633606721.3443 -0.16554898 0.16182856 0.0092034955 -0.0016209113 7.071068e-011 7.071068e-011 7.071068e-011 7.071068e-011
6635287057.4115 -0.080626369 0.23551005 0.004355792 -0.0083386749 7.071068e-011 7.071068e-011 7.071068e-011 7.071068e-011
6636967393.4787 0.025563877 0.26791528 -0.0038907311 -0.0085039167 7.071068e-011 7.071068e-011 7.071068e-011 7.071068e-011
6638647729.5459 0.13431464 0.25486541 -0.0089775426 -0.0022573133 7.071068e-011 7.071068e-011 7.071068e-011 7.071068e-011
6640328065.6131 0.22750954 0.20002469 -0.0074808113 0.0054677902 7.071068e-011 7.071068e-011 7.071068e-011 7.071068e-011
6642008401.6803 0.29051068 0.11350809 -0.00063858146 0.0094666155 7.071068e-011 7.071068e-011 7.071068e-011 7.071068e-011
6643688737.7475 0.31379226 0.0097711766 0.0072098323 0.0067880182 7.071068e-011 7.071068e-011 7.071068e-011 7.071068e-011
6645369073.8148 0.2939322 -0.09433952 0.010292887 -0.0015330564 7.071068e-011 7.071068e-011 7.071068e-011 7.071068e-011
6647049409.882 0.23413742 -0.18179135 0.0052491017 -0.009499412 7.071068e-011 7.071068e-011 7.071068e-011 7.071068e-011
6648729745.9492 0.14415601 -0.23784369 -0.0045110201 -0.010231172 7.071068e-011 7.071068e-011 7.071068e-011 7.071068e-011
6650410082.0164 0.039129611 -0.25267187 -0.011140198 -0.0027328692 7.071068e-011 7.071068e-011 7.071068e-011 7.071068e-011
6652090418.0836 -0.062689036 -0.22337675 -0.0092509734 0.0073550479 7.071068e-011 7.071068e-011 7.071068e-011 7.071068e-011
6653770754.1508 -0.14307375 -0.15512711 0.00022600399 0.012212411 7.071068e-011 7.071068e-011 7.071068e-011 7.071068e-011
6655451090.218 -0.1876231 -0.060741428 0.010180831 0.007375869 7.071068e-011 7.071068e-011 7.071068e-011 7.071068e-011
6657131426.2853 -0.18905802 0.041937847 0.012239515 -0.0037546449 7.071068e-011 7.071068e-011 7.071068e-011 7.071068e-011
6658811762.3525 -0.14871614 0.13393407 0.004531899 -0.012143918 7.071068e-011 7.071068e-011 7.071068e-011 7.071068e-011
6660492098.4197 -0.075960018 0.19913395 -0.0068559279 -0.011241416 7.071068e-011 7.071068e-011 7.071068e-011 7.071068e-011
6662172434.4869 0.014184328 0.2275241 -0.013420146 -0.0016595717 7.071068e-011 7.071068e-011 7.071068e-011 7.071068e-011
6663852770.5541 0.10459354 0.21678969 -0.0099583939 0.0098863766 7.071068e-011 7.071068e-011 7.071068e-011 7.071068e-011
6665533106.6213 0.179758 0.17184225 0.0018097939 0.014510658 7.071068e-011 7.071068e-011 7.071068e-011 7.071068e-011
6667213442.6885 0.22821918 0.1028778 0.013159771 0.0076434384 7.071068e-011 7.071068e-011 7.071068e-011 7.071068e-011
6668893778.7558 0.24379511 0.023126442 0.014558041 -0.006123933 7.071068e-011 7.071068e-011 7.071068e-011 7.071068e-011
6670574114.823 0.22604847 -0.053338107 0.0039870003 -0.015881781 7.071068e-011 7.071068e-011 7.071068e-011 7.071068e-011
6672254450.8902 0.1799385 -0.11374302 -0.010721006 -0.013141877 7.071068e-011 7.071068e-011 7.071068e-011 7.071068e-011
6673934786.9574 0.1149992 -0.14843425 -0.017490827 0.00085429748 7.071068e-011 7.071068e-011 7.071068e-011 7.071068e-011
6675615123.0246 0.043888573 -0.152522 -0.0099108722 0.014994192 7.071068e-011 7.071068e-011 7.071068e-011 7.071068e-011
6677295459.0918 -0.019855917 -0.1271234 0.0063202102 0.01721641 7.071068e-011 7.071068e-011 7.071068e-011 7.071068e-011
6678975795.159 -0.064774141 -0.079083234 0.017903715 0.0052733812 7.071068e-011 7.071068e-011 7.071068e-011 7.071068e-011
6680656131.2262 -0.083770357 -0.019403186 0.015221572 -0.01141557 7.071068e-011 7.071068e-011 7.071068e-011 7.071068e-011
6682336467.2935 -0.075512357 0.039019387 -8.2116341e-005 -0.019432198 7.071068e-011 7.071068e-011 7.071068e-011 7.071068e-011
6684016803.3607 -0.044912647 0.084406234 -0.015988896 -0.011704602 7.071068e-011 7.071068e-011 7.071068e-011 7.071068e-011
6685697139.4279 -0.0017028128 0.10928643 -0.019202432 0.0060485452 7.071068e-011 7.071068e-011 7.071068e-011 7.071068e-011
6687377475.4951 0.042634256 0.1121453 -0.0066050012 0.019278195 7.071068e-011 7.071068e-011 7.071068e-011 7.071068e-011
6689057811.5623 0.078105524 0.097230375 0.011689752 0.0169474 7.071068e-011 7.071068e-011 7.071068e-011 7.071068e-011
6690738147.6295 0.098993301 0.072928004 0.020780569 0.0007284552 7.071068e-011 7.071068e-011 7.071068e-011 7.071068e-011
6692418483.6967 0.10531107 0.048274674 0.013106377 -0.016426409 7.071068e-011 7.071068e-011 7.071068e-011 7.071068e-011
6694098819.764 0.10148358 0.029524814 -0.0054681972 -0.020520352 7.071068e-011 7.071068e-011 7.071068e-011 7.071068e-011
6695779155.8312 0.093313217 0.019063858 -0.019938845 -0.0078004664 7.071068e-011 7.071068e-011 7.071068e-011 7.071068e-011
6697459491.8984 0.086163685 0.016035384 -0.018145291 0.011518296 7.071068e-011 7.071068e-011 7.071068e-011 7.071068e-011
6699139827.9656 0.083633959 0.016950751 -0.0014457869 0.021394655 7.071068e-011 7.071068e-011 7.071068e-011 7.071068e-011
6700820164.0328 0.086203352 0.017275361 0.016229624 0.01381286 7.071068e-011 7.071068e-011 7.071068e-011 7.071068e-011
6702500500.1 0.091686293 0.013673732 0.020646906 -0.0047027264 7.071068e-011 7.071068e-011 7.071068e-011 7.071068e-011
6704180836.1672 0.096832573 0.0047506071 0.0085802646 -0.019253125 7.071068e-011 7.071068e-011 7.071068e-011 7.071068e-011
6705861172.2344 0.098032057 -0.0091183782 -0.010242818 -0.018292982 7.071068e-011 7.071068e-011 7.071068e-011 7.071068e-011
6707541508.3017 0.092113875 -0.025473334 -0.020574683 -0.0026812295 7.071068e-011 7.071068e-011 7.071068e-011 7.071068e-011
6709221844.3689 0.077698343 -0.040249828 -0.014241586 0.014597731 7.071068e-011 7.071068e-011 7.071068e-011 7.071068e-011
6710902180.4361 0.055454325 -0.049205068 0.0029012798 0.019772325 7.071068e-011 7.071068e-011 7.071068e-011 7.071068e-011
6712582516.5033 0.027791167 -0.048263866 0.017095029 0.0096846586 7.071068e-011 7.071068e-011 7.071068e-011 7.071068e-011
6714262852.5705 -0.0005608775 -0.034094047 0.018010724 -0.0074248672 7.071068e-011 7.071068e-011 7.071068e-011 7.071068e-011
6715943188.6377 -0.022637971 -0.0060622506 0.0051709884 -0.018744463 7.071068e-011 7.071068e-011 7.071068e-011 7.071068e-011
6717623524.7049 -0.031450324 0.032366432 -0.011730649 -0.015454814 7.071068e-011 7.071068e-011 7.071068e-011 7.071068e-011
6719303860.7722 -0.022370044 0.074399576 -0.019212851 5.6792746e-006 7.071068e-011 7.071068e-011 7.071068e-011 7.071068e-011
6720984196.8394 0.0057251099 0.11145297 -0.01147446 0.014993431 7.071068e-011 7.071068e-011 7.071068e-011 7.071068e-011
6722664532.9066 0.04969706 0.13470677 0.004677712 0.017938927 7.071068e-011 7.071068e-011 7.071068e-011 7.071068e-011
6724344868.9738 0.10223077 0.13756765 0.016786991 0.007350021 7.071068e-011 7.071068e-011 7.071068e-011 7.071068e-011
6726025205.041 0.15366532 0.11756353 0.016059106 -0.0086453632 7.071068e-011 7.071068e-011 7.071068e-011 7.071068e-011
6727705541.1082 0.19416307 0.076541565 0.0029266574 -0.017888015 7.071068e-011 7.071068e-011 7.071068e-011 7.071068e-011
6729385877.1754 0.21524216 0.020343125 -0.012225571 -0.012974617 7.071068e-011 7.071068e-011 7.071068e-011 7.071068e-011
6731066213.2426 0.21142042 -0.041630764 -0.017281618 0.0016397677 7.071068e-011 7.071068e-011 7.071068e-011 7.071068e-011
6732746549.3099 0.18193287 -0.098231107 -0.0092725959 0.014143729 7.071068e-011 7.071068e-011 7.071068e-011 7.071068e-011
6734426885.3771 0.13088711 -0.1390557 0.005027025 0.01585684 7.071068e-011 7.071068e-011 7.071068e-011 7.071068e-011
6736107221.4443 0.066239014 -0.15618972 0.015393183 0.0060532857 7.071068e-011 7.071068e-011 7.071068e-011 7.071068e-011
6737787557.5115 -0.0012203897 -0.14536639 0.014303017 -0.0082409233 7.071068e-011 7.071068e-011 7.071068e-011 7.071068e-011
6739467893.5787 -0.059423186 -0.10726406 0.0023784488 -0.016208682 7.071068e-011 7.071068e-011 7.071068e-011 7.071068e-011
6741148229.6459 -0.097506776 -0.04780994 -0.011041678 -0.011791529 7.071068e-011 7.071068e-011 7.071068e-011 7.071068e-011
6742828565.7131 -0.10802935 0.02297106 -0.015903743 0.0011316705 7.071068e-011 7.071068e-011 7.071068e-011 7.071068e-011
6744508901.7804 -0.088300288 0.092658229 -0.0091573941 0.012970083 7.071068e-011 7.071068e-011 7.071068e-011 7.071068e-011
6746189237.8476 -0.041206215 0.14858459 0.0043434827 0.015369831 7.071068e-011 7.071068e-011 7.071068e-011 7.071068e-011
6747869573.9148 0.025111865 0.18053572 0.014857154 0.0061693499 7.071068e-011 7.071068e-011 7.071068e-011 7.071068e-011
6749549909.982 0.099131882 0.18287674 0.013955238 -0.0079340599 7.071068e-011 7.071068e-011 7.071068e-011 7.071068e-011
6751230246.0492 0.16840295 0.1550529 0.0023122744 -0.015647834 7.071068e-011 7.071068e-011 7.071068e-011 7.071068e-011
6752910582.1164 0.22169389 0.10153703 -0.010551541 -0.011350271 7.071068e-011 7.071068e-011 7.071068e-011 7.071068e-011
6754590918.1836 0.24921788 0.030422525 -0.015234183 0.00098638888 7.071068e-011 7.071068e-011 7.071068e-011 7.071068e-011
6756271254.2508 0.2464153 -0.04653297 -0.0088228248 0.012332968 7.071068e-011 7.071068e-011 7.071068e-011 7.071068e-011
6757951590.3181 0.21330878 -0.11696834 0.004008343 0.014555727 7.071068e-011 7.071068e-011 7.071068e-011 7.071068e-011
6759631926.3853 0.15465859 -0.16947232 0.013732092 0.0059825634 7.071068e-011 7.071068e-011 7.071068e-011 7.071068e-011
6761312262.4525 0.079325289 -0.19511904 0.013158119 -0.0067778961 7.071068e-011 7.071068e-011 7.071068e-011 7.071068e-011
6762992598.5197 -0.00077969709 -0.18918325 0.0031680039 -0.014302659 7.071068e-011 7.071068e-011 7.071068e-011 7.071068e-011
6764672934.5869 -0.072683401 -0.15200208 -0.0089151282 -0.011622997 7.071068e-011 7.071068e-011 7.071068e-011 7.071068e-011
6766353270.6541 -0.12440873 -0.089072503 -0.014791022 -0.00061564846 7.071068e-011 7.071068e-011 7.071068e-011 7.071068e-011
6768033606.7213 -0.14692815 -0.010432128 -0.010007991 0.011231686 7.071068e-011 7.071068e-011 7.071068e-011 7.071068e-011
6769713942.7886 -0.1359345 0.070685789 0.002502579 0.015045089 7.071068e-011 7.071068e-011 7.071068e-011 7.071068e-011
6771394278.8558 -0.09318348 0.14018112 0.013431065 0.0075137354 7.071068e-011 7.071068e-011 7.071068e-011 7.071068e-011
6773074614.923 -0.026288942 0.18596278 0.014354179 -0.0058178208 7.071068e-011 7.071068e-011 7.071068e-011 7.071068e-011
6774754950.9902 0.052770931 0.20028025 0.0044557424 -0.014942445 7.071068e-011 7.071068e-011 7.071068e-011 7.071068e-011
6776435287.0574 0.12998822 0.18121444 -0.0089927968 -0.012846268 7.071068e-011 7.071068e-011 7.071068e-011 7.071068e-011
6778115623.1246 0.192049 0.13279769 -0.015626621 -0.00088715076 7.071068e-011 7.071068e-011 7.071068e-011 7.071068e-011
6779795959.1918 0.22877216 0.063923515 -0.010293216 0.011554479 7.071068e-011 7.071068e-011 7.071068e-011 7.071068e-011
6781476295.2591 0.23447634 -0.013523487 0.0024423879 0.015043983 7.071068e-011 7.071068e-011 7.071068e-011 7.071068e-011
6783156631.3263 0.20849617 -0.086555697 0.013001155 0.0076566273 7.071068e-011 7.071068e-011 7.071068e-011 7.071068e-011
6784836967.3935 0.1553842 -0.14299807 0.014223498 -0.0050666803 7.071068e-011 7.071068e-011 7.071068e-011 7.071068e-011
6786517303.4607 0.084096149 -0.17359103 0.005208747 -0.014310883 7.071068e-011 7.071068e-011 7.071068e-011 7.071068e-011
6788197639.5279 0.0063489871 -0.17349805 -0.0078676837 -0.013199069 7.071068e-011 7.071068e-011 7.071068e-011 7.071068e-011
6789877975.5951 -0.065307356 -0.14269309 -0.015262179 -0.0022228495 7.071068e-011 7.071068e-011 7.071068e-011 7.071068e-011
6791558311.6623 -0.11926713 -0.086095542 -0.011401446 0.010399495 7.071068e-011 7.071068e-011 7.071068e-011 7.071068e-011
6793238647.7295 -0.14680612 -0.012885066 0.00072382583 0.01550104 7.071068e-011 7.071068e-011 7.071068e-011 7.071068e-011
6794918983.7968 -0.14364178 0.065178625 0.012580107 0.009465808 7.071068e-011 7.071068e-011 7.071068e-011 7.071068e-011
6796599319.864 -0.11038145 0.13566267 0.015592181 -0.0038662967 7.071068e-011 7.071068e-011 7.071068e-011 7.071068e-011
6798279655.9312 -0.052403968 0.18727262 0.006782542 -0.014848993 7.071068e-011 7.071068e-011 7.071068e-011 7.071068e-011
6799959991.9984 0.020644726 0.21163915 -0.0074828537 -0.014589183 7.071068e-011 7.071068e-011 7.071068e-011 7.071068e-011
6801640328.0656 0.096533008 0.20520951 -0.01598856 -0.0032823943 7.071068e-011 7.071068e-011 7.071068e-011 7.071068e-011
6803320664.1328 0.16282627 0.16965115 -0.012630593 0.01024468 7.071068e-011 7.071068e-011 7.071068e-011 7.071068e-011
6805001000.2 0.20890643 0.11129451 -0.00016374332 0.016355637 7.071068e-011 7.071068e-011 7.071068e-011 7.071068e-011
6806681336.2673 0.22737524 0.040127337 0.012718958 0.010639427 7.071068e-011 7.071068e-011 7.071068e-011 7.071068e-011
6808361672.3345 0.21548796 -0.031549301 0.016465142 -0.0032692393 7.071068e-011 7.071068e-011 7.071068e-011 7.071068e-011
6810042008.4017 0.17591952 -0.091440208 0.007781473 -0.014962438 7.071068e-011 7.071068e-011 7.071068e-011 7.071068e-011
6811722344.4689 0.11601184 -0.12955888 -0.0066935946 -0.015455732 7.071068e-011 7.071068e-011 7.071068e-011 7.071068e-011
6813402680.5361 0.046432141 -0.13972661 -0.01621159 -0.0047137057 7.071068e-011 7.071068e-011 7.071068e-011 7.071068e-011
6815083016.6033 -0.020473061 -0.12070694 -0.014184402 0.0095525924 7.071068e-011 7.071068e-011 7.071068e-011 7.071068e-011
6816763352.6705 -0.073131412 -0.076728366 -0.0016599592 0.017417038 7.071068e-011 7.071068e-011 7.071068e-011 7.071068e-011
6818443688.7377 -0.10329309 -0.016232369 0.012865466 0.012484329 7.071068e-011 7.071068e-011 7.071068e-011 7.071068e-011
6820124024.805 -0.10701146 0.050405055 0.018056022 -0.0024446847 7.071068e-011 7.071068e-011 7.071068e-011 7.071068e-011
6821804360.8722 -0.084471971 0.11244346 0.0092819706 -0.015782215 7.071068e-011 7.071068e-011 7.071068e-011 7.071068e-011
6823484696.9394 -0.03995201 0.16007474 -0.0065469192 -0.017088691 7.071068e-011 7.071068e-011 7.071068e-011 7.071068e-011
6825165033.0066 0.018723385 0.18620105 -0.017421311 -0.0056483522 7.071068e-011 7.071068e-011 7.071068e-011 7.071068e-011
6826845369.0738 0.081914499 0.1875851 -0.015420915 0.010047892 7.071068e-011 7.071068e-011 7.071068e-011 7.071068e-011
6828525705.141 0.13984051 0.16484663 -0.0018348969 0.018402927 7.071068e-011 7.071068e-011 7.071068e-011 7.071068e-011
6830206041.2082 0.18371499 0.12218039 0.013205372 0.012946001 7.071068e-011 7.071068e-011 7.071068e-011 7.071068e-011
6831886377.2755 0.2071652 0.06687171 0.01828816 -0.0020835444 7.071068e-011 7.071068e-011 7.071068e-011 7.071068e-011
6833566713.3427 0.20730832 0.0079015736 0.010014175 -0.015376849 7.071068e-011 7.071068e-011 7.071068e-011 7.071068e-011
6835247049.4099 0.18477067 -0.045557957 -0.0054009925 -0.017641038 7.071068e-011 7.071068e-011 7.071068e-011 7.071068e-011
6836927385.4771 0.14344673 -0.08508376 -0.017276725 -0.0072673359 7.071068e-011 7.071068e-011 7.071068e-011 7.071068e-011
6838607721.5443 0.090495385 -0.10421263 -0.016956184 0.0089490972 7.071068e-011 7.071068e-011 7.071068e-011 7.071068e-011
6840288057.6115 0.035465837 -0.099978559 -0.0037382832 0.019244077 7.071068e-011 7.071068e-011 7.071068e-011 7.071068e-011
6841968393.6787 -0.011734155 -0.074013837 0.012951924 0.015165658 7.071068e-011 7.071068e-011 7.071068e-011 7.071068e-011
6843648729.7459 -0.04305803 -0.031908631 0.020174826 -0.00070822792 7.071068e-011 7.071068e-011 7.071068e-011 7.071068e-011
6845329065.8132 -0.053654987 0.017958716 0.012134504 -0.016397111 7.071068e-011 7.071068e-011 7.071068e-011 7.071068e-011
6847009401.8804 -0.042853314 0.066078924 -0.0053336276 -0.019894859 7.071068e-011 7.071068e-011 7.071068e-011 7.071068e-011
6848689737.9476 -0.014217676 0.1039872 -0.019060411 -0.0082400264 7.071068e-011 7.071068e-011 7.071068e-011 7.071068e-011
6850370074.0148 0.025832927 0.12605466 -0.018350409 0.0098838247 7.071068e-011 7.071068e-011 7.071068e-011 7.071068e-011
6852050410.082 0.069669493 0.12989989 -0.003670254 0.020498395 7.071068e-011 7.071068e-011 7.071068e-011 7.071068e-011
6853730746.1492 0.10973292 0.11646718 0.013661099 0.015644468 7.071068e-011 7.071068e-011 7.071068e-011 7.071068e-011
6855411082.2164 0.13998698 0.089563586 0.020723311 -0.00078227796 7.071068e-011 7.071068e-011 7.071068e-011 7.071068e-011
6857091418.2837 0.15691128 0.054599505 0.012468035 -0.016603399 7.071068e-011 7.071068e-011 7.071068e-011 7.071068e-011
6858771754.3509 0.15934329 0.01719399 -0.0050522569 -0.020218685 7.071068e-011 7.071068e-011 7.071068e-011 7.071068e-011
6860452090.4181 0.14790288 -0.017396357 -0.018969612 -0.0088349972 7.071068e-011 7.071068e-011 7.071068e-011 7.071068e-011
6862132426.4853 0.12480605 -0.044430591 -0.018879864 0.0092149321 7.071068e-011 7.071068e-011 7.071068e-011 7.071068e-011
6863812762.5525 0.093818553 -0.060212571 -0.0047685364 0.020564334 7.071068e-011 7.071068e-011 7.071068e-011 7.071068e-011
6865493098.6197 0.059872448 -0.062601008 0.013039947 0.016785547 7.071068e-011 7.071068e-011 7.071068e-011 7.071068e-011
6867173434.6869 0.028653868 -0.051491264 0.021446813 0.00042715875 7.071068e-011 7.071068e-011 7.071068e-011 7.071068e-011
6868853770.7542 0.0055637355 -0.029392038 0.01391852 -0.016610079 7.071068e-011 7.071068e-011 7.071068e-011 7.071068e-011
