!Keysight Technologies,N5235B,MY61252044,A.15.00.15
!Date: Friday, January 20, 2023 20:34:13
!Correction: S11(Off) 
!S21(Off) 
!S12(Off) 
!S22(Off) 
!S2P File: Measurements: S11, S21, S12, S22:
# Hz S  RI   R 50
6600000000 0.017036486 -0.17459463 0.01488877 -0.0052553508 7.071068e-011 7.071068e-011 7.071068e-011 7.071068e-011
6601680336.0672 -0.060378514 -0.15832984 0.0033271962 -0.014808799 7.071068e-011 7.071068e-011 7.071068e-011 7.071068e-011
6603360672.1344 -0.12831274 -0.10455863 -0.010313002 -0.010302931 7.071068e-011 7.071068e-011 7.071068e-011 7.071068e-011
6605041008.2016 -0.16813955 -0.020958876 -0.013527308 0.0029915506 7.071068e-011 7.071068e-011 7.071068e-011 7.071068e-011
6606721344.2689 -0.1674975 0.076230839 -0.004632093 0.01212041 7.071068e-011 7.071068e-011 7.071068e-011 7.071068e-011
6608401680.3361 -0.12365831 0.16663398 0.0068056774 0.0099929301 7.071068e-011 7.071068e-011 7.071068e-011 7.071068e-011
6610082016.4033 -0.043943353 0.23136085 0.011354347 0.00037227664 7.071068e-011 7.071068e-011 7.071068e-011 7.071068e-011
6611762352.4705 0.056874827 0.25742933 0.0067711379 -0.0084598428 7.071068e-011 7.071068e-011 7.071068e-011 7.071068e-011
6613442688.5377 0.16057447 0.23976149 -0.0026201881 -0.010117338 7.071068e-011 7.071068e-011 7.071068e-011 7.071068e-011
6615123024.6049 0.2489367 0.18122175 -0.0093197767 -0.0038114146 7.071068e-011 7.071068e-011 7.071068e-011 7.071068e-011
6616803360.6721 0.30692464 0.091584541 -0.0083212005 0.0048982031 7.071068e-011 7.071068e-011 7.071068e-011 7.071068e-011
6618483696.7393 0.32469928 -0.014533684 -0.001270519 0.0092036966 7.071068e-011 7.071068e-011 7.071068e-011 7.071068e-011
6620164032.8066 0.29874083 -0.1200389 0.0062050172 0.0066608987 7.071068e-011 7.071068e-011 7.071068e-011 7.071068e-011
6621844368.8738 0.23228081 -0.20756029 0.0091211144 -0.00060397765 7.071068e-011 7.071068e-011 7.071068e-011 7.071068e-011
6623524704.941 0.13533422 -0.26194465 0.0052725286 -0.0076950006 7.071068e-011 7.071068e-011 7.071068e-011 7.071068e-011
6625205041.0082 0.023448983 -0.27296156 -0.0030277323 -0.0089946324 7.071068e-011 7.071068e-011 7.071068e-011 7.071068e-011
6626885377.0754 -0.084351853 -0.23749147 -0.0090252459 -0.0029262155 7.071068e-011 7.071068e-011 7.071068e-011 7.071068e-011
6628565713.1426 -0.16895996 -0.16066036 -0.0076840189 0.0053380327 7.071068e-011 7.071068e-011 7.071068e-011 7.071068e-011
6630246049.2098 -0.21479012 -0.055615477 -0.0005419486 0.0092320647 7.071068e-011 7.071068e-011 7.071068e-011 7.071068e-011
6631926385.2771 -0.2134205 0.058749877 0.0068964851 0.0061761253 7.071068e-011 7.071068e-011 7.071068e-011 7.071068e-011
6633606721.3443 -0.16557346 0.16177584 0.0092105316 -0.0016297373 7.071068e-011 7.071068e-011 7.071068e-011 7.071068e-011
6635287057.4115 -0.080664046 0.23546113 0.0043570851 -0.0083416868 7.071068e-011 7.071068e-011 7.071068e-011 7.071068e-011
6636967393.4787 0.025502346 0.26785976 -0.0039020143 -0.0085065896 7.071068e-011 7.071068e-011 7.071068e-011 7.071068e-011
6638647729.5459 0.13423537 0.25483188 -0.0089882845 -0.0022536512 7.071068e-011 7.071068e-011 7.071068e-011 7.071068e-011
6640328065.6131 0.22741866 0.20002493 -0.0074837883 0.0054765586 7.071068e-011 7.071068e-011 7.071068e-011 7.071068e-011
6642008401.6803 0.29042122 0.11354665 -0.00062882353 0.0094676986 7.071068e-011 7.071068e-011 7.071068e-011 7.071068e-011
6643688737.7475 0.31372365 0.0098388679 0.007223486 0.0067863693 7.071068e-011 7.071068e-011 7.071068e-011 7.071068e-011
6645369073.8148 0.29388461 -0.094253898 0.010299638 -0.0015395249 7.071068e-011 7.071068e-011 7.071068e-011 7.071068e-011
6647049409.882 0.23412678 -0.18170501 0.0052465727 -0.0095089125 7.071068e-011 7.071068e-011 7.071068e-011 7.071068e-011
6648729745.9492 0.14419287 -0.2377615 -0.004523214 -0.010230147 7.071068e-011 7.071068e-011 7.071068e-011 7.071068e-011
6650410082.0164 0.039198291 -0.25259516 -0.011149973 -0.0027277365 7.071068e-011 7.071068e-011 7.071068e-011 7.071068e-011
6652090418.0836 -0.062605977 -0.22334398 -0.0092511512 0.0073634223 7.071068e-011 7.071068e-011 7.071068e-011 7.071068e-011
6653770754.1508 -0.14297904 -0.15514049 0.00023500495 0.01222057 7.071068e-011 7.071068e-011 7.071068e-011 7.071068e-011
6655451090.218 -0.18753597 -0.06080639 0.010188933 0.0073727304 7.071068e-011 7.071068e-011 7.071068e-011 7.071068e-011
6657131426.2853 -0.18900812 0.041832432 0.01224489 -0.0037683144 7.071068e-011 7.071068e-011 7.071068e-011 7.071068e-011
6658811762.3525 -0.14872161 0.13381672 0.0045290771 -0.012153805 7.071068e-011 7.071068e-011 7.071068e-011 7.071068e-011
6660492098.4197 -0.076022387 0.19903067 -0.0068633691 -0.01124524 7.071068e-011 7.071068e-011 7.071068e-011 7.071068e-011
6662172434.4869 0.014078398 0.2274617 -0.013433213 -0.001648517 7.071068e-011 7.071068e-011 7.071068e-011 7.071068e-011
6663852770.5541 0.10447534 0.21677276 -0.0099601513 0.0098994207 7.071068e-011 7.071068e-011 7.071068e-011 7.071068e-011
6665533106.6213 0.17965043 0.17188336 0.0018190629 0.0145155 7.071068e-011 7.071068e-011 7.071068e-011 7.071068e-011
6667213442.6885 0.22813721 0.10295372 0.013173128 0.0076388442 7.071068e-011 7.071068e-011 7.071068e-011 7.071068e-011
6668893778.7558 0.24377355 0.023245504 0.014561087 -0.0061344719 7.071068e-011 7.071068e-011 7.071068e-011 7.071068e-011
6670574114.823 0.22608006 -0.05323074 0.0039801057 -0.01588955 7.071068e-011 7.071068e-011 7.071068e-011 7.071068e-011
6672254450.8902 0.18002141 -0.11368097 -0.010734383 -0.013143827 7.071068e-011 7.071068e-011 7.071068e-011 7.071068e-011
6673934786.9574 0.11508464 -0.1484203 -0.017501794 0.00085807423 7.071068e-011 7.071068e-011 7.071068e-011 7.071068e-011
6675615123.0246 0.043966543 -0.15256469 -0.0099091912 0.015008414 7.071068e-011 7.071068e-011 7.071068e-011 7.071068e-011
6677295459.0918 -0.019812742 -0.12719885 0.0063369009 0.017219985 7.071068e-011 7.071068e-011 7.071068e-011 7.071068e-011
6678975795.159 -0.064792946 -0.079155847 0.017921731 0.0052680783 7.071068e-011 7.071068e-011 7.071068e-011 7.071068e-011
6680656131.2262 -0.083828665 -0.019458523 0.015226301 -0.011429739 7.071068e-011 7.071068e-011 7.071068e-011 7.071068e-011
6682336467.2935 -0.075578354 0.039011776 -9.3901443e-005 -0.019437032 7.071068e-011 7.071068e-011 7.071068e-011 7.071068e-011
6684016803.3607 -0.044964343 0.084435597 -0.016006172 -0.011703161 7.071068e-011 7.071068e-011 7.071068e-011 7.071068e-011
6685697139.4279 -0.0017265169 0.10933327 -0.019217288 0.0060596154 7.071068e-011 7.071068e-011 7.071068e-011 7.071068e-011
6687377475.4951 0.042657088 0.11218373 -0.0065937652 0.019298412 7.071068e-011 7.071068e-011 7.071068e-011 7.071068e-011
6689057811.5623 0.078149021 0.097244926 0.011705928 0.016951634 7.071068e-011 7.071068e-011 7.071068e-011 7.071068e-011
6690738147.6295 0.099028401 0.072897673 0.020794846 0.00071566139 7.071068e-011 7.071068e-011 7.071068e-011 7.071068e-011
6692418483.6967 0.10532787 0.048222501 0.013107742 -0.016442774 7.071068e-011 7.071068e-011 7.071068e-011 7.071068e-011
6694098819.764 0.10147326 0.029458936 -0.0054928642 -0.020531509 7.071068e-011 7.071068e-011 7.071068e-011 7.071068e-011
6695779155.8312 0.093262009 0.019009858 -0.01995964 -0.0077990191 7.071068e-011 7.071068e-011 7.071068e-011 7.071068e-011
6697459491.8984 0.086094163 0.016015057 -0.018150309 0.011538542 7.071068e-011 7.071068e-011 7.071068e-011 7.071068e-011
6699139827.9656 0.083559945 0.016972238 -0.0014337401 0.021411983 7.071068e-011 7.071068e-011 7.071068e-011 7.071068e-011
6700820164.0328 0.086156465 0.017330533 0.016252855 0.013811465 7.071068e-011 7.071068e-011 7.071068e-011 7.071068e-011
6702500500.1 0.091678485 0.013738194 0.020662006 -0.0047201989 7.071068e-011 7.071068e-011 7.071068e-011 7.071068e-011
6704180836.1672 0.096858747 0.0048144218 0.0085726017 -0.019271219 7.071068e-011 7.071068e-011 7.071068e-011 7.071068e-011
6705861172.2344 0.098093346 -0.0090809194 -0.010260314 -0.018299418 7.071068e-011 7.071068e-011 7.071068e-011 7.071068e-011
6707541508.3017 0.092186898 -0.025466187 -0.020590324 -0.0026667216 7.071068e-011 7.071068e-011 7.071068e-011 7.071068e-011
6709221844.3689 0.077752642 -0.040292293 -0.014241696 0.014625093 7.071068e-011 7.071068e-011 7.071068e-011 7.071068e-011
6710902180.4361 0.055482391 -0.049266584 0.0029159782 0.019782003 7.071068e-011 7.071068e-011 7.071068e-011 7.071068e-011
6712582516.5033 0.027779171 -0.048328865 0.017116351 0.009679243 7.071068e-011 7.071068e-011 7.071068e-011 7.071068e-011
6714262852.5705 -0.00059575599 -0.034141835 0.018015867 -0.00744395 7.071068e-011 7.071068e-011 7.071068e-011 7.071068e-011
6715943188.6377 -0.022695871 -0.00608401 0.0051534646 -0.018759536 7.071068e-011 7.071068e-011 7.071068e-011 7.071068e-011
6717623524.7049 -0.031496249 0.03238425 -0.011747252 -0.015457506 7.071068e-011 7.071068e-011 7.071068e-011 7.071068e-011
6719303860.7722 -0.02239877 0.074434645 -0.019227833 2.2338447e-005 7.071068e-011 7.071068e-011 7.071068e-011 7.071068e-011
6720984196.8394 0.0057235355 0.11148342 -0.011467926 0.015012446 7.071068e-011 7.071068e-011 7.071068e-011 7.071068e-011
6722664532.9066 0.04971711 0.1347248 0.0046926071 0.017947126 7.071068e-011 7.071068e-011 7.071068e-011 7.071068e-011
6724344868.9738 0.10225362 0.13757078 0.016801998 0.0073428396 7.071068e-011 7.071068e-011 7.071068e-011 7.071068e-011
6726025205.041 0.15367249 0.11753988 0.016059386 -0.0086595891 7.071068e-011 7.071068e-011 7.071068e-011 7.071068e-011
6727705541.1082 0.1941572 0.076509491 0.0029166716 -0.01789891 7.071068e-011 7.071068e-011 7.071068e-011 7.071068e-011
6729385877.1754 0.21521652 0.020316698 -0.012245472 -0.012970631 7.071068e-011 7.071068e-011 7.071068e-011 7.071068e-011
6731066213.2426 0.21137358 -0.041636933 -0.017293967 0.0016504461 7.071068e-011 7.071068e-011 7.071068e-011 7.071068e-011
6732746549.3099 0.18188509 -0.098210275 -0.0092655458 0.014160953 7.071068e-011 7.071068e-011 7.071068e-011 7.071068e-011
6734426885.3771 0.13086545 -0.13900605 0.0050395685 0.015864976 7.071068e-011 7.071068e-011 7.071068e-011 7.071068e-011
6736107221.4443 0.066241041 -0.15611948 0.015410845 0.0060413145 7.071068e-011 7.071068e-011 7.071068e-011 7.071068e-011
6737787557.5115 -0.0011737595 -0.14530593 0.014308495 -0.0082527371 7.071068e-011 7.071068e-011 7.071068e-011 7.071068e-011
6739467893.5787 -0.059348151 -0.10724379 0.0023687088 -0.016218597 7.071068e-011 7.071068e-011 7.071068e-011 7.071068e-011
6741148229.6459 -0.097420588 -0.047822762 -0.011058372 -0.011790311 7.071068e-011 7.071068e-011 7.071068e-011 7.071068e-011
6742828565.7131 -0.10795934 0.022912739 -0.015915867 0.0011506791 7.071068e-011 7.071068e-011 7.071068e-011 7.071068e-011
6744508901.7804 -0.088269643 0.092564858 -0.0091564609 0.012985844 7.071068e-011 7.071068e-011 7.071068e-011 7.071068e-011
6746189237.8476 -0.041229054 0.14849064 0.0043539051 0.015378916 7.071068e-011 7.071068e-011 7.071068e-011 7.071068e-011
6747869573.9148 0.025043186 0.18046251 0.014874129 0.0061660572 7.071068e-011 7.071068e-011 7.071068e-011 7.071068e-011
6749549909.982 0.099033199 0.18284842 0.013962876 -0.0079452563 7.071068e-011 7.071068e-011 7.071068e-011 7.071068e-011
6751230246.0492 0.16829516 0.15507704 0.0023020052 -0.015663721 7.071068e-011 7.071068e-011 7.071068e-011 7.071068e-011
6752910582.1164 0.22160265 0.10160852 -0.010567169 -0.01136002 7.071068e-011 7.071068e-011 7.071068e-011 7.071068e-011
6754590918.1836 0.24917729 0.030527985 -0.015247951 0.00099830271 7.071068e-011 7.071068e-011 7.071068e-011 7.071068e-011
6756271254.2508 0.24642064 -0.046424355 -0.008822226 0.01234507 7.071068e-011 7.071068e-011 7.071068e-011 7.071068e-011
6757951590.3181 0.21336213 -0.11688019 0.0040184259 0.014564673 7.071068e-011 7.071068e-011 7.071068e-011 7.071068e-011
6759631926.3853 0.15473394 -0.16940098 0.013748484 0.0059793759 7.071068e-011 7.071068e-011 7.071068e-011 7.071068e-011
6761312262.4525 0.079428442 -0.19509879 0.013161672 -0.0067873187 7.071068e-011 7.071068e-011 7.071068e-011 7.071068e-011
6762992598.5197 -0.00068547041 -0.18922167 0.0031642416 -0.014320093 7.071068e-011 7.071068e-011 7.071068e-011 7.071068e-011
6764672934.5869 -0.072614878 -0.15208396 -0.0089272643 -0.011627764 7.071068e-011 7.071068e-011 7.071068e-011 7.071068e-011
6766353270.6541 -0.12439988 -0.089169435 -0.014801987 -0.00060208165 7.071068e-011 7.071068e-011 7.071068e-011 7.071068e-011
6768033606.7213 -0.14695738 -0.010520809 -0.010006209 0.011244749 7.071068e-011 7.071068e-011 7.071068e-011 7.071068e-011
6769713942.7886 -0.13600838 0.070621423 0.0025164161 0.015056139 7.071068e-011 7.071068e-011 7.071068e-011 7.071068e-011
6771394278.8558 -0.093271069 0.14015022 0.013446392 0.0075113894 7.071068e-011 7.071068e-011 7.071068e-011 7.071068e-011
6773074614.923 -0.026375258 0.18597503 0.014359588 -0.0058313017 7.071068e-011 7.071068e-011 7.071068e-011 7.071068e-011
6774754950.9902 0.052714147 0.200333 0.0044510993 -0.014959625 7.071068e-011 7.071068e-011 7.071068e-011 7.071068e-011
6776435287.0574 0.12996773 0.1812779 -0.0090070339 -0.012849664 7.071068e-011 7.071068e-011 7.071068e-011 7.071068e-011
6778115623.1246 0.19205588 0.13285501 -0.015639935 -0.00087257632 7.071068e-011 7.071068e-011 7.071068e-011 7.071068e-011
6779795959.1918 0.22879905 0.063978419 -0.010297618 0.01157225 7.071068e-011 7.071068e-011 7.071068e-011 7.071068e-011
6781476295.2591 0.23450722 -0.013501171 0.0024574779 0.015054571 7.071068e-011 7.071068e-011 7.071068e-011 7.071068e-011
6783156631.3263 0.20853181 -0.08655709 0.013021782 0.0076551102 7.071068e-011 7.071068e-011 7.071068e-011 7.071068e-011
6784836967.3935 0.15540865 -0.14301388 0.01422974 -0.0050832373 7.071068e-011 7.071068e-011 7.071068e-011 7.071068e-011
6786517303.4607 0.084109336 -0.17361738 0.0052021388 -0.014326659 7.071068e-011 7.071068e-011 7.071068e-011 7.071068e-011
6788197639.5279 0.0063532507 -0.17350402 -0.0078828363 -0.013202786 7.071068e-011 7.071068e-011 7.071068e-011 7.071068e-011
6789877975.5951 -0.06531024 -0.14269793 -0.015277351 -0.0022063842 7.071068e-011 7.071068e-011 7.071068e-011 7.071068e-011
6791558311.6623 -0.11925767 -0.086101808 -0.011403677 0.010417193 7.071068e-011 7.071068e-011 7.071068e-011 7.071068e-011
6793238647.7295 -0.14679162 -0.012878972 0.00074265106 0.015509184 7.071068e-011 7.071068e-011 7.071068e-011 7.071068e-011
6794918983.7968 -0.14362042 0.065164685 0.012595995 0.0094599584 7.071068e-011 7.071068e-011 7.071068e-011 7.071068e-011
6796599319.864 -0.1103617 0.13563325 0.015599874 -0.0038794489 7.071068e-011 7.071068e-011 7.071068e-011 7.071068e-011
6798279655.9312 -0.052401036 0.18723015 0.0067758034 -0.014863589 7.071068e-011 7.071068e-011 7.071068e-011 7.071068e-011
6799959991.9984 0.020643711 0.21159859 -0.0074984808 -0.014591654 7.071068e-011 7.071068e-011 7.071068e-011 7.071068e-011
6801640328.0656 0.096495725 0.20516552 -0.015998308 -0.0032700028 7.071068e-011 7.071068e-011 7.071068e-011 7.071068e-011
6803320664.1328 0.16277321 0.16962945 -0.012633365 0.010261538 7.071068e-011 7.071068e-011 7.071068e-011 7.071068e-011
6805001000.2 0.20884106 0.1112996 -0.00015390092 0.016371667 7.071068e-011 7.071068e-011 7.071068e-011 7.071068e-011
6806681336.2673 0.22730902 0.040169977 0.01273312 0.010632457 7.071068e-011 7.071068e-011 7.071068e-011 7.071068e-011
6808361672.3345 0.21545738 -0.031482428 0.016473606 -0.0032838185 7.071068e-011 7.071068e-011 7.071068e-011 7.071068e-011
6810042008.4017 0.17591406 -0.091350473 0.0077734566 -0.014975538 7.071068e-011 7.071068e-011 7.071068e-011 7.071068e-011
6811722344.4689 0.11605043 -0.12947103 -0.0067101452 -0.015463929 7.071068e-011 7.071068e-011 7.071068e-011 7.071068e-011
6813402680.5361 0.046509027 -0.139658 -0.016220616 -0.0047038961 7.071068e-011 7.071068e-011 7.071068e-011 7.071068e-011
6815083016.6033 -0.020370713 -0.12069105 -0.014185774 0.0095713837 7.071068e-011 7.071068e-011 7.071068e-011 7.071068e-011
6816763352.6705 -0.07303077 -0.076771289 -0.0016471333 0.017430263 7.071068e-011 7.071068e-011 7.071068e-011 7.071068e-011
6818443688.7377 -0.10322747 -0.016316466 0.012882045 0.012485724 7.071068e-011 7.071068e-011 7.071068e-011 7.071068e-011
6820124024.805 -0.1069973 0.050291292 0.018063987 -0.0024584399 7.071068e-011 7.071068e-011 7.071068e-011 7.071068e-011
6821804360.8722 -0.084506303 0.11232951 0.0092795407 -0.015799254 7.071068e-011 7.071068e-011 7.071068e-011 7.071068e-011
6823484696.9394 -0.040033612 0.15999718 -0.0065633059 -0.017093882 7.071068e-011 7.071068e-011 7.071068e-011 7.071068e-011
6825165033.0066 0.018614488 0.18617705 -0.017436385 -0.0056408918 7.071068e-011 7.071068e-011 7.071068e-011 7.071068e-011
6826845369.0738 0.081809446 0.18761589 -0.015423156 0.010063387 7.071068e-011 7.071068e-011 7.071068e-011 7.071068e-011
6828525705.141 0.13976255 0.16492786 -0.0018275785 0.018416362 7.071068e-011 7.071068e-011 7.071068e-011 7.071068e-011
6830206041.2082 0.18368396 0.12227734 0.013219565 0.01294974 7.071068e-011 7.071068e-011 7.071068e-011 7.071068e-011
6831886377.2755 0.20719054 0.06695988 0.018300733 -0.0020957855 7.071068e-011 7.071068e-011 7.071068e-011 7.071068e-011
6833566713.3427 0.20736751 0.0079778573 0.010015039 -0.015393197 7.071068e-011 7.071068e-011 7.071068e-011 7.071068e-011
6835247049.4099 0.18485747 -0.045520879 -0.0054076705 -0.017651694 7.071068e-011 7.071068e-011 7.071068e-011 7.071068e-011
6836927385.4771 0.14352159 -0.085113302 -0.017294707 -0.0072593293 7.071068e-011 7.071068e-011 7.071068e-011 7.071068e-011
6838607721.5443 0.090545565 -0.10426647 -0.016961247 0.0089648403 7.071068e-011 7.071068e-011 7.071068e-011 7.071068e-011
6840288057.6115 0.035478726 -0.10005338 -0.0037296421 0.019261418 7.071068e-011 7.071068e-011 7.071068e-011 7.071068e-011
6841968393.6787 -0.011766471 -0.074076749 0.012971681 0.015171195 7.071068e-011 7.071068e-011 7.071068e-011 7.071068e-011
6843648729.7459 -0.043122724 -0.031940848 0.020195292 -0.00072562718 7.071068e-011 7.071068e-011 7.071068e-011 7.071068e-011
6845329065.8132 -0.053718194 0.017963266 0.012131954 -0.016419319 7.071068e-011 7.071068e-011 7.071068e-011 7.071068e-011
6847009401.8804 -0.042898238 0.066110924 -0.005351271 -0.019913087 7.071068e-011 7.071068e-011 7.071068e-011 7.071068e-011
6848689737.9476 -0.014233764 0.10403119 -0.019083738 -0.0082301926 7.071068e-011 7.071068e-011 7.071068e-011 7.071068e-011
6850370074.0148 0.025848527 0.12608267 -0.018358443 0.0099037178 7.071068e-011 7.071068e-011 7.071068e-011 7.071068e-011
6852050410.082 0.069700554 0.12990691 -0.0036588295 0.020520777 7.071068e-011 7.071068e-011 7.071068e-011 7.071068e-011
6853730746.1492 0.10976514 0.11644 0.013687133 0.015645059 7.071068e-011 7.071068e-011 7.071068e-011 7.071068e-011
6855411082.2164 0.14000264 0.089514144 0.020738399 -0.00080040138 7.071068e-011 7.071068e-011 7.071068e-011 7.071068e-011
6857091418.2837 0.15689221 0.054542851 0.012466963 -0.01662874 7.071068e-011 7.071068e-011 7.071068e-011 7.071068e-011
6858771754.3509 0.15929833 0.017150097 -0.0050723059 -0.020231118 7.071068e-011 7.071068e-011 7.071068e-011 7.071068e-011
6860452090.4181 0.14783092 -0.017410841 -0.018990999 -0.0088251224 7.071068e-011 7.071068e-011 7.071068e-011 7.071068e-011
6862132426.4853 0.12474035 -0.04440622 -0.018890796 0.0092373164 7.071068e-011 7.071068e-011 7.071068e-011 7.071068e-011
6863812762.5525 0.093767971 -0.060169064 -0.0047551119 0.020586818 7.071068e-011 7.071068e-011 7.071068e-011 7.071068e-011
6865493098.6197 0.059860069 -0.062533222 0.013068774 0.01678624 7.071068e-011 7.071068e-011 7.071068e-011 7.071068e-011
6867173434.6869 0.028677041 -0.051425666 0.021469483 0.00040971301 7.071068e-011 7.071068e-011 7.071068e-011 7.071068e-011
6868853770.7542 0.0056264205 -0.029344235 0.013917373 -0.016634759 7.071068e-011 7.071068e-011 7.071068e-011 7.071068e-011
