!Keysight Technologies,N5235B,MY61252044,A.15.00.15
!Date: Friday, January 20, 2023 18:59:47
!Correction: S11(Off) 
!S21(Off) 
!S12(Off) 
!S22(Off) 
!S2P File: Measurements: S11, S21, S12, S22:
# Hz S  RI   R 50
6600000000 0.01671811 -0.17426962 0.014869886 -0.005389336 7.071068e-011 7.071068e-011 7.071068e-011 7.071068e-011
6608400000 -0.12336994 0.16696362 0.0069033997 0.0099463407 7.071068e-011 7.071068e-011 7.071068e-011 7.071068e-011
6616800000 0.30720919 0.091160804 -0.0082936445 0.0049716574 7.071068e-011 7.071068e-011 7.071068e-011 7.071068e-011
6625200000 0.022953063 -0.27302212 -0.0030951118 -0.0089837043 7.071068e-011 7.071068e-011 7.071068e-011 7.071068e-011
6633600000 -0.16540387 0.16209836 0.009198851 -0.0016870677 7.071068e-011 7.071068e-011 7.071068e-011 7.071068e-011
6642000000 0.29058099 0.11336225 -0.00058078772 0.009474894 7.071068e-011 7.071068e-011 7.071068e-011 7.071068e-011
6650400000 0.039158087 -0.25267503 -0.011161628 -0.0026721591 7.071068e-011 7.071068e-011 7.071068e-011 7.071068e-011
6658800000 -0.14891298 0.13369299 0.004479649 -0.012162275 7.071068e-011 7.071068e-011 7.071068e-011 7.071068e-011
6667200000 0.22825983 0.10333521 0.013185333 0.0076063015 7.071068e-011 7.071068e-011 7.071068e-011 7.071068e-011
6675600000 0.044139691 -0.15301886 -0.0098990845 0.015007435 7.071068e-011 7.071068e-011 7.071068e-011 7.071068e-011
6684000000 -0.045305636 0.084625758 -0.016018491 -0.011713466 7.071068e-011 7.071068e-011 7.071068e-011 7.071068e-011
6692400000 0.1055752 0.048210163 0.013123913 -0.016445763 7.071068e-011 7.071068e-011 7.071068e-011 7.071068e-011
6700800000 0.085989468 0.017290302 0.016246093 0.013834476 7.071068e-011 7.071068e-011 7.071068e-011 7.071068e-011
6709200000 0.077878706 -0.040222753 -0.014279661 0.014596561 7.071068e-011 7.071068e-011 7.071068e-011 7.071068e-011
6717600000 -0.031463612 0.032200597 -0.011709196 -0.015493482 7.071068e-011 7.071068e-011 7.071068e-011 7.071068e-011
6726000000 0.15332825 0.11758184 0.016101975 -0.0086041475 7.071068e-011 7.071068e-011 7.071068e-011 7.071068e-011
6734400000 0.13127513 -0.13856617 0.0049766493 0.015892437 7.071068e-011 7.071068e-011 7.071068e-011 7.071068e-011
6742800000 -0.10785773 0.022070305 -0.015932035 0.0010650964 7.071068e-011 7.071068e-011 7.071068e-011 7.071068e-011
6751200000 0.16746016 0.15559237 0.0024123678 -0.015671493 7.071068e-011 7.071068e-011 7.071068e-011 7.071068e-011
6759600000 0.15575007 -0.16895841 0.013731513 0.0060879323 7.071068e-011 7.071068e-011 7.071068e-011 7.071068e-011
6768000000 -0.14703822 -0.011654032 -0.010096885 0.011174576 7.071068e-011 7.071068e-011 7.071068e-011 7.071068e-011
6776400000 0.12910618 0.18186904 -0.008896132 -0.012919811 7.071068e-011 7.071068e-011 7.071068e-011 7.071068e-011
6784800000 0.15631771 -0.14248386 0.014295462 -0.0049622278 7.071068e-011 7.071068e-011 7.071068e-011 7.071068e-011
6793200000 -0.14660624 -0.014050583 0.00059700117 0.015521467 7.071068e-011 7.071068e-011 7.071068e-011 7.071068e-011
6801600000 0.095260464 0.20544852 -0.015959177 -0.0034438171 7.071068e-011 7.071068e-011 7.071068e-011 7.071068e-011
6810000000 0.17684357 -0.090371698 0.0079547521 -0.014880302 7.071068e-011 7.071068e-011 7.071068e-011 7.071068e-011
6818400000 -0.10289983 -0.017740481 0.012701359 0.012645577 7.071068e-011 7.071068e-011 7.071068e-011 7.071068e-011
6826800000 0.080434032 0.1880438 -0.015564866 0.0098406337 7.071068e-011 7.071068e-011 7.071068e-011 7.071068e-011
6835200000 0.18574214 -0.044681817 -0.0051540188 -0.017726725 7.071068e-011 7.071068e-011 7.071068e-011 7.071068e-011
6843600000 -0.04288755 -0.03295169 0.020209514 -0.00041023656 7.071068e-011 7.071068e-011 7.071068e-011 7.071068e-011
6852000000 0.06887047 0.1300844 -0.0039983569 0.020464053 7.071068e-011 7.071068e-011 7.071068e-011 7.071068e-011
6860400000 0.14819518 -0.016740711 -0.018843152 -0.0091441274 7.071068e-011 7.071068e-011 7.071068e-011 7.071068e-011
6868800000 0.0061389976 -0.029957911 0.014213968 -0.01636981 7.071068e-011 7.071068e-011 7.071068e-011 7.071068e-011
6877200000 0.050702661 0.072315544 0.012979016 0.017925825 7.071068e-011 7.071068e-011 7.071068e-011 7.071068e-011
6885600000 0.092048787 0.0089918831 -0.020373359 0.0079791099 7.071068e-011 7.071068e-011 7.071068e-011 7.071068e-011
6894000000 0.04760997 -0.0021216224 -0.0024633741 -0.022029461 7.071068e-011 7.071068e-011 7.071068e-011 7.071068e-011
6902400000 0.038347989 0.019547183 0.022049475 0.0032050738 7.071068e-011 7.071068e-011 7.071068e-011 7.071068e-011
6910800000 0.031012531 0.035978008 -0.0088296914 0.020252932 7.071068e-011 7.071068e-011 7.071068e-011 7.071068e-011
6919200000 0.076469451 0.051657345 -0.016941637 -0.013711647 7.071068e-011 7.071068e-011 7.071068e-011 7.071068e-011
6927600000 0.053754598 -0.011845078 0.01739745 -0.012673683 7.071068e-011 7.071068e-011 7.071068e-011 7.071068e-011
6936000000 -0.0033524323 0.057879943 0.0070886086 0.019640654 7.071068e-011 7.071068e-011 7.071068e-011 7.071068e-011
6944400000 0.10841869 0.093130969 -0.020891508 0.00079910341 7.071068e-011 7.071068e-011 7.071068e-011 7.071068e-011
6952800000 0.089757107 -0.043476939 0.0049127461 -0.019945964 7.071068e-011 7.071068e-011 7.071068e-011 7.071068e-011
6961200000 -0.028860105 0.047825139 0.017124915 0.010378293 7.071068e-011 7.071068e-011 7.071068e-011 7.071068e-011
6969600000 0.11796109 0.11037372 -0.014943799 0.013151993 7.071068e-011 7.071068e-011 7.071068e-011 7.071068e-011
6978000000 0.10988147 -0.066575475 -0.0078692427 -0.017678715 7.071068e-011 7.071068e-011 7.071068e-011 7.071068e-011
6986400000 -0.063943923 0.023246918 0.018845066 -0.0016572042 7.071068e-011 7.071068e-011 7.071068e-011 7.071068e-011
6994800000 0.094581313 0.13796461 -0.0043496294 0.018808866 7.071068e-011 7.071068e-011 7.071068e-011 7.071068e-011
7003200000 0.11721931 -0.052014321 -0.01626613 -0.009677765 7.071068e-011 7.071068e-011 7.071068e-011 7.071068e-011
7011600000 -0.071595617 0.021611165 0.014681949 -0.011790628 7.071068e-011 7.071068e-011 7.071068e-011 7.071068e-011
7020000000 0.078431249 0.1647283 0.0068892082 0.017725382 7.071068e-011 7.071068e-011 7.071068e-011 7.071068e-011
7028400000 0.13938107 -0.021698972 -0.018623898 0.00082847517 7.071068e-011 7.071068e-011 7.071068e-011 7.071068e-011
7036800000 -0.050797481 0.019974397 0.0055601955 -0.018360034 7.071068e-011 7.071068e-011 7.071068e-011 7.071068e-011
7045200000 0.078860745 0.17291923 0.015829973 0.01087732 7.071068e-011 7.071068e-011 7.071068e-011 7.071068e-011
7053600000 0.17297253 0.0059685889 -0.015469729 0.011044217 7.071068e-011 7.071068e-011 7.071068e-011 7.071068e-011
7062000000 -0.0029203068 -0.0127203 -0.0054466394 -0.018947773 7.071068e-011 7.071068e-011 7.071068e-011 7.071068e-011
7070400000 0.068443149 0.14046556 0.019881658 0.00033063945 7.071068e-011 7.071068e-011 7.071068e-011 7.071068e-011
7078800000 0.17141049 0.015773784 -0.0070008836 0.018303398 7.071068e-011 7.071068e-011 7.071068e-011 7.071068e-011
7087200000 0.038521223 -0.032232359 -0.015616395 -0.012873027 7.071068e-011 7.071068e-011 7.071068e-011 7.071068e-011
7095600000 0.052349482 0.087395906 0.017052842 -0.011044445 7.071068e-011 7.071068e-011 7.071068e-011 7.071068e-011
7104000000 0.14863579 0.017257744 0.0047447146 0.019697854 7.071068e-011 7.071068e-011 7.071068e-011 7.071068e-011
7112400000 0.056868203 -0.046334673 -0.020513792 -0.0021391823 7.071068e-011 7.071068e-011 7.071068e-011 7.071068e-011
7120800000 0.030801712 0.028280511 0.0083258618 -0.019109093 7.071068e-011 7.071068e-011 7.071068e-011 7.071068e-011
7129200000 0.089223772 0.019028697 0.015134239 0.013784477 7.071068e-011 7.071068e-011 7.071068e-011 7.071068e-011
7137600000 0.047343701 -0.038209449 -0.018430326 0.0097622704 7.071068e-011 7.071068e-011 7.071068e-011 7.071068e-011
7146000000 -0.00012322265 0.0098826308 -0.0035362355 -0.020729834 7.071068e-011 7.071068e-011 7.071068e-011 7.071068e-011
7154400000 0.028221037 0.041793145 0.020587206 0.0032790517 7.071068e-011 7.071068e-011 7.071068e-011 7.071068e-011
7162800000 0.046124041 0.017144499 -0.0099066803 0.018032307 7.071068e-011 7.071068e-011 7.071068e-011 7.071068e-011
7171200000 0.0035097275 0.017872827 -0.013945336 -0.015395422 7.071068e-011 7.071068e-011 7.071068e-011 7.071068e-011
7179600000 0.014631482 0.070147015 0.018884208 -0.0081103761 7.071068e-011 7.071068e-011 7.071068e-011 7.071068e-011
7188000000 0.066601187 0.059906237 0.0011009345 0.020797605 7.071068e-011 7.071068e-011 7.071068e-011 7.071068e-011
7196400000 0.043618858 0.010114698 -0.02005 -0.005599441 7.071068e-011 7.071068e-011 7.071068e-011 7.071068e-011
7204800000 0.010225523 0.062816054 0.011980744 -0.016457673 7.071068e-011 7.071068e-011 7.071068e-011 7.071068e-011
7213200000 0.079042301 0.071302965 0.011509873 0.017073078 7.071068e-011 7.071068e-011 7.071068e-011 7.071068e-011
7221600000 0.071725748 -0.0025310419 -0.020074816 0.0053212885 7.071068e-011 7.071068e-011 7.071068e-011 7.071068e-011
7230000000 -0.00073953503 0.028660377 0.0017055332 -0.020550458 7.071068e-011 7.071068e-011 7.071068e-011 7.071068e-011
7238400000 0.064874403 0.078726053 0.018776543 0.008935607 7.071068e-011 7.071068e-011 7.071068e-011 7.071068e-011
7246800000 0.081190564 -0.0095503274 -0.014653686 0.014813242 7.071068e-011 7.071068e-011 7.071068e-011 7.071068e-011
7255200000 -0.013172806 0.00014204759 -0.008642571 -0.018683737 7.071068e-011 7.071068e-011 7.071068e-011 7.071068e-011
7263600000 0.027187668 0.084137253 0.020741943 -0.0018702279 7.071068e-011 7.071068e-011 7.071068e-011 7.071068e-011
7272000000 0.078504547 0.0077544837 -0.0050472291 0.020028654 7.071068e-011 7.071068e-011 7.071068e-011 7.071068e-011
7280400000 -0.023595138 -0.0060284813 -0.016978096 -0.011702193 7.071068e-011 7.071068e-011 7.071068e-011 7.071068e-011
7288800000 -0.0088161258 0.10310011 0.01713473 -0.011674593 7.071068e-011 7.071068e-011 7.071068e-011 7.071068e-011
7297200000 0.084857613 0.059840918 0.0051337662 0.020159114 7.071068e-011 7.071068e-011 7.071068e-011 7.071068e-011
7305600000 0.0086646508 0.0043880069 -0.020508561 -0.0023008061 7.071068e-011 7.071068e-011 7.071068e-011 7.071068e-011
7314000000 -0.0040002959 0.10638308 0.0092322603 -0.018911377 7.071068e-011 7.071068e-011 7.071068e-011 7.071068e-011
7322400000 0.10889208 0.085481241 0.014431262 0.014869444 7.071068e-011 7.071068e-011 7.071068e-011 7.071068e-011
7330800000 0.060128402 -0.011741008 -0.019321175 0.0079320706 7.071068e-011 7.071068e-011 7.071068e-011 7.071068e-011
7339200000 0.0041700043 0.060964543 -0.00091200363 -0.021251719 7.071068e-011 7.071068e-011 7.071068e-011 7.071068e-011
7347600000 0.099195935 0.071994372 0.020088913 0.0062618637 7.071068e-011 7.071068e-011 7.071068e-011 7.071068e-011
7356000000 0.075953439 -0.033532068 -0.012952622 0.016372466 7.071068e-011 7.071068e-011 7.071068e-011 7.071068e-011
7364400000 -0.010111324 0.012375153 -0.011044185 -0.018076299 7.071068e-011 7.071068e-011 7.071068e-011 7.071068e-011
7372800000 0.054682303 0.054826364 0.020547189 -0.0041791815 7.071068e-011 7.071068e-011 7.071068e-011 7.071068e-011
7381200000 0.05300352 -0.031057253 -0.0037290389 0.020826085 7.071068e-011 7.071068e-011 7.071068e-011 7.071068e-011
7389600000 -0.04101814 0.00066834298 -0.018382182 -0.010681069 7.071068e-011 7.071068e-011 7.071068e-011 7.071068e-011
7398000000 0.0056600436 0.071997978 0.016398406 -0.013213917 7.071068e-011 7.071068e-011 7.071068e-011 7.071068e-011
7406400000 0.032907367 0.014774055 0.0065947692 0.020134084 7.071068e-011 7.071068e-011 7.071068e-011 7.071068e-011
7414800000 -0.038040992 0.027398886 -0.021346213 -0.000792993 7.071068e-011 7.071068e-011 7.071068e-011 7.071068e-011
7423200000 -0.0016808558 0.10351261 0.0081422841 -0.019666214 7.071068e-011 7.071068e-011 7.071068e-011 7.071068e-011
7431600000 0.055560045 0.060704261 0.015429948 0.014761511 7.071068e-011 7.071068e-011 7.071068e-011 7.071068e-011
7440000000 0.013299199 0.038286064 -0.019237405 0.0094810305 7.071068e-011 7.071068e-011 7.071068e-011 7.071068e-011
7448400000 0.024064567 0.085739903 -0.0019862361 -0.021122824 7.071068e-011 7.071068e-011 7.071068e-011 7.071068e-011
7456800000 0.077554427 0.055294096 0.020482916 0.0057093254 7.071068e-011 7.071068e-011 7.071068e-011 7.071068e-011
7465200000 0.045978494 0.013919164 -0.012558423 0.017231883 7.071068e-011 7.071068e-011 7.071068e-011 7.071068e-011
7473600000 0.028651809 0.037052855 -0.011636348 -0.017660083 7.071068e-011 7.071068e-011 7.071068e-011 7.071068e-011
7482000000 0.05835373 0.03314453 0.020598978 -0.0043288656 7.071068e-011 7.071068e-011 7.071068e-011 7.071068e-011
7490400000 0.043643549 -0.010748683 -0.003279299 0.020860391 7.071068e-011 7.071068e-011 7.071068e-011 7.071068e-011
7498800000 -0.00077711925 -0.0016366155 -0.018164665 -0.010437351 7.071068e-011 7.071068e-011 7.071068e-011 7.071068e-011
7507200000 0.00051218754 0.031072946 0.016225867 -0.013238195 7.071068e-011 7.071068e-011 7.071068e-011 7.071068e-011
7515600000 0.020718228 0.015229339 0.0065510501 0.019779304 7.071068e-011 7.071068e-011 7.071068e-011 7.071068e-011
7524000000 -0.021166977 0.003205084 -0.02068625 -0.0010418013 7.071068e-011 7.071068e-011 7.071068e-011 7.071068e-011
7532400000 -0.034043048 0.060091142 0.008518301 -0.018829187 7.071068e-011 7.071068e-011 7.071068e-011 7.071068e-011
7540800000 0.022727469 0.07319428 0.014574789 0.014556278 7.071068e-011 7.071068e-011 7.071068e-011 7.071068e-011
7549200000 0.019484235 0.022379806 -0.018482737 0.0080028931 7.071068e-011 7.071068e-011 7.071068e-011 7.071068e-011
7557600000 -0.018455872 0.060997792 -0.00060402317 -0.02024008 7.071068e-011 7.071068e-011 7.071068e-011 7.071068e-011
7566000000 0.047893602 0.083696894 0.018915754 0.0067363274 7.071068e-011 7.071068e-011 7.071068e-011 7.071068e-011
7574400000 0.060927417 0.0076791723 -0.013346922 0.014998262 7.071068e-011 7.071068e-011 7.071068e-011 7.071068e-011
7582800000 -0.010028396 0.015566303 -0.009066442 -0.017921668 7.071068e-011 7.071068e-011 7.071068e-011 7.071068e-011
7591200000 0.036868654 0.064322017 0.019731652 -0.0020006874 7.071068e-011 7.071068e-011 7.071068e-011 7.071068e-011
7599600000 0.059065219 -0.01512294 -0.0055169533 0.018745482 7.071068e-011 7.071068e-011 7.071068e-011 7.071068e-011
7608000000 -0.030962199 -0.020472284 -0.015619651 -0.012477606 7.071068e-011 7.071068e-011 7.071068e-011 7.071068e-011
7616400000 -0.014934905 0.056740113 0.017102934 -0.010217455 7.071068e-011 7.071068e-011 7.071068e-011 7.071068e-011
7624800000 0.03152645 0.0050422074 0.0029161575 0.019528113 7.071068e-011 7.071068e-011 7.071068e-011 7.071068e-011
7633200000 -0.052761797 -0.0062507037 -0.019172722 -0.0044463831 7.071068e-011 7.071068e-011 7.071068e-011 7.071068e-011
7641600000 -0.038284961 0.086985596 0.01122382 -0.015993681 7.071068e-011 7.071068e-011 7.071068e-011 7.071068e-011
7650000000 0.037836444 0.052969925 0.01065544 0.016482096 7.071068e-011 7.071068e-011 7.071068e-011 7.071068e-011
7658400000 -0.021128176 0.011738077 -0.019489188 0.0039665955 7.071068e-011 7.071068e-011 7.071068e-011 7.071068e-011
7666800000 -0.022647431 0.095934391 0.0032595696 -0.019300373 7.071068e-011 7.071068e-011 7.071068e-011 7.071068e-011
7675200000 0.069563523 0.071525238 0.016267905 0.010595758 7.071068e-011 7.071068e-011 7.071068e-011 7.071068e-011
7683600000 0.031940691 -0.0040149624 -0.01614023 0.011441199 7.071068e-011 7.071068e-011 7.071068e-011 7.071068e-011
7692000000 -0.0052912999 0.046932179 -0.0047730561 -0.019104511 7.071068e-011 7.071068e-011 7.071068e-011 7.071068e-011
7700400000 0.065856859 0.043874741 0.019486237 0.0026050436 7.071068e-011 7.071068e-011 7.071068e-011 7.071068e-011
7708800000 0.035608482 -0.039853942 -0.0098045692 0.017050508 7.071068e-011 7.071068e-011 7.071068e-011 7.071068e-011
7717200000 -0.03372138 0.00088485959 -0.012200959 -0.015500554 7.071068e-011 7.071068e-011 7.071068e-011 7.071068e-011
7725600000 0.017058387 0.033783305 0.01894163 -0.0053134565 7.071068e-011 7.071068e-011 7.071068e-011 7.071068e-011
7734000000 0.013905121 -0.035779666 -0.0019300464 0.019781809 7.071068e-011 7.071068e-011 7.071068e-011 7.071068e-011
7742400000 -0.070710659 -0.012095957 -0.017400661 -0.0089848479 7.071068e-011 7.071068e-011 7.071068e-011 7.071068e-011
7750800000 -0.04056938 0.062351041 0.01508602 -0.012724196 7.071068e-011 7.071068e-011 7.071068e-011 7.071068e-011
7759200000 0.0015449233 0.025319139 0.0062372372 0.018828813 7.071068e-011 7.071068e-011 7.071068e-011 7.071068e-011
7767600000 -0.053430907 0.019395409 -0.019796696 -0.0012500702 7.071068e-011 7.071068e-011 7.071068e-011 7.071068e-011
7776000000 -0.037760481 0.091114409 0.0085412068 -0.017726239 7.071068e-011 7.071068e-011 7.071068e-011 7.071068e-011
7784400000 0.031555437 0.067924075 0.013269659 0.014625126 7.071068e-011 7.071068e-011 7.071068e-011 7.071068e-011
7792800000 0.0010804324 0.02483223 -0.018397119 0.0067447829 7.071068e-011 7.071068e-011 7.071068e-011 7.071068e-011
7801200000 -0.0075143934 0.070349112 0.00086749991 -0.01986465 7.071068e-011 7.071068e-011 7.071068e-011 7.071068e-011
7809600000 0.053100292 0.058347952 0.018134797 0.0080157723 7.071068e-011 7.071068e-011 7.071068e-011 7.071068e-011
7818000000 0.03529948 -0.004227811 -0.014268576 0.013472375 7.071068e-011 7.071068e-011 7.071068e-011 7.071068e-011
7826400000 -0.0055549215 0.020799272 -0.0071932743 -0.018375514 7.071068e-011 7.071068e-011 7.071068e-011 7.071068e-011
7834800000 0.032594755 0.031709168 0.019731846 0.00022357286 7.071068e-011 7.071068e-011 7.071068e-011 7.071068e-011
7843200000 0.02531236 -0.019825792 -0.0076417928 0.018253475 7.071068e-011 7.071068e-011 7.071068e-011 7.071068e-011
7851600000 -0.026918337 -0.0044922964 -0.014032339 -0.014031512 7.071068e-011 7.071068e-011 7.071068e-011 7.071068e-011
7860000000 -0.0039445204 0.030739693 0.018169813 -0.0077749649 7.071068e-011 7.071068e-011 7.071068e-011 7.071068e-011
7868400000 0.010254197 -0.0036250264 0.00016197014 0.019719454 7.071068e-011 7.071068e-011 7.071068e-011 7.071068e-011
7876800000 -0.036186118 -0.0037003828 -0.018554423 -0.0072653964 7.071068e-011 7.071068e-011 7.071068e-011 7.071068e-011
7885200000 -0.030566514 0.043394651 0.013499249 -0.014484374 7.071068e-011 7.071068e-011 7.071068e-011 7.071068e-011
7893600000 0.0088519566 0.03623724 0.0081879711 0.017765151 7.071068e-011 7.071068e-011 7.071068e-011 7.071068e-011
7902000000 -0.0083080037 0.0091914795 -0.019651575 0.00060680899 7.071068e-011 7.071068e-011 7.071068e-011 7.071068e-011
7910400000 -0.021479297 0.039209999 0.0067234058 -0.018579965 7.071068e-011 7.071068e-011 7.071068e-011 7.071068e-011
7918800000 0.017238354 0.048957828 0.014505156 0.013055841 7.071068e-011 7.071068e-011 7.071068e-011 7.071068e-011
7927200000 0.028436786 0.0073448829 -0.017553419 0.0083884485 7.071068e-011 7.071068e-011 7.071068e-011 7.071068e-011
7935600000 -0.0079467576 0.0059319884 -0.0010722931 -0.019308301 7.071068e-011 7.071068e-011 7.071068e-011 7.071068e-011
7944000000 0.010948015 0.033124425 0.018210981 0.0064695603 7.071068e-011 7.071068e-011 7.071068e-011 7.071068e-011
7952400000 0.037560381 -0.0055457959 -0.012945356 0.014362932 7.071068e-011 7.071068e-011 7.071068e-011 7.071068e-011
7960800000 -0.015095554 -0.033465315 -0.0084501263 -0.017355423 7.071068e-011 7.071068e-011 7.071068e-011 7.071068e-011
7969200000 -0.029190183 0.020990375 0.0190008 -0.0011161711 7.071068e-011 7.071068e-011 7.071068e-011 7.071068e-011
7977600000 0.020132681 0.0067024552 -0.0063332901 0.017962161 7.071068e-011 7.071068e-011 7.071068e-011 7.071068e-011
7986000000 -0.024400413 -0.039735999 -0.014219482 -0.012661311 7.071068e-011 7.071068e-011 7.071068e-011 7.071068e-011
7994400000 -0.065240361 0.024907241 0.017034641 -0.0083285859 7.071068e-011 7.071068e-011 7.071068e-011 7.071068e-011
