!Keysight Technologies,N5235B,MY61252044,A.15.00.15
!Date: Friday, January 20, 2023 19:33:02
!Correction: S11(Off) 
!S21(Off) 
!S12(Off) 
!S22(Off) 
!S2P File: Measurements: S11, S21, S12, S22:
# Hz S  RI   R 50
6600000000 0.017189097 -0.17455624 0.014891915 -0.0052180439 7.071068e-011 7.071068e-011 7.071068e-011 7.071068e-011
6608400000 -0.12379408 0.16634886 0.0067783822 0.010004508 7.071068e-011 7.071068e-011 7.071068e-011 7.071068e-011
6616800000 0.3067317 0.09200076 -0.0083305361 0.0048680347 7.071068e-011 7.071068e-011 7.071068e-011 7.071068e-011
6625200000 0.024058348 -0.27301961 -0.0029886484 -0.0089983139 7.071068e-011 7.071068e-011 7.071068e-011 7.071068e-011
6633600000 -0.16601479 0.16116837 0.009207611 -0.001578061 7.071068e-011 7.071068e-011 7.071068e-011 7.071068e-011
6642000000 0.29013321 0.11429098 -0.00068928953 0.0094555393 7.071068e-011 7.071068e-011 7.071068e-011 7.071068e-011
6650400000 0.040099975 -0.25272021 -0.011119115 -0.002806342 7.071068e-011 7.071068e-011 7.071068e-011 7.071068e-011
6658800000 -0.14930055 0.13311617 0.0046133627 -0.012101321 7.071068e-011 7.071068e-011 7.071068e-011 7.071068e-011
6667200000 0.22784686 0.10371998 0.013092182 0.0077423248 7.071068e-011 7.071068e-011 7.071068e-011 7.071068e-011
6675600000 0.044738442 -0.15267333 -0.010046953 0.014886276 7.071068e-011 7.071068e-011 7.071068e-011 7.071068e-011
6684000000 -0.045432281 0.083947517 -0.015862016 -0.011864302 7.071068e-011 7.071068e-011 7.071068e-011 7.071068e-011
6692400000 0.10534871 0.04859953 0.013288052 -0.016269285 7.071068e-011 7.071068e-011 7.071068e-011 7.071068e-011
6700800000 0.086127907 0.01724142 0.016057111 0.014002261 7.071068e-011 7.071068e-011 7.071068e-011 7.071068e-011
6709200000 0.077984542 -0.040006779 -0.014426064 0.014414948 7.071068e-011 7.071068e-011 7.071068e-011 7.071068e-011
6717600000 -0.031391673 0.031649277 -0.011509998 -0.015606208 7.071068e-011 7.071068e-011 7.071068e-011 7.071068e-011
6726000000 0.15276878 0.11809042 0.016177488 -0.0084030302 7.071068e-011 7.071068e-011 7.071068e-011 7.071068e-011
6734400000 0.13202301 -0.13845709 0.0047861184 0.015931778 7.071068e-011 7.071068e-011 7.071068e-011 7.071068e-011
6742800000 -0.1080905 0.021511547 -0.015917137 0.0008881244 7.071068e-011 7.071068e-011 7.071068e-011 7.071068e-011
6751200000 0.16705272 0.15590659 0.0025734405 -0.015611228 7.071068e-011 7.071068e-011 7.071068e-011 7.071068e-011
6759600000 0.15616409 -0.16856639 0.013624874 0.0062239673 7.071068e-011 7.071068e-011 7.071068e-011 7.071068e-011
6768000000 -0.14677048 -0.012332189 -0.010207543 0.011035766 7.071068e-011 7.071068e-011 7.071068e-011 7.071068e-011
6776400000 0.12823905 0.18203703 -0.0087311044 -0.01301776 7.071068e-011 7.071068e-011 7.071068e-011 7.071068e-011
6784800000 0.15697567 -0.14185244 0.014313517 -0.0047846632 7.071068e-011 7.071068e-011 7.071068e-011 7.071068e-011
6793200000 -0.14645003 -0.014899862 0.00039928983 0.015499954 7.071068e-011 7.071068e-011 7.071068e-011 7.071068e-011
6801600000 0.094548292 0.20577021 -0.015905371 -0.0036317275 7.071068e-011 7.071068e-011 7.071068e-011 7.071068e-011
6810000000 0.17734528 -0.090012774 0.0081219152 -0.014772088 7.071068e-011 7.071068e-011 7.071068e-011 7.071068e-011
6818400000 -0.10276088 -0.018128293 0.012549268 0.012782441 7.071068e-011 7.071068e-011 7.071068e-011 7.071068e-011
6826800000 0.080041535 0.1879036 -0.015652519 0.0096597113 7.071068e-011 7.071068e-011 7.071068e-011 7.071068e-011
6835200000 0.18576701 -0.044055544 -0.0049512209 -0.01775731 7.071068e-011 7.071068e-011 7.071068e-011 7.071068e-011
6843600000 -0.042360689 -0.033437483 0.020176593 -0.000166721 7.071068e-011 7.071068e-011 7.071068e-011 7.071068e-011
6852000000 0.068238288 0.13005848 -0.0042365137 0.020388193 7.071068e-011 7.071068e-011 7.071068e-011 7.071068e-011
6860400000 0.14850228 -0.016325209 -0.018703623 -0.0093709258 7.071068e-011 7.071068e-011 7.071068e-011 7.071068e-011
6868800000 0.0061875852 -0.030313769 0.014387816 -0.016185576 7.071068e-011 7.071068e-011 7.071068e-011 7.071068e-011
6877200000 0.050630596 0.072444648 0.012762864 0.018067328 7.071068e-011 7.071068e-011 7.071068e-011 7.071068e-011
6885600000 0.091927812 0.0088678421 -0.020455224 0.0077386312 7.071068e-011 7.071068e-011 7.071068e-011 7.071068e-011
6894000000 0.047767382 -0.0018228826 -0.002220843 -0.02204261 7.071068e-011 7.071068e-011 7.071068e-011 7.071068e-011
6902400000 0.038344894 0.019210219 0.021978335 0.0034517294 7.071068e-011 7.071068e-011 7.071068e-011 7.071068e-011
6910800000 0.030872248 0.03617014 -0.0090389382 0.020117104 7.071068e-011 7.071068e-011 7.071068e-011 7.071068e-011
6919200000 0.076534197 0.051589541 -0.016742909 -0.013893531 7.071068e-011 7.071068e-011 7.071068e-011 7.071068e-011
6927600000 0.05374106 -0.011692951 0.017529115 -0.012447525 7.071068e-011 7.071068e-011 7.071068e-011 7.071068e-011
6936000000 -0.0031719299 0.057574447 0.0068367799 0.019697236 7.071068e-011 7.071068e-011 7.071068e-011 7.071068e-011
6944400000 0.10793263 0.093332648 -0.020885549 0.00054768112 7.071068e-011 7.071068e-011 7.071068e-011 7.071068e-011
6952800000 0.090303093 -0.043280456 0.0051341248 -0.01986685 7.071068e-011 7.071068e-011 7.071068e-011 7.071068e-011
6961200000 -0.02912336 0.047358163 0.016990697 0.010574688 7.071068e-011 7.071068e-011 7.071068e-011 7.071068e-011
6969600000 0.11780691 0.11073975 -0.015078816 0.012972866 7.071068e-011 7.071068e-011 7.071068e-011 7.071068e-011
6978000000 0.11014226 -0.066525705 -0.007655818 -0.017749812 7.071068e-011 7.071068e-011 7.071068e-011 7.071068e-011
6986400000 -0.063880473 0.023012377 0.018829547 -0.0014338794 7.071068e-011 7.071068e-011 7.071068e-011 7.071068e-011
6994800000 0.094216354 0.13794149 -0.0045616375 0.018739104 7.071068e-011 7.071068e-011 7.071068e-011 7.071068e-011
7003200000 0.11740329 -0.051538978 -0.016133651 -0.009863643 7.071068e-011 7.071068e-011 7.071068e-011 7.071068e-011
7011600000 -0.071278475 0.021051822 0.014812327 -0.011598458 7.071068e-011 7.071068e-011 7.071068e-011 7.071068e-011
7020000000 0.077769354 0.16487886 0.0066773389 0.017796196 7.071068e-011 7.071068e-011 7.071068e-011 7.071068e-011
7028400000 0.13987842 -0.021309137 -0.01862756 0.00060394063 7.071068e-011 7.071068e-011 7.071068e-011 7.071068e-011
7036800000 -0.050782569 0.019460142 0.0057725017 -0.018281482 7.071068e-011 7.071068e-011 7.071068e-011 7.071068e-011
7045200000 0.078578472 0.17307915 0.015689351 0.01105292 7.071068e-011 7.071068e-011 7.071068e-011 7.071068e-011
7053600000 0.17303318 0.0061876317 -0.01558187 0.010842836 7.071068e-011 7.071068e-011 7.071068e-011 7.071068e-011
7062000000 -0.0025946496 -0.012836794 -0.0052190358 -0.018989451 7.071068e-011 7.071068e-011 7.071068e-011 7.071068e-011
7070400000 0.068089806 0.14016847 0.019846346 0.00056707399 7.071068e-011 7.071068e-011 7.071068e-011 7.071068e-011
7078800000 0.17137389 0.01629116 -0.0072114267 0.018190553 7.071068e-011 7.071068e-011 7.071068e-011 7.071068e-011
7087200000 0.038936518 -0.032513462 -0.015431765 -0.013066111 7.071068e-011 7.071068e-011 7.071068e-011 7.071068e-011
7095600000 0.051919155 0.087247029 0.017181588 -0.01083068 7.071068e-011 7.071068e-011 7.071068e-011 7.071068e-011
7104000000 0.14879996 0.017593417 0.0045016482 0.019748887 7.071068e-011 7.071068e-011 7.071068e-011 7.071068e-011
7112400000 0.056872573 -0.046515424 -0.020468749 -0.0023696227 7.071068e-011 7.071068e-011 7.071068e-011 7.071068e-011
7120800000 0.030864863 0.028290715 0.008545313 -0.018995339 7.071068e-011 7.071068e-011 7.071068e-011 7.071068e-011
7129200000 0.088963859 0.018970957 0.01495265 0.013939193 7.071068e-011 7.071068e-011 7.071068e-011 7.071068e-011
7137600000 0.047569964 -0.037935566 -0.018519143 0.0095308647 7.071068e-011 7.071068e-011 7.071068e-011 7.071068e-011
7146000000 -0.00012696312 0.0095533086 -0.0032841335 -0.020739011 7.071068e-011 7.071068e-011 7.071068e-011 7.071068e-011
7154400000 0.028035684 0.041969206 0.020520544 0.003535046 7.071068e-011 7.071068e-011 7.071068e-011 7.071068e-011
7162800000 0.046327647 0.017184502 -0.010124598 0.017895579 7.071068e-011 7.071068e-011 7.071068e-011 7.071068e-011
7171200000 0.0034196065 0.017808355 -0.013751128 -0.015559798 7.071068e-011 7.071068e-011 7.071068e-011 7.071068e-011
7179600000 0.014747226 0.070127472 0.018981362 -0.0078693815 7.071068e-011 7.071068e-011 7.071068e-011 7.071068e-011
7188000000 0.066345811 0.059912622 0.00085916708 0.020803722 7.071068e-011 7.071068e-011 7.071068e-011 7.071068e-011
7196400000 0.043950833 0.010296074 -0.019977469 -0.005829358 7.071068e-011 7.071068e-011 7.071068e-011 7.071068e-011
7204800000 0.010050766 0.06245359 0.012173047 -0.016312754 7.071068e-011 7.071068e-011 7.071068e-011 7.071068e-011
7213200000 0.078958288 0.071628645 0.011295838 0.017184349 7.071068e-011 7.071068e-011 7.071068e-011 7.071068e-011
7221600000 0.071899109 -0.0026370422 -0.020117212 0.0050716461 7.071068e-011 7.071068e-011 7.071068e-011 7.071068e-011
7230000000 -0.00080746925 0.028602302 0.001949877 -0.020504855 7.071068e-011 7.071068e-011 7.071068e-011 7.071068e-011
7238400000 0.064821787 0.078685343 0.018642787 0.0091635669 7.071068e-011 7.071068e-011 7.071068e-011 7.071068e-011
7246800000 0.081136204 -0.0093555218 -0.014832323 0.014619942 7.071068e-011 7.071068e-011 7.071068e-011 7.071068e-011
7255200000 -0.012872744 -8.7684557e-006 -0.008406545 -0.018780671 7.071068e-011 7.071068e-011 7.071068e-011 7.071068e-011
7263600000 0.026767662 0.083995275 0.020766329 -0.0016183659 7.071068e-011 7.071068e-011 7.071068e-011 7.071068e-011
7272000000 0.078702413 0.0081671122 -0.0052779783 0.019956551 7.071068e-011 7.071068e-011 7.071068e-011 7.071068e-011
7280400000 -0.023473784 -0.0063892161 -0.016827574 -0.011881905 7.071068e-011 7.071068e-011 7.071068e-011 7.071068e-011
7288800000 -0.0090292115 0.10317519 0.017254686 -0.011457523 7.071068e-011 7.071068e-011 7.071068e-011 7.071068e-011
7297200000 0.08489988 0.059899617 0.0048864097 0.020200521 7.071068e-011 7.071068e-011 7.071068e-011 7.071068e-011
7305600000 0.0087738512 0.0044678468 -0.020459481 -0.0025445097 7.071068e-011 7.071068e-011 7.071068e-011 7.071068e-011
7314000000 -0.0039950586 0.10609965 0.0094681326 -0.018775169 7.071068e-011 7.071068e-011 7.071068e-011 7.071068e-011
7322400000 0.10857209 0.085735209 0.014232472 0.015034721 7.071068e-011 7.071068e-011 7.071068e-011 7.071068e-011
7330800000 0.060563486 -0.0116649 -0.019410186 0.0076911356 7.071068e-011 7.071068e-011 7.071068e-011 7.071068e-011
7339200000 0.0039583989 0.060573328 -0.0006578468 -0.021240523 7.071068e-011 7.071068e-011 7.071068e-011 7.071068e-011
7347600000 0.099090561 0.072292648 0.020004485 0.0064966851 7.071068e-011 7.071068e-011 7.071068e-011 7.071068e-011
7356000000 0.076164544 -0.033633713 -0.013129517 0.01620575 7.071068e-011 7.071068e-011 7.071068e-011 7.071068e-011
7364400000 -0.010166502 0.012328424 -0.010816839 -0.018188093 7.071068e-011 7.071068e-011 7.071068e-011 7.071068e-011
7372800000 0.054580633 0.054723527 0.020576255 -0.003926442 7.071068e-011 7.071068e-011 7.071068e-011 7.071068e-011
7381200000 0.052990362 -0.030770136 -0.0039775306 0.020755824 7.071068e-011 7.071068e-011 7.071068e-011 7.071068e-011
7389600000 -0.040755235 0.00042716617 -0.018230245 -0.010903565 7.071068e-011 7.071068e-011 7.071068e-011 7.071068e-011
7398000000 0.0052842996 0.071994253 0.016559729 -0.012993364 7.071068e-011 7.071068e-011 7.071068e-011 7.071068e-011
7406400000 0.033131856 0.015031797 0.0063536628 0.020206362 7.071068e-011 7.071068e-011 7.071068e-011 7.071068e-011
7414800000 -0.038004439 0.027106158 -0.021328064 -0.001048542 7.071068e-011 7.071068e-011 7.071068e-011 7.071068e-011
7423200000 -0.0018100044 0.10363684 0.0083663492 -0.01956393 7.071068e-011 7.071068e-011 7.071068e-011 7.071068e-011
7431600000 0.055605359 0.060661115 0.015248308 0.014928865 7.071068e-011 7.071068e-011 7.071068e-011 7.071068e-011
7440000000 0.013352545 0.038400199 -0.019337891 0.0092376806 7.071068e-011 7.071068e-011 7.071068e-011 7.071068e-011
7448400000 0.02408592 0.085500814 -0.0017259918 -0.021119734 7.071068e-011 7.071068e-011 7.071068e-011 7.071068e-011
7456800000 0.077355333 0.055474952 0.020395065 0.0059583527 7.071068e-011 7.071068e-011 7.071068e-011 7.071068e-011
7465200000 0.046255339 0.013911705 -0.012762061 0.017059637 7.071068e-011 7.071068e-011 7.071068e-011 7.071068e-011
7473600000 0.028460264 0.036862925 -0.011404497 -0.017791556 7.071068e-011 7.071068e-011 7.071068e-011 7.071068e-011
7482000000 0.058345605 0.033343013 0.020647341 -0.0040635876 7.071068e-011 7.071068e-011 7.071068e-011 7.071068e-011
7490400000 0.043658536 -0.010873511 -0.0035412558 0.020810407 7.071068e-011 7.071068e-011 7.071068e-011 7.071068e-011
7498800000 -0.00076128566 -0.0015221846 -0.018031828 -0.010639329 7.071068e-011 7.071068e-011 7.071068e-011 7.071068e-011
7507200000 0.0004725788 0.030866964 0.016369054 -0.013035424 7.071068e-011 7.071068e-011 7.071068e-011 7.071068e-011
7515600000 0.020603834 0.015484577 0.006305675 0.019836685 7.071068e-011 7.071068e-011 7.071068e-011 7.071068e-011
7524000000 -0.020912416 0.0030689307 -0.020649897 -0.0012928436 7.071068e-011 7.071068e-011 7.071068e-011 7.071068e-011
7532400000 -0.034258522 0.060006965 0.0087446142 -0.018692961 7.071068e-011 7.071068e-011 7.071068e-011 7.071068e-011
7540800000 0.02275021 0.073341683 0.014373278 0.014732685 7.071068e-011 7.071068e-011 7.071068e-011 7.071068e-011
7549200000 0.019568063 0.022307418 -0.01856995 0.0077613727 7.071068e-011 7.071068e-011 7.071068e-011 7.071068e-011
7557600000 -0.018431205 0.060969006 -0.00034738716 -0.020235557 7.071068e-011 7.071068e-011 7.071068e-011 7.071068e-011
7566000000 0.047787286 0.083583213 0.018823382 0.0069673066 7.071068e-011 7.071068e-011 7.071068e-011 7.071068e-011
7574400000 0.060989473 0.0079462966 -0.013527024 0.014825501 7.071068e-011 7.071068e-011 7.071068e-011 7.071068e-011
7582800000 -0.0098431287 0.015226584 -0.0088493424 -0.018019266 7.071068e-011 7.071068e-011 7.071068e-011 7.071068e-011
7591200000 0.036493015 0.064411573 0.019742876 -0.0017606171 7.071068e-011 7.071068e-011 7.071068e-011 7.071068e-011
7599600000 0.059320614 -0.014977528 -0.0057372716 0.018647622 7.071068e-011 7.071068e-011 7.071068e-011 7.071068e-011
7608000000 -0.030972291 -0.020681199 -0.015435657 -0.012655755 7.071068e-011 7.071068e-011 7.071068e-011 7.071068e-011
7616400000 -0.015050729 0.056764945 0.017210022 -0.0099803749 7.071068e-011 7.071068e-011 7.071068e-011 7.071068e-011
7624800000 0.031524479 0.0051253513 0.0026661884 0.019550188 7.071068e-011 7.071068e-011 7.071068e-011 7.071068e-011
7633200000 -0.052589707 -0.0062519596 -0.019103182 -0.0046921247 7.071068e-011 7.071068e-011 7.071068e-011 7.071068e-011
7641600000 -0.038401533 0.086732298 0.011428508 -0.015841408 7.071068e-011 7.071068e-011 7.071068e-011 7.071068e-011
7650000000 0.037700832 0.053280652 0.010439672 0.016611774 7.071068e-011 7.071068e-011 7.071068e-011 7.071068e-011
7658400000 -0.020755067 0.011623334 -0.019527767 0.0037191059 7.071068e-011 7.071068e-011 7.071068e-011 7.071068e-011
7666800000 -0.022941362 0.095735624 0.0034886457 -0.019248761 7.071068e-011 7.071068e-011 7.071068e-011 7.071068e-011
7675200000 0.069607206 0.071795359 0.01613115 0.010774415 7.071068e-011 7.071068e-011 7.071068e-011 7.071068e-011
7683600000 0.032038815 -0.0041319071 -0.016274467 0.011223271 7.071068e-011 7.071068e-011 7.071068e-011 7.071068e-011
7692000000 -0.0052883257 0.04686648 -0.0045253849 -0.019139787 7.071068e-011 7.071068e-011 7.071068e-011 7.071068e-011
7700400000 0.065679826 0.043840561 0.019432945 0.0028570727 7.071068e-011 7.071068e-011 7.071068e-011 7.071068e-011
7708800000 0.035739325 -0.039684664 -0.010020204 0.016911861 7.071068e-011 7.071068e-011 7.071068e-011 7.071068e-011
7717200000 -0.033650156 0.00060130801 -0.01199272 -0.015646653 7.071068e-011 7.071068e-011 7.071068e-011 7.071068e-011
7725600000 0.016737798 0.033854786 0.018993998 -0.0050731371 7.071068e-011 7.071068e-011 7.071068e-011 7.071068e-011
7734000000 0.014165807 -0.035566613 -0.0021799209 0.019736879 7.071068e-011 7.071068e-011 7.071068e-011 7.071068e-011
7742400000 -0.070724927 -0.012391378 -0.01726824 -0.0091916239 7.071068e-011 7.071068e-011 7.071068e-011 7.071068e-011
7750800000 -0.040660512 0.062461164 0.015225087 -0.012520887 7.071068e-011 7.071068e-011 7.071068e-011 7.071068e-011
7759200000 0.0015597537 0.025329784 0.0059961569 0.018887606 7.071068e-011 7.071068e-011 7.071068e-011 7.071068e-011
7767600000 -0.053289302 0.019468008 -0.019756941 -0.0015118009 7.071068e-011 7.071068e-011 7.071068e-011 7.071068e-011
7776000000 -0.03784287 0.090871081 0.008773867 -0.017598055 7.071068e-011 7.071068e-011 7.071068e-011 7.071068e-011
7784400000 0.031434786 0.068149149 0.013074801 0.014781783 7.071068e-011 7.071068e-011 7.071068e-011 7.071068e-011
7792800000 0.0013680521 0.024746751 -0.018466864 0.0064998055 7.071068e-011 7.071068e-011 7.071068e-011 7.071068e-011
7801200000 -0.0077028237 0.070149891 0.001129323 -0.019841781 7.071068e-011 7.071068e-011 7.071068e-011 7.071068e-011
7809600000 0.053092215 0.058536317 0.018017072 0.0082403198 7.071068e-011 7.071068e-011 7.071068e-011 7.071068e-011
7818000000 0.035396412 -0.0043326938 -0.01442682 0.013296087 7.071068e-011 7.071068e-011 7.071068e-011 7.071068e-011
7826400000 -0.0055635041 0.020779835 -0.0069579314 -0.018446486 7.071068e-011 7.071068e-011 7.071068e-011 7.071068e-011
7834800000 0.032500882 0.031602196 0.019709678 0.00047775073 7.071068e-011 7.071068e-011 7.071068e-011 7.071068e-011
7843200000 0.025323223 -0.019634916 -0.0078805992 0.018134223 7.071068e-011 7.071068e-011 7.071068e-011 7.071068e-011
7851600000 -0.026770966 -0.0047021885 -0.013825666 -0.014210527 7.071068e-011 7.071068e-011 7.071068e-011 7.071068e-011
7860000000 -0.0042172768 0.030775854 0.018274721 -0.0075356644 7.071068e-011 7.071068e-011 7.071068e-011 7.071068e-011
7868400000 0.010408532 -0.0034494586 -8.9347144e-005 0.019712314 7.071068e-011 7.071068e-011 7.071068e-011 7.071068e-011
7876800000 -0.03617803 -0.0038737645 -0.018449562 -0.0075022741 7.071068e-011 7.071068e-011 7.071068e-011 7.071068e-011
7885200000 -0.030608483 0.0434466 0.01368053 -0.014303938 7.071068e-011 7.071068e-011 7.071068e-011 7.071068e-011
7893600000 0.0088298125 0.036211781 0.0079481546 0.017858284 7.071068e-011 7.071068e-011 7.071068e-011 7.071068e-011
7902000000 -0.0082309674 0.0093181357 -0.019634508 0.00035647047 7.071068e-011 7.071068e-011 7.071068e-011 7.071068e-011
7910400000 -0.02139885 0.038982801 0.0069603566 -0.018477796 7.071068e-011 7.071068e-011 7.071068e-011 7.071068e-011
7918800000 0.017035505 0.049026489 0.01431151 0.013222745 7.071068e-011 7.071068e-011 7.071068e-011 7.071068e-011
7927200000 0.028632775 0.0074263834 -0.017662892 0.0081436932 7.071068e-011 7.071068e-011 7.071068e-011 7.071068e-011
7935600000 -0.0079863016 0.0057390458 -0.00080734538 -0.019311542 7.071068e-011 7.071068e-011 7.071068e-011 7.071068e-011
7944000000 0.010884509 0.033196535 0.01812849 0.0067189056 7.071068e-011 7.071068e-011 7.071068e-011 7.071068e-011
7952400000 0.037544586 -0.0055492776 -0.013131351 0.014183327 7.071068e-011 7.071068e-011 7.071068e-011 7.071068e-011
7960800000 -0.014980732 -0.033416718 -0.0082315234 -0.017461047 7.071068e-011 7.071068e-011 7.071068e-011 7.071068e-011
7969200000 -0.029263994 0.0207482 0.018990578 -0.00086881209 7.071068e-011 7.071068e-011 7.071068e-011 7.071068e-011
7977600000 0.019982198 0.006925025 -0.0065745763 0.017864902 7.071068e-011 7.071068e-011 7.071068e-011 7.071068e-011
7986000000 -0.024095504 -0.039759863 -0.01404038 -0.01285038 7.071068e-011 7.071068e-011 7.071068e-011 7.071068e-011
7994400000 -0.065419212 0.024686359 0.017134458 -0.0080872485 7.071068e-011 7.071068e-011 7.071068e-011 7.071068e-011
