!Keysight Technologies,N5235B,MY61252044,A.15.00.15
!Date: Friday, January 20, 2023 21:12:21
!Correction: S11(Off) 
!S21(Off) 
!S12(Off) 
!S22(Off) 
!S2P File: Measurements: S11, S21, S12, S22:
# Hz S  RI   R 50
6600000000 0.016788196 -0.17521398 0.015180082 -0.0042847362 7.071068e-011 7.071068e-011 7.071068e-011 7.071068e-011
6608408408.4084 -0.12296502 0.16733833 0.0061673424 0.010369429 7.071068e-011 7.071068e-011 7.071068e-011 7.071068e-011
6616816816.8168 0.306871 0.090606153 -0.0085807396 0.0044002887 7.071068e-011 7.071068e-011 7.071068e-011 7.071068e-011
6625225225.2252 0.022339337 -0.27281567 -0.0025292886 -0.0091273589 7.071068e-011 7.071068e-011 7.071068e-011 7.071068e-011
6633633633.6336 -0.16455713 0.16322246 0.0092670489 -0.0011421009 7.071068e-011 7.071068e-011 7.071068e-011 7.071068e-011
6642042042.042 0.2912752 0.11161333 -0.0010774998 0.00943013 7.071068e-011 7.071068e-011 7.071068e-011 7.071068e-011
6650450450.4505 0.036867779 -0.25259742 -0.011019353 -0.0031909146 7.071068e-011 7.071068e-011 7.071068e-011 7.071068e-011
6658858858.8589 -0.147434 0.1364433 0.0049987496 -0.011935079 7.071068e-011 7.071068e-011 7.071068e-011 7.071068e-011
6667267267.2673 0.22962825 0.099882424 0.012887681 0.0081042154 7.071068e-011 7.071068e-011 7.071068e-011 7.071068e-011
6675675675.6757 0.041142888 -0.1513716 -0.010369919 0.014700803 7.071068e-011 7.071068e-011 7.071068e-011 7.071068e-011
6684084084.0841 -0.043316219 0.085033529 -0.015652495 -0.01209595 7.071068e-011 7.071068e-011 7.071068e-011 7.071068e-011
6692492492.4925 0.10545261 0.047756966 0.013484313 -0.016069051 7.071068e-011 7.071068e-011 7.071068e-011 7.071068e-011
6700900900.9009 0.086355582 0.017124146 0.015923791 0.014123525 7.071068e-011 7.071068e-011 7.071068e-011 7.071068e-011
6709309309.3093 0.076463491 -0.041078486 -0.014436624 0.014315659 7.071068e-011 7.071068e-011 7.071068e-011 7.071068e-011
6717717717.7177 -0.030861434 0.03476163 -0.011462643 -0.015577052 7.071068e-011 7.071068e-011 7.071068e-011 7.071068e-011
6726126126.1261 0.1557903 0.1157187 0.016137432 -0.0084338542 7.071068e-011 7.071068e-011 7.071068e-011 7.071068e-011
6734534534.5345 0.12770346 -0.1410687 0.0048780465 0.015875665 7.071068e-011 7.071068e-011 7.071068e-011 7.071068e-011
6742942942.9429 -0.10812411 0.027936546 -0.015879188 0.0010563057 7.071068e-011 7.071068e-011 7.071068e-011 7.071068e-011
6751351351.3514 0.17320272 0.15207709 0.0022957514 -0.015606605 7.071068e-011 7.071068e-011 7.071068e-011 7.071068e-011
6759759759.7598 0.14906056 -0.17271937 0.013706088 0.0059089493 7.071068e-011 7.071068e-011 7.071068e-011 7.071068e-011
6768168168.1682 -0.14684698 -0.0035023827 -0.0099124461 0.011265983 7.071068e-011 7.071068e-011 7.071068e-011 7.071068e-011
6776576576.5766 0.13544829 0.17795804 -0.0090822028 -0.012713787 7.071068e-011 7.071068e-011 7.071068e-011 7.071068e-011
6784984984.985 0.15003668 -0.14682306 0.014128475 -0.0052152616 7.071068e-011 7.071068e-011 7.071068e-011 7.071068e-011
6793393393.3934 -0.14773138 -0.005572319 0.0009533643 0.01546077 7.071068e-011 7.071068e-011 7.071068e-011 7.071068e-011
6801801801.8018 0.10290226 0.20285591 -0.015999585 -0.0029573436 7.071068e-011 7.071068e-011 7.071068e-011 7.071068e-011
6810210210.2102 0.17169359 -0.096426465 0.0073899347 -0.015092397 7.071068e-011 7.071068e-011 7.071068e-011 7.071068e-011
6818618618.6186 -0.10605064 -0.0089202477 0.013208356 0.012113513 7.071068e-011 7.071068e-011 7.071068e-011 7.071068e-011
6827027027.027 0.089376599 0.18547635 -0.015084435 0.010511932 7.071068e-011 7.071068e-011 7.071068e-011 7.071068e-011
6835435435.4354 0.18062021 -0.050053839 -0.0059752301 -0.017393185 7.071068e-011 7.071068e-011 7.071068e-011 7.071068e-011
6843843843.8438 -0.045529868 -0.026663853 0.020056872 -0.0014686208 7.071068e-011 7.071068e-011 7.071068e-011 7.071068e-011
6852252252.2523 0.075063072 0.12880845 -0.0028342234 0.020539805 7.071068e-011 7.071068e-011 7.071068e-011 7.071068e-011
6860660660.6607 0.14546201 -0.020393714 -0.019296998 -0.0079789702 7.071068e-011 7.071068e-011 7.071068e-011 7.071068e-011
6869069069.0691 0.0032508469 -0.027043309 0.013077582 -0.017212555 7.071068e-011 7.071068e-011 7.071068e-011 7.071068e-011
6877477477.4775 0.054774761 0.073160924 0.014146722 0.0169043 7.071068e-011 7.071068e-011 7.071068e-011 7.071068e-011
6885885885.8859 0.09041851 0.0063302531 -0.019660465 0.0093959225 7.071068e-011 7.071068e-011 7.071068e-011 7.071068e-011
6894294294.2943 0.046628188 -0.0006661173 -0.0041707358 -0.021684121 7.071068e-011 7.071068e-011 7.071068e-011 7.071068e-011
6902702702.7027 0.038844999 0.019176448 0.022129474 0.0013312927 7.071068e-011 7.071068e-011 7.071068e-011 7.071068e-011
6911111111.1111 0.030382076 0.038201064 -0.0069652665 0.020822078 7.071068e-011 7.071068e-011 7.071068e-011 7.071068e-011
6919519519.5195 0.079059228 0.049283028 -0.017974466 -0.012065678 7.071068e-011 7.071068e-011 7.071068e-011 7.071068e-011
6927927927.9279 0.049686581 -0.012137845 0.016030446 -0.014146382 7.071068e-011 7.071068e-011 7.071068e-011 7.071068e-011
6936336336.3363 -0.0015640453 0.062594898 0.0088862265 0.018712696 7.071068e-011 7.071068e-011 7.071068e-011 7.071068e-011
6944744744.7447 0.11259209 0.088694878 -0.020579599 0.0029207016 7.071068e-011 7.071068e-011 7.071068e-011 7.071068e-011
6953153153.1532 0.083683059 -0.045254733 0.0027511003 -0.02023604 7.071068e-011 7.071068e-011 7.071068e-011 7.071068e-011
6961561561.5616 -0.028201351 0.054539636 0.018091485 0.0084106075 7.071068e-011 7.071068e-011 7.071068e-011 7.071068e-011
6969969969.97 0.1253217 0.10611961 -0.013230409 0.01474108 7.071068e-011 7.071068e-011 7.071068e-011 7.071068e-011
6978378378.3784 0.10105059 -0.071959116 -0.0098496499 -0.016502004 7.071068e-011 7.071068e-011 7.071068e-011 7.071068e-011
6986786786.7868 -0.064355396 0.03437506 0.018362613 -0.003905636 7.071068e-011 7.071068e-011 7.071068e-011 7.071068e-011
6995195195.1952 0.10430427 0.13304521 -0.0018792571 0.019071726 7.071068e-011 7.071068e-011 7.071068e-011 7.071068e-011
7003603603.6036 0.10769928 -0.058326822 -0.01724387 -0.0073889531 7.071068e-011 7.071068e-011 7.071068e-011 7.071068e-011
7012012012.012 -0.072431162 0.03361671 0.012925047 -0.01358576 7.071068e-011 7.071068e-011 7.071068e-011 7.071068e-011
7020420420.4204 0.088657156 0.16094324 0.009227206 0.016518421 7.071068e-011 7.071068e-011 7.071068e-011 7.071068e-011
7028828828.8288 0.13219959 -0.029417785 -0.01823627 0.0034025034 7.071068e-011 7.071068e-011 7.071068e-011 7.071068e-011
7037237237.2372 -0.054553937 0.031264745 0.0027744719 -0.018905962 7.071068e-011 7.071068e-011 7.071068e-011 7.071068e-011
7045645645.6456 0.091030002 0.17138936 0.017194731 0.008299212 7.071068e-011 7.071068e-011 7.071068e-011 7.071068e-011
7054054054.0541 0.1674038 -0.0044734958 -0.013497004 0.013243337 7.071068e-011 7.071068e-011 7.071068e-011 7.071068e-011
7062462462.4625 -0.0092032049 -0.0026500721 -0.0084051313 -0.017706795 7.071068e-011 7.071068e-011 7.071068e-011 7.071068e-011
7070870870.8709 0.079767302 0.14011976 0.019494342 -0.0029175698 7.071068e-011 7.071068e-011 7.071068e-011 7.071068e-011
7079279279.2793 0.16747478 0.0068442957 -0.0038620781 0.019117381 7.071068e-011 7.071068e-011 7.071068e-011 7.071068e-011
7087687687.6877 0.03260408 -0.026595507 -0.017494569 -0.0099485405 7.071068e-011 7.071068e-011 7.071068e-011 7.071068e-011
7096096096.0961 0.059625767 0.089609124 0.014722587 -0.013761091 7.071068e-011 7.071068e-011 7.071068e-011 7.071068e-011
7104504504.5045 0.14816813 0.0099403095 0.008169597 0.018423218 7.071068e-011 7.071068e-011 7.071068e-011 7.071068e-011
7112912912.9129 0.050323579 -0.044777982 -0.020484027 0.001690625 7.071068e-011 7.071068e-011 7.071068e-011 7.071068e-011
7121321321.3213 0.034537274 0.03277747 0.0045104199 -0.020228064 7.071068e-011 7.071068e-011 7.071068e-011 7.071068e-011
7129729729.7297 0.089990444 0.013587336 0.017387437 0.010539693 7.071068e-011 7.071068e-011 7.071068e-011 7.071068e-011
7138138138.1381 0.042370025 -0.037311785 -0.016010964 0.013139594 7.071068e-011 7.071068e-011 7.071068e-011 7.071068e-011
7146546546.5465 0.0003467263 0.013471057 -0.0075909356 -0.019403752 7.071068e-011 7.071068e-011 7.071068e-011 7.071068e-011
7154954954.955 0.03003449 0.041676752 0.020667773 -0.00098896015 7.071068e-011 7.071068e-011 7.071068e-011 7.071068e-011
7163363363.3634 0.045560259 0.01520107 -0.0059246989 0.019589769 7.071068e-011 7.071068e-011 7.071068e-011 7.071068e-011
7171771771.7718 0.00036630285 0.020558584 -0.016801219 -0.012000371 7.071068e-011 7.071068e-011 7.071068e-011 7.071068e-011
7180180180.1802 0.019073011 0.072783351 0.016575251 -0.011854462 7.071068e-011 7.071068e-011 7.071068e-011 7.071068e-011
7188588588.5886 0.067728385 0.055491518 0.0056466665 0.019952113 7.071068e-011 7.071068e-011 7.071068e-011 7.071068e-011
7196996996.997 0.039318003 0.010615274 -0.02067489 -0.00090205413 7.071068e-011 7.071068e-011 7.071068e-011 7.071068e-011
7205405405.4054 0.012986608 0.066890217 0.0078897132 -0.018705465 7.071068e-011 7.071068e-011 7.071068e-011 7.071068e-011
7213813813.8138 0.08278662 0.067573622 0.015086892 0.013821373 7.071068e-011 7.071068e-011 7.071068e-011 7.071068e-011
7222222222.2222 0.066630669 -0.0061831349 -0.018074904 0.0098307142 7.071068e-011 7.071068e-011 7.071068e-011 7.071068e-011
7230630630.6306 -0.0020660092 0.036000181 -0.0032367571 -0.020169893 7.071068e-011 7.071068e-011 7.071068e-011 7.071068e-011
7239039039.039 0.072690092 0.075302862 0.020273358 0.0040467023 7.071068e-011 7.071068e-011 7.071068e-011 7.071068e-011
7247447447.4474 0.074313782 -0.015267302 -0.010423782 0.01788461 7.071068e-011 7.071068e-011 7.071068e-011 7.071068e-011
7255855855.8559 -0.016397323 0.0082555227 -0.012998544 -0.015849881 7.071068e-011 7.071068e-011 7.071068e-011 7.071068e-011
7264264264.2643 0.035263456 0.0834608 0.019485652 -0.0070897355 7.071068e-011 7.071068e-011 7.071068e-011 7.071068e-011
7272672672.6727 0.074012831 0.00084167405 0.00031722401 0.020507112 7.071068e-011 7.071068e-011 7.071068e-011 7.071068e-011
7281081081.0811 -0.029929722 0.0005507248 -0.019311422 -0.0066962973 7.071068e-011 7.071068e-011 7.071068e-011 7.071068e-011
7289489489.4895 2.2055707e-005 0.10831758 0.013251411 -0.015807195 7.071068e-011 7.071068e-011 7.071068e-011 7.071068e-011
7297897897.8979 0.085529834 0.049741309 0.010418947 0.017870527 7.071068e-011 7.071068e-011 7.071068e-011 7.071068e-011
7306306306.3063 -9.4861287e-005 0.0091138911 -0.020236345 0.0034085237 7.071068e-011 7.071068e-011 7.071068e-011 7.071068e-011
7314714714.7147 0.0051839808 0.11347029 0.0035499211 -0.020570096 7.071068e-011 7.071068e-011 7.071068e-011 7.071068e-011
7323123123.1231 0.11229984 0.074346259 0.017886797 0.01013028 7.071068e-011 7.071068e-011 7.071068e-011 7.071068e-011
7331531531.5315 0.051079527 -0.011074977 -0.016154986 0.01314512 7.071068e-011 7.071068e-011 7.071068e-011 7.071068e-011
7339939939.9399 0.0079579633 0.06847395 -0.0071165245 -0.019920621 7.071068e-011 7.071068e-011 7.071068e-011 7.071068e-011
7348348348.3483 0.10582922 0.063977621 0.020942852 2.5668858e-005 7.071068e-011 7.071068e-011 7.071068e-011 7.071068e-011
7356756756.7568 0.065910645 -0.037631962 -0.0074138008 0.019466098 7.071068e-011 7.071068e-011 7.071068e-011 7.071068e-011
7365165165.1652 -0.010662946 0.021764014 -0.015981752 -0.01371368 7.071068e-011 7.071068e-011 7.071068e-011 7.071068e-011
7373573573.5736 0.062627651 0.049465872 0.018047126 -0.010198966 7.071068e-011 7.071068e-011 7.071068e-011 7.071068e-011
7381981981.982 0.042842556 -0.035845425 0.0029413216 0.020810315 7.071068e-011 7.071068e-011 7.071068e-011 7.071068e-011
7390390390.3904 -0.042509135 0.010505897 -0.020687735 -0.0042893728 7.071068e-011 7.071068e-011 7.071068e-011 7.071068e-011
7398798798.7988 0.012858544 0.070508093 0.011296231 -0.017706901 7.071068e-011 7.071068e-011 7.071068e-011 7.071068e-011
7407207207.2072 0.027992746 0.01015546 0.01271843 0.016843727 7.071068e-011 7.071068e-011 7.071068e-011 7.071068e-011
7415615615.6156 -0.041146148 0.034986012 -0.020308649 0.0062418892 7.071068e-011 7.071068e-011 7.071068e-011 7.071068e-011
7424024024.024 0.0069175558 0.10570283 0.0011173157 -0.021146121 7.071068e-011 7.071068e-011 7.071068e-011 7.071068e-011
7432432432.4324 0.055080626 0.053380817 0.019470204 0.0086229704 7.071068e-011 7.071068e-011 7.071068e-011 7.071068e-011
7440840840.8408 0.0088796858 0.042768676 -0.014712662 0.01540691 7.071068e-011 7.071068e-011 7.071068e-011 7.071068e-011
7449249249.2492 0.031252958 0.087375499 -0.0090677096 -0.019004429 7.071068e-011 7.071068e-011 7.071068e-011 7.071068e-011
7457657657.6577 0.07720945 0.048427261 0.021064907 -0.0017718007 7.071068e-011 7.071068e-011 7.071068e-011 7.071068e-011
7466066066.0661 0.042139832 0.014708158 -0.0056299339 0.020419063 7.071068e-011 7.071068e-011 7.071068e-011 7.071068e-011
7474474474.4745 0.030156065 0.038885441 -0.017039634 -0.0122607 7.071068e-011 7.071068e-011 7.071068e-011 7.071068e-011
7482882882.8829 0.06022685 0.029632647 0.017583527 -0.011399612 7.071068e-011 7.071068e-011 7.071068e-011 7.071068e-011
7491291291.2913 0.038823098 -0.014048661 0.0045324145 0.020521298 7.071068e-011 7.071068e-011 7.071068e-011 7.071068e-011
7499699699.6997 -0.0037263506 0.0029547082 -0.02063664 -0.0030008624 7.071068e-011 7.071068e-011 7.071068e-011 7.071068e-011
7508108108.1081 0.0041316091 0.031798303 0.010049934 -0.018240349 7.071068e-011 7.071068e-011 7.071068e-011 7.071068e-011
7516516516.5165 0.018619465 0.011607248 0.013454817 0.015738217 7.071068e-011 7.071068e-011 7.071068e-011 7.071068e-011
7524924924.9249 -0.025823763 0.0070794593 -0.019376503 0.0068708658 7.071068e-011 7.071068e-011 7.071068e-011 7.071068e-011
7533333333.3333 -0.030322826 0.065637581 0.0006223449 -0.020533571 7.071068e-011 7.071068e-011 7.071068e-011 7.071068e-011
7541741741.7417 0.028489418 0.069294237 0.018929733 0.0077114203 7.071068e-011 7.071068e-011 7.071068e-011 7.071068e-011
7550150150.1502 0.012374814 0.019916048 -0.013864384 0.014473218 7.071068e-011 7.071068e-011 7.071068e-011 7.071068e-011
7558558558.5586 -0.015259416 0.069375195 -0.0085070925 -0.01823917 7.071068e-011 7.071068e-011 7.071068e-011 7.071068e-011
7566966966.967 0.056132752 0.077473924 0.01986796 -0.0013502681 7.071068e-011 7.071068e-011 7.071068e-011 7.071068e-011
7575375375.3754 0.0527022 0.0010235786 -0.0061522531 0.019014895 7.071068e-011 7.071068e-011 7.071068e-011 7.071068e-011
7583783783.7838 -0.011262664 0.024422387 -0.01555515 -0.012627508 7.071068e-011 7.071068e-011 7.071068e-011 7.071068e-011
7592192192.1922 0.04521944 0.060285088 0.017092653 -0.0098837754 7.071068e-011 7.071068e-011 7.071068e-011 7.071068e-011
7600600600.6006 0.052056726 -0.024212347 0.0026698688 0.01924412 7.071068e-011 7.071068e-011 7.071068e-011 7.071068e-011
7609009009.009 -0.038419109 -0.011026376 -0.01930275 -0.0047087427 7.071068e-011 7.071068e-011 7.071068e-011 7.071068e-011
7617417417.4174 -0.004662504 0.058847379 0.011068405 -0.016326597 7.071068e-011 7.071068e-011 7.071068e-011 7.071068e-011
7625825825.8258 0.026462864 -0.0052018813 0.01091368 0.01634215 7.071068e-011 7.071068e-011 7.071068e-011 7.071068e-011
7634234234.2342 -0.061359838 0.0049608499 -0.019131534 0.004189766 7.071068e-011 7.071068e-011 7.071068e-011 7.071068e-011
7642642642.6426 -0.025579985 0.091332704 0.0032134659 -0.019203829 7.071068e-011 7.071068e-011 7.071068e-011 7.071068e-011
7651051051.0511 0.036802795 0.042318169 0.016703593 0.010149183 7.071068e-011 7.071068e-011 7.071068e-011 7.071068e-011
7659459459.4595 -0.029636638 0.01836277 -0.015630903 0.012135316 7.071068e-011 7.071068e-011 7.071068e-011 7.071068e-011
7667867867.8679 -0.011666009 0.10244025 -0.0056427899 -0.018577717 7.071068e-011 7.071068e-011 7.071068e-011 7.071068e-011
7676276276.2763 0.074079491 0.059064016 0.019283377 0.0021381087 7.071068e-011 7.071068e-011 7.071068e-011 7.071068e-011
7684684684.6847 0.021134701 -0.0044204085 -0.0091079148 0.017464031 7.071068e-011 7.071068e-011 7.071068e-011 7.071068e-011
7693093093.0931 0.00045518149 0.055324789 -0.012841939 -0.01472936 7.071068e-011 7.071068e-011 7.071068e-011 7.071068e-011
7701501501.5015 0.071939148 0.031760581 0.018371033 -0.0065441891 7.071068e-011 7.071068e-011 7.071068e-011 7.071068e-011
7709909909.9099 0.022193154 -0.042137768 -0.00078638591 0.019582706 7.071068e-011 7.071068e-011 7.071068e-011 7.071068e-011
7718318318.3183 -0.032184079 0.011057813 -0.017948067 -0.0079225302 7.071068e-011 7.071068e-011 7.071068e-011 7.071068e-011
7726726726.7267 0.023949292 0.027664261 0.014190918 -0.013590479 7.071068e-011 7.071068e-011 7.071068e-011 7.071068e-011
7735135135.1351 0.0031728749 -0.041361231 0.0076733166 0.018221974 7.071068e-011 7.071068e-011 7.071068e-011 7.071068e-011
7743543543.5435 -0.075437121 -0.00016023721 -0.01948943 0.00040942224 7.071068e-011 7.071068e-011 7.071068e-011 7.071068e-011
7751951951.952 -0.030084677 0.064642899 0.0069518932 -0.018343441 7.071068e-011 7.071068e-011 7.071068e-011 7.071068e-011
7760360360.3604 -0.0024398423 0.016765036 0.0145239 0.013258557 7.071068e-011 7.071068e-011 7.071068e-011 7.071068e-011
7768768768.7688 -0.059247606 0.028920289 -0.01773276 0.0085633816 7.071068e-011 7.071068e-011 7.071068e-011 7.071068e-011
7777177177.1772 -0.026161611 0.095480621 -0.0012651745 -0.019567892 7.071068e-011 7.071068e-011 7.071068e-011 7.071068e-011
7785585585.5856 0.032934066 0.057706732 0.01870049 0.0060385535 7.071068e-011 7.071068e-011 7.071068e-011 7.071068e-011
7793993993.994 -0.0049694446 0.028120866 -0.012492641 0.014881803 7.071068e-011 7.071068e-011 7.071068e-011 7.071068e-011
7802402402.4024 -0.00099719258 0.074776702 -0.0092786793 -0.017485689 7.071068e-011 7.071068e-011 7.071068e-011 7.071068e-011
7810810810.8108 0.058562491 0.049155753 0.01953537 -0.0023555395 7.071068e-011 7.071068e-011 7.071068e-011 7.071068e-011
7819219219.2192 0.025679322 -0.0068239211 -0.0053052176 0.018852031 7.071068e-011 7.071068e-011 7.071068e-011 7.071068e-011
7827627627.6276 -0.00382633 0.027522236 -0.015565205 -0.011932124 7.071068e-011 7.071068e-011 7.071068e-011 7.071068e-011
7836036036.036 0.038199693 0.025404574 0.016835542 -0.0099857394 7.071068e-011 7.071068e-011 7.071068e-011 7.071068e-011
7844444444.4444 0.015644128 -0.023775529 0.002987348 0.019384097 7.071068e-011 7.071068e-011 7.071068e-011 7.071068e-011
7852852852.8529 -0.02755912 0.003330044 -0.019180315 -0.0045061652 7.071068e-011 7.071068e-011 7.071068e-011 7.071068e-011
7861261261.2613 0.0012686108 0.029148871 0.011205612 -0.016112968 7.071068e-011 7.071068e-011 7.071068e-011 7.071068e-011
7869669669.6697 0.0058638696 -0.0089665623 0.010606084 0.016510868 7.071068e-011 7.071068e-011 7.071068e-011 7.071068e-011
7878078078.0781 -0.040782336 0.0029692776 -0.019417724 0.0038578103 7.071068e-011 7.071068e-011 7.071068e-011 7.071068e-011
7886486486.4865 -0.024204791 0.04757008 0.003484406 -0.01934447 7.071068e-011 7.071068e-011 7.071068e-011 7.071068e-011
7894894894.8949 0.011226244 0.029633701 0.016421871 0.010353673 7.071068e-011 7.071068e-011 7.071068e-011 7.071068e-011
7903303303.3033 -0.014224377 0.011482407 -0.015954621 0.011261272 7.071068e-011 7.071068e-011 7.071068e-011 7.071068e-011
7911711711.7117 -0.017138187 0.04397691 -0.0046472945 -0.018981434 7.071068e-011 7.071068e-011 7.071068e-011 7.071068e-011
7920120120.1201 0.022555673 0.044765882 0.019137571 0.0028489749 7.071068e-011 7.071068e-011 7.071068e-011 7.071068e-011
7928528528.5285 0.023978667 0.0021831577 -0.0098076351 0.01665201 7.071068e-011 7.071068e-011 7.071068e-011 7.071068e-011
7936936936.9369 -0.010428321 0.010921571 -0.01162521 -0.015222618 7.071068e-011 7.071068e-011 7.071068e-011 7.071068e-011
7945345345.3453 0.018237719 0.032660574 0.018512007 -0.0049107368 7.071068e-011 7.071068e-011 7.071068e-011 7.071068e-011
