!Keysight Technologies,N5235B,MY61252044,A.15.00.15
!Date: Friday, January 20, 2023 21:43:24
!Correction: S11(Off) 
!S21(Off) 
!S12(Off) 
!S22(Off) 
!S2P File: Measurements: S11, S21, S12, S22:
# Hz S  RI   R 50
6600000000 0.017407984 -0.17481346 0.01548803 -0.0030526135 7.071068e-011 7.071068e-011 7.071068e-011 7.071068e-011
6608408408.4084 -0.12358521 0.16674165 0.0053360565 0.010846418 7.071068e-011 7.071068e-011 7.071068e-011 7.071068e-011
6616816816.8168 0.30673772 0.091228545 -0.0089189047 0.0037093675 7.071068e-011 7.071068e-011 7.071068e-011 7.071068e-011
6625225225.2252 0.022884484 -0.27295789 -0.0017959186 -0.0093183918 7.071068e-011 7.071068e-011 7.071068e-011 7.071068e-011
6633633633.6336 -0.16481374 0.16295743 0.0093384683 -0.00040344245 7.071068e-011 7.071068e-011 7.071068e-011 7.071068e-011
6642042042.042 0.29085571 0.11178941 -0.0018368808 0.0093288766 7.071068e-011 7.071068e-011 7.071068e-011 7.071068e-011
6650450450.4505 0.037561901 -0.25225368 -0.010727528 -0.0040824073 7.071068e-011 7.071068e-011 7.071068e-011 7.071068e-011
6658858858.8589 -0.14777093 0.13573498 0.0059570028 -0.011502598 7.071068e-011 7.071068e-011 7.071068e-011 7.071068e-011
6667267267.2673 0.22933748 0.10030229 0.012216099 0.0091592306 7.071068e-011 7.071068e-011 7.071068e-011 7.071068e-011
6675675675.6757 0.041853279 -0.15127446 -0.011522293 0.013840995 7.071068e-011 7.071068e-011 7.071068e-011 7.071068e-011
6684084084.0841 -0.04414928 0.084905215 -0.014621331 -0.013343185 7.071068e-011 7.071068e-011 7.071068e-011 7.071068e-011
6692492492.4925 0.10620281 0.047241896 0.014809808 -0.014949534 7.071068e-011 7.071068e-011 7.071068e-011 7.071068e-011
6700900900.9009 0.085828505 0.018026901 0.014800227 0.015405843 7.071068e-011 7.071068e-011 7.071068e-011 7.071068e-011
6709309309.3093 0.076804221 -0.041785661 -0.015545486 0.013154088 7.071068e-011 7.071068e-011 7.071068e-011 7.071068e-011
6717717717.7177 -0.03096303 0.034941752 -0.010187988 -0.016483063 7.071068e-011 7.071068e-011 7.071068e-011 7.071068e-011
6726126126.1261 0.15566763 0.11579852 0.016808029 -0.0071287327 7.071068e-011 7.071068e-011 7.071068e-011 7.071068e-011
6734534534.5345 0.12777326 -0.14101288 0.0036010414 0.016238315 7.071068e-011 7.071068e-011 7.071068e-011 7.071068e-011
6742942942.9429 -0.10777127 0.027697856 -0.015925754 -0.00023263005 7.071068e-011 7.071068e-011 7.071068e-011 7.071068e-011
6751351351.3514 0.17246205 0.15205181 0.0035792068 -0.015386509 7.071068e-011 7.071068e-011 7.071068e-011 7.071068e-011
6759759759.7598 0.14975505 -0.17218029 0.013207809 0.0070417267 7.071068e-011 7.071068e-011 7.071068e-011 7.071068e-011
6768168168.1682 -0.1470155 -0.004321652 -0.010851326 0.01044064 7.071068e-011 7.071068e-011 7.071068e-011 7.071068e-011
6776576576.5766 0.13515779 0.1785126 -0.008035196 -0.013472007 7.071068e-011 7.071068e-011 7.071068e-011 7.071068e-011
6784984984.985 0.15034102 -0.14695571 0.014558027 -0.0040485808 7.071068e-011 7.071068e-011 7.071068e-011 7.071068e-011
6793393393.3934 -0.14766234 -0.0055140052 -0.00031931602 0.015526061 7.071068e-011 7.071068e-011 7.071068e-011 7.071068e-011
6801801801.8018 0.10261155 0.20249113 -0.015741751 -0.0042577824 7.071068e-011 7.071068e-011 7.071068e-011 7.071068e-011
6810210210.2102 0.17178124 -0.095746025 0.0086415699 -0.014457388 7.071068e-011 7.071068e-011 7.071068e-011 7.071068e-011
6818618618.6186 -0.10567973 -0.0094213579 0.012179795 0.013216564 7.071068e-011 7.071068e-011 7.071068e-011 7.071068e-011
6827027027.027 0.088719934 0.1854514 -0.015943998 0.0092561841 7.071068e-011 7.071068e-011 7.071068e-011 7.071068e-011
6835435435.4354 0.18112257 -0.0495 -0.004524373 -0.017899256 7.071068e-011 7.071068e-011 7.071068e-011 7.071068e-011
6843843843.8438 -0.045836419 -0.027399743 0.020181891 0.00020008384 7.071068e-011 7.071068e-011 7.071068e-011 7.071068e-011
6852252252.2523 0.075380363 0.12933311 -0.0045327628 0.020321943 7.071068e-011 7.071068e-011 7.071068e-011 7.071068e-011
6860660660.6607 0.14494608 -0.02077613 -0.018644512 -0.0095768254 7.071068e-011 7.071068e-011 7.071068e-011 7.071068e-011
6869069069.0691 0.0038288243 -0.026703674 0.014489011 -0.016133098 7.071068e-011 7.071068e-011 7.071068e-011 7.071068e-011
6877477477.4775 0.05435659 0.072690144 0.012739505 0.018076284 7.071068e-011 7.071068e-011 7.071068e-011 7.071068e-011
6885885885.8859 0.090364665 0.0066679148 -0.020439092 0.007761939 7.071068e-011 7.071068e-011 7.071068e-011 7.071068e-011
6894294294.2943 0.047093019 -0.00097824191 -0.0023596934 -0.022026768 7.071068e-011 7.071068e-011 7.071068e-011 7.071068e-011
6902702702.7027 0.038217608 0.019502241 0.022011945 0.0031898355 7.071068e-011 7.071068e-011 7.071068e-011 7.071068e-011
6911111111.1111 0.031119553 0.037730988 -0.0087473206 0.020247748 7.071068e-011 7.071068e-011 7.071068e-011 7.071068e-011
6919519519.5195 0.078342043 0.049734395 -0.016986728 -0.013590068 7.071068e-011 7.071068e-011 7.071068e-011 7.071068e-011
6927927927.9279 0.050449442 -0.012375487 0.017232882 -0.012824758 7.071068e-011 7.071068e-011 7.071068e-011 7.071068e-011
6936336336.3363 -0.0020185767 0.062557481 0.0073218127 0.019473443 7.071068e-011 7.071068e-011 7.071068e-011 7.071068e-011
6944744744.7447 0.11273753 0.089035928 -0.020845376 0.0011897892 7.071068e-011 7.071068e-011 7.071068e-011 7.071068e-011
6953153153.1532 0.083785482 -0.04567733 0.0044380925 -0.020018959 7.071068e-011 7.071068e-011 7.071068e-011 7.071068e-011
6961561561.5616 -0.028208636 0.055016495 0.017363502 0.0099166408 7.071068e-011 7.071068e-011 7.071068e-011 7.071068e-011
6969969969.97 0.12515885 0.10552616 -0.014489399 0.01359374 7.071068e-011 7.071068e-011 7.071068e-011 7.071068e-011
6978378378.3784 0.10107452 -0.071120828 -0.0084439069 -0.017350987 7.071068e-011 7.071068e-011 7.071068e-011 7.071068e-011
6986786786.7868 -0.064090736 0.033493638 0.018723767 -0.0023375724 7.071068e-011 7.071068e-011 7.071068e-011 7.071068e-011
6995195195.1952 0.10366269 0.13358374 -0.0034902338 0.018950364 7.071068e-011 7.071068e-011 7.071068e-011 7.071068e-011
7003603603.6036 0.10829102 -0.058360416 -0.016640237 -0.0088608889 7.071068e-011 7.071068e-011 7.071068e-011 7.071068e-011
7012012012.012 -0.072812855 0.033299223 0.014087352 -0.01252584 7.071068e-011 7.071068e-011 7.071068e-011 7.071068e-011
7020420420.4204 0.088813983 0.16123547 0.0078536225 0.017310509 7.071068e-011 7.071068e-011 7.071068e-011 7.071068e-011
7028828828.8288 0.13207659 -0.029609784 -0.01852929 0.0018909242 7.071068e-011 7.071068e-011 7.071068e-011 7.071068e-011
7037237237.2372 -0.054254558 0.031486101 0.0043579172 -0.018667398 7.071068e-011 7.071068e-011 7.071068e-011 7.071068e-011
7045645645.6456 0.090829268 0.17084542 0.016484614 0.0097514978 7.071068e-011 7.071068e-011 7.071068e-011 7.071068e-011
7054054054.0541 0.16725454 -0.0037320598 -0.014656815 0.012108016 7.071068e-011 7.071068e-011 7.071068e-011 7.071068e-011
7062462462.4625 -0.008546982 -0.0033748769 -0.0068904534 -0.018459752 7.071068e-011 7.071068e-011 7.071068e-011 7.071068e-011
7070870870.8709 0.078951351 0.14052542 0.019780556 -0.001258245 7.071068e-011 7.071068e-011 7.071068e-011 7.071068e-011
7079279279.2793 0.16821702 0.0067794593 -0.0055050622 0.018818812 7.071068e-011 7.071068e-011 7.071068e-011 7.071068e-011
7087687687.6877 0.03207279 -0.026591778 -0.01667334 -0.011437166 7.071068e-011 7.071068e-011 7.071068e-011 7.071068e-011
7096096096.0961 0.060001001 0.089519583 0.015911901 -0.012535708 7.071068e-011 7.071068e-011 7.071068e-011 7.071068e-011
7104504504.5045 0.14781529 0.009927053 0.0065944698 0.019123184 7.071068e-011 7.071068e-011 7.071068e-011 7.071068e-011
7112912912.9129 0.050462823 -0.044478428 -0.02064671 -6.6607114e-005 7.071068e-011 7.071068e-011 7.071068e-011 7.071068e-011
7121321321.3213 0.034634195 0.032177132 0.0062432066 -0.019867478 7.071068e-011 7.071068e-011 7.071068e-011 7.071068e-011
7129729729.7297 0.089465983 0.014212834 0.016493041 0.012021746 7.071068e-011 7.071068e-011 7.071068e-011 7.071068e-011
7138138138.1381 0.043141663 -0.037858717 -0.017153079 0.011764426 7.071068e-011 7.071068e-011 7.071068e-011 7.071068e-011
7146546546.5465 -0.00049046555 0.01387487 -0.0059127645 -0.020111747 7.071068e-011 7.071068e-011 7.071068e-011 7.071068e-011
7154954954.955 0.030871861 0.041260753 0.020824904 0.00078549306 7.071068e-011 7.071068e-011 7.071068e-011 7.071068e-011
7163363363.3634 0.044835392 0.015549304 -0.0076021063 0.019135443 7.071068e-011 7.071068e-011 7.071068e-011 7.071068e-011
7171771771.7718 0.0010417418 0.020437092 -0.015796496 -0.013438158 7.071068e-011 7.071068e-011 7.071068e-011 7.071068e-011
7180180180.1802 0.018646469 0.072627291 0.017591415 -0.010464972 7.071068e-011 7.071068e-011 7.071068e-011 7.071068e-011
7188588588.5886 0.067819744 0.055928536 0.0039495574 0.020447088 7.071068e-011 7.071068e-011 7.071068e-011 7.071068e-011
7196996996.997 0.039602745 0.01015362 -0.020630002 -0.0026680483 7.071068e-011 7.071068e-011 7.071068e-011 7.071068e-011
7205405405.4054 0.012440174 0.067386933 0.0094931442 -0.018036237 7.071068e-011 7.071068e-011 7.071068e-011 7.071068e-011
7213813813.8138 0.083401807 0.067019142 0.013905793 0.015156045 7.071068e-011 7.071068e-011 7.071068e-011 7.071068e-011
7222222222.2222 0.065922722 -0.0055797063 -0.018981518 0.0082895672 7.071068e-011 7.071068e-011 7.071068e-011 7.071068e-011
7230630630.6306 -0.0012947136 0.035487734 -0.0015052314 -0.020498611 7.071068e-011 7.071068e-011 7.071068e-011 7.071068e-011
7239039039.039 0.071847528 0.075423174 0.019975619 0.0057891356 7.071068e-011 7.071068e-011 7.071068e-011 7.071068e-011
7247447447.4474 0.07499288 -0.015038775 -0.011969719 0.017025542 7.071068e-011 7.071068e-011 7.071068e-011 7.071068e-011
7255855855.8559 -0.016725589 0.0076956335 -0.011665395 -0.016996481 7.071068e-011 7.071068e-011 7.071068e-011 7.071068e-011
7264264264.2643 0.035274558 0.084045641 0.020117471 -0.0054160831 7.071068e-011 7.071068e-011 7.071068e-011 7.071068e-011
7272672672.6727 0.074205458 0.0002825117 -0.0014560433 0.020551885 7.071068e-011 7.071068e-011 7.071068e-011 7.071068e-011
7281081081.0811 -0.030133404 0.0011293864 -0.018764161 -0.0083952015 7.071068e-011 7.071068e-011 7.071068e-011 7.071068e-011
7289489489.4895 0.00037687024 0.1077619 0.014652913 -0.014682358 7.071068e-011 7.071068e-011 7.071068e-011 7.071068e-011
7297897897.8979 0.08495225 0.050246574 0.0088682445 0.01881123 7.071068e-011 7.071068e-011 7.071068e-011 7.071068e-011
7306306306.3063 0.00069248403 0.0090604946 -0.020578912 0.0016430609 7.071068e-011 7.071068e-011 7.071068e-011 7.071068e-011
7314714714.7147 0.0044297026 0.11307789 0.0053392849 -0.020328945 7.071068e-011 7.071068e-011 7.071068e-011 7.071068e-011
7323123123.1231 0.11281738 0.074993186 0.017052639 0.011691413 7.071068e-011 7.071068e-011 7.071068e-011 7.071068e-011
7331531531.5315 0.050805043 -0.01178026 -0.017289532 0.011792683 7.071068e-011 7.071068e-011 7.071068e-011 7.071068e-011
7339939939.9399 0.0081166727 0.069031112 -0.0053879307 -0.020551173 7.071068e-011 7.071068e-011 7.071068e-011 7.071068e-011
7348348348.3483 0.10574604 0.063371636 0.020929772 0.0018634353 7.071068e-011 7.071068e-011 7.071068e-011 7.071068e-011
7356756756.7568 0.065787576 -0.037077755 -0.0091452803 0.018838167 7.071068e-011 7.071068e-011 7.071068e-011 7.071068e-011
7365165165.1652 -0.010163066 0.021263711 -0.014810282 -0.015144251 7.071068e-011 7.071068e-011 7.071068e-011 7.071068e-011
7373573573.5736 0.061869349 0.049644418 0.018993901 -0.0086339749 7.071068e-011 7.071068e-011 7.071068e-011 7.071068e-011
7381981981.982 0.043668617 -0.035585891 0.0011380962 0.021123899 7.071068e-011 7.071068e-011 7.071068e-011 7.071068e-011
7390390390.3904 -0.043157909 0.010009607 -0.020369664 -0.0060957889 7.071068e-011 7.071068e-011 7.071068e-011 7.071068e-011
7398798798.7988 0.013295286 0.071150646 0.012844487 -0.016751697 7.071068e-011 7.071068e-011 7.071068e-011 7.071068e-011
7407207207.2072 0.027744332 0.0095882518 0.011261499 0.017953912 7.071068e-011 7.071068e-011 7.071068e-011 7.071068e-011
7415615615.6156 -0.041096266 0.035615809 -0.020874467 0.0044642864 7.071068e-011 7.071068e-011 7.071068e-011 7.071068e-011
7424024024.024 0.0070399912 0.10503224 0.002995135 -0.021061853 7.071068e-011 7.071068e-011 7.071068e-011 7.071068e-011
7432432432.4324 0.054628588 0.053891987 0.018722391 0.010358663 7.071068e-011 7.071068e-011 7.071068e-011 7.071068e-011
7440840840.8408 0.0096113905 0.042484712 -0.0160989 0.014121415 7.071068e-011 7.071068e-011 7.071068e-011 7.071068e-011
7449249249.2492 0.030427461 0.087225765 -0.0074014799 -0.01984952 7.071068e-011 7.071068e-011 7.071068e-011 7.071068e-011
7457657657.6577 0.077974349 0.048797227 0.021261031 9.8871082e-005 7.071068e-011 7.071068e-011 7.071068e-011 7.071068e-011
7466066066.0661 0.041571531 0.014136731 -0.0074513778 0.019979179 7.071068e-011 7.071068e-011 7.071068e-011 7.071068e-011
7474474474.4745 0.030596331 0.039473705 -0.016000677 -0.013776818 7.071068e-011 7.071068e-011 7.071068e-011 7.071068e-011
7482882882.8829 0.05997749 0.028996864 0.01861049 -0.0098862052 7.071068e-011 7.071068e-011 7.071068e-011 7.071068e-011
7491291291.2913 0.038798064 -0.01343374 0.0027107878 0.020938065 7.071068e-011 7.071068e-011 7.071068e-011 7.071068e-011
7499699699.6997 -0.0033644759 0.0025476487 -0.020398229 -0.0048499419 7.071068e-011 7.071068e-011 7.071068e-011 7.071068e-011
7508108108.1081 0.0034434213 0.031957064 0.011699714 -0.017382395 7.071068e-011 7.071068e-011 7.071068e-011 7.071068e-011
7516516516.5165 0.019342441 0.011776479 0.012063532 0.016957017 7.071068e-011 7.071068e-011 7.071068e-011 7.071068e-011
7524924924.9249 -0.026546476 0.0066896253 -0.020022145 0.0051339818 7.071068e-011 7.071068e-011 7.071068e-011 7.071068e-011
7533333333.3333 -0.029674921 0.066104919 0.0024587014 -0.020519659 7.071068e-011 7.071068e-011 7.071068e-011 7.071068e-011
7541741741.7417 0.027916318 0.068697631 0.018295575 0.0094334716 7.071068e-011 7.071068e-011 7.071068e-011 7.071068e-011
7550150150.1502 0.012767534 0.020586021 -0.015183889 0.013279161 7.071068e-011 7.071068e-011 7.071068e-011 7.071068e-011
7558558558.5586 -0.015270282 0.068685263 -0.0069209388 -0.019029908 7.071068e-011 7.071068e-011 7.071068e-011 7.071068e-011
7566966966.967 0.055785879 0.07795845 0.020014118 0.00041151218 7.071068e-011 7.071068e-011 7.071068e-011 7.071068e-011
7575375375.3754 0.053330388 0.00085098459 -0.0078612929 0.018495003 7.071068e-011 7.071068e-011 7.071068e-011 7.071068e-011
7583783783.7838 -0.011905962 0.024312483 -0.01444144 -0.014046131 7.071068e-011 7.071068e-011 7.071068e-011 7.071068e-011
7592192192.1922 0.045754168 0.060543556 0.017981393 -0.0083761839 7.071068e-011 7.071068e-011 7.071068e-011 7.071068e-011
7600600600.6006 0.051570442 -0.024539683 0.00093063095 0.019493433 7.071068e-011 7.071068e-011 7.071068e-011 7.071068e-011
7609009009.009 -0.038071804 -0.010513093 -0.018898822 -0.0064840117 7.071068e-011 7.071068e-011 7.071068e-011 7.071068e-011
7617417417.4174 -0.0048800441 0.058111232 0.012594832 -0.015364362 7.071068e-011 7.071068e-011 7.071068e-011 7.071068e-011
7625825825.8258 0.026282845 -0.0043595196 0.0094698006 0.017383071 7.071068e-011 7.071068e-011 7.071068e-011 7.071068e-011
7634234234.2342 -0.06083573 0.0042116698 -0.019557124 0.0024975431 7.071068e-011 7.071068e-011 7.071068e-011 7.071068e-011
7642642642.6426 -0.026321433 0.091730177 0.0049455687 -0.018926388 7.071068e-011 7.071068e-011 7.071068e-011 7.071068e-011
7651051051.0511 0.037508931 0.042180244 0.015796611 0.011669449 7.071068e-011 7.071068e-011 7.071068e-011 7.071068e-011
7659459459.4595 -0.030089334 0.018269515 -0.016755601 0.010715386 7.071068e-011 7.071068e-011 7.071068e-011 7.071068e-011
7667867867.8679 -0.011320324 0.10261534 -0.003952431 -0.019119795 7.071068e-011 7.071068e-011 7.071068e-011 7.071068e-011
7676276276.2763 0.073894344 0.058735389 0.019112883 0.0039102919 7.071068e-011 7.071068e-011 7.071068e-011 7.071068e-011
7684684684.6847 0.021136589 -0.0038594399 -0.010734994 0.016659075 7.071068e-011 7.071068e-011 7.071068e-011 7.071068e-011
7693093093.0931 0.00079907465 0.054618206 -0.011534818 -0.015940925 7.071068e-011 7.071068e-011 7.071068e-011 7.071068e-011
7701501501.5015 0.071197629 0.032392044 0.019009009 -0.0048892363 7.071068e-011 7.071068e-011 7.071068e-011 7.071068e-011
7709909909.9099 0.023093732 -0.042551156 -0.0025566025 0.019537153 7.071068e-011 7.071068e-011 7.071068e-011 7.071068e-011
7718318318.3183 -0.033126567 0.01111868 -0.017263832 -0.0095425332 7.071068e-011 7.071068e-011 7.071068e-011 7.071068e-011
7726726726.7267 0.024624763 0.027674096 0.015426088 -0.012294749 7.071068e-011 7.071068e-011 7.071068e-011 7.071068e-011
7735135135.1351 0.0026542658 -0.041428734 0.0060093831 0.018940751 7.071068e-011 7.071068e-011 7.071068e-011 7.071068e-011
7743543543.5435 -0.075064667 1.5332842e-005 -0.019555636 -0.0014040176 7.071068e-011 7.071068e-011 7.071068e-011 7.071068e-011
7751951951.952 -0.03017528 0.064278901 0.0086851669 -0.017729795 7.071068e-011 7.071068e-011 7.071068e-011 7.071068e-011
7760360360.3604 -0.002727533 0.017264925 0.013313868 0.014629439 7.071068e-011 7.071068e-011 7.071068e-011 7.071068e-011
7768768768.7688 -0.058468867 0.028544927 -0.018579755 0.0069407644 7.071068e-011 7.071068e-011 7.071068e-011 7.071068e-011
7777177177.1772 -0.027077012 0.095649093 0.00051723549 -0.01973713 7.071068e-011 7.071068e-011 7.071068e-011 7.071068e-011
7785585585.5856 0.033842377 0.0578219 0.018172612 0.0077600162 7.071068e-011 7.071068e-011 7.071068e-011 7.071068e-011
7793993993.994 -0.0057539432 0.027851472 -0.013872388 0.013748193 7.071068e-011 7.071068e-011 7.071068e-011 7.071068e-011
7802402402.4024 -0.00034087774 0.075059012 -0.0076469253 -0.01836108 7.071068e-011 7.071068e-011 7.071068e-011 7.071068e-011
7810810810.8108 0.058073577 0.04876991 0.019782959 -0.00050854764 7.071068e-011 7.071068e-011 7.071068e-011 7.071068e-011
7819219219.2192 0.025854377 -0.0064079682 -0.0070915837 0.018386688 7.071068e-011 7.071068e-011 7.071068e-011 7.071068e-011
7827627627.6276 -0.0035902048 0.02699629 -0.014472492 -0.013422446 7.071068e-011 7.071068e-011 7.071068e-011 7.071068e-011
7836036036.036 0.03764141 0.025704756 0.017832836 -0.0084055886 7.071068e-011 7.071068e-011 7.071068e-011 7.071068e-011
7844444444.4444 0.016410274 -0.02385122 0.0011848179 0.019732205 7.071068e-011 7.071068e-011 7.071068e-011 7.071068e-011
7852852852.8529 -0.028304888 0.0031698744 -0.018827062 -0.0062926225 7.071068e-011 7.071068e-011 7.071068e-011 7.071068e-011
7861261261.2613 0.0018562841 0.02947419 0.012726895 -0.015104768 7.071068e-011 7.071068e-011 7.071068e-011 7.071068e-011
7869669669.6697 0.0053985328 -0.0093619153 0.0090832282 0.017548611 7.071068e-011 7.071068e-011 7.071068e-011 7.071068e-011
7878078078.0781 -0.04046775 0.0035116652 -0.01983152 0.0020248503 7.071068e-011 7.071068e-011 7.071068e-011 7.071068e-011
7886486486.4865 -0.024291523 0.046964601 0.0053323107 -0.019056702 7.071068e-011 7.071068e-011 7.071068e-011 7.071068e-011
7894894894.8949 0.010935027 0.030157965 0.01545736 0.011948531 7.071068e-011 7.071068e-011 7.071068e-011 7.071068e-011
7903303303.3033 -0.013646654 0.011096619 -0.017065439 0.0097609814 7.071068e-011 7.071068e-011 7.071068e-011 7.071068e-011
7911711711.7117 -0.017804118 0.044090271 -0.00282832 -0.019494407 7.071068e-011 7.071068e-011 7.071068e-011 7.071068e-011
7920120120.1201 0.023181908 0.044818059 0.018930545 0.0046649906 7.071068e-011 7.071068e-011 7.071068e-011 7.071068e-011
7928528528.5285 0.023498204 0.0019014587 -0.011417783 0.0157708 7.071068e-011 7.071068e-011 7.071068e-011 7.071068e-011
7936936936.9369 -0.0099841775 0.011333285 -0.010228795 -0.016357012 7.071068e-011 7.071068e-011 7.071068e-011 7.071068e-011
7945345345.3453 0.017972149 0.032117087 0.019031145 -0.0031399769 7.071068e-011 7.071068e-011 7.071068e-011 7.071068e-011
