!Keysight Technologies,N5235B,MY61252044,A.15.00.15
!Date: Friday, January 20, 2023 21:41:15
!Correction: S11(Off) 
!S21(Off) 
!S12(Off) 
!S22(Off) 
!S2P File: Measurements: S11, S21, S12, S22:
# Hz S  RI   R 50
6600000000 0.017170621 -0.17480443 0.015481285 -0.0030653786 7.071068e-011 7.071068e-011 7.071068e-011 7.071068e-011
6608408408.4084 -0.12340102 0.16698594 0.0053343978 0.01084507 7.071068e-011 7.071068e-011 7.071068e-011 7.071068e-011
6616816816.8168 0.30690593 0.090937689 -0.0089105424 0.0037177466 7.071068e-011 7.071068e-011 7.071068e-011 7.071068e-011
6625225225.2252 0.022545245 -0.27299669 -0.0018012139 -0.0093116965 7.071068e-011 7.071068e-011 7.071068e-011 7.071068e-011
6633633633.6336 -0.16466358 0.16326594 0.0093462942 -0.00041146908 7.071068e-011 7.071068e-011 7.071068e-011 7.071068e-011
6642042042.042 0.29105857 0.11151399 -0.0018333258 0.0093249902 7.071068e-011 7.071068e-011 7.071068e-011 7.071068e-011
6650450450.4505 0.037220251 -0.25227919 -0.010726797 -0.0040689912 7.071068e-011 7.071068e-011 7.071068e-011 7.071068e-011
6658858858.8589 -0.14766617 0.13602413 0.0059474795 -0.01150159 7.071068e-011 7.071068e-011 7.071068e-011 7.071068e-011
6667267267.2673 0.22950858 0.10005783 0.012223605 0.0091505358 7.071068e-011 7.071068e-011 7.071068e-011 7.071068e-011
6675675675.6757 0.041635938 -0.15129793 -0.011522385 0.013839899 7.071068e-011 7.071068e-011 7.071068e-011 7.071068e-011
6684084084.0841 -0.044082839 0.08502572 -0.014628149 -0.013326863 7.071068e-011 7.071068e-011 7.071068e-011 7.071068e-011
6692492492.4925 0.10623401 0.047173131 0.014807406 -0.014944989 7.071068e-011 7.071068e-011 7.071068e-011 7.071068e-011
6700900900.9009 0.085837781 0.017998684 0.014807363 0.015405402 7.071068e-011 7.071068e-011 7.071068e-011 7.071068e-011
6709309309.3093 0.076736256 -0.041806187 -0.015541477 0.013154883 7.071068e-011 7.071068e-011 7.071068e-011 7.071068e-011
6717717717.7177 -0.030957174 0.035063885 -0.010194138 -0.016474629 7.071068e-011 7.071068e-011 7.071068e-011 7.071068e-011
6726126126.1261 0.15581082 0.11569553 0.016792938 -0.0071262415 7.071068e-011 7.071068e-011 7.071068e-011 7.071068e-011
6734534534.5345 0.12759018 -0.14108698 0.0036008584 0.016232619 7.071068e-011 7.071068e-011 7.071068e-011 7.071068e-011
6742942942.9429 -0.10775168 0.027919361 -0.015930656 -0.00023293031 7.071068e-011 7.071068e-011 7.071068e-011 7.071068e-011
6751351351.3514 0.17267437 0.15194772 0.0035869281 -0.015397996 7.071068e-011 7.071068e-011 7.071068e-011 7.071068e-011
6759759759.7598 0.14955516 -0.17232321 0.013213558 0.0070384452 7.071068e-011 7.071068e-011 7.071068e-011 7.071068e-011
6768168168.1682 -0.14706418 -0.0040719681 -0.010843651 0.010448587 7.071068e-011 7.071068e-011 7.071068e-011 7.071068e-011
6776576576.5766 0.13540351 0.17844303 -0.0080415653 -0.013452638 7.071068e-011 7.071068e-011 7.071068e-011 7.071068e-011
6784984984.985 0.15016866 -0.14712459 0.014562222 -0.0040675425 7.071068e-011 7.071068e-011 7.071068e-011 7.071068e-011
6793393393.3934 -0.14774171 -0.0052794213 -0.00029961643 0.015534685 7.071068e-011 7.071068e-011 7.071068e-011 7.071068e-011
6801801801.8018 0.1028502 0.20242006 -0.015745563 -0.0042595998 7.071068e-011 7.071068e-011 7.071068e-011 7.071068e-011
6810210210.2102 0.17164598 -0.095911153 0.0086464807 -0.014461743 7.071068e-011 7.071068e-011 7.071068e-011 7.071068e-011
6818618618.6186 -0.10577404 -0.0092341686 0.012186996 0.013213631 7.071068e-011 7.071068e-011 7.071068e-011 7.071068e-011
6827027027.027 0.088943176 0.18545844 -0.015946692 0.0092536313 7.071068e-011 7.071068e-011 7.071068e-011 7.071068e-011
6835435435.4354 0.18101698 -0.049650714 -0.0045252522 -0.017902937 7.071068e-011 7.071068e-011 7.071068e-011 7.071068e-011
6843843843.8438 -0.045926049 -0.027262362 0.020187162 0.00020201599 7.071068e-011 7.071068e-011 7.071068e-011 7.071068e-011
6852252252.2523 0.075497672 0.12934905 -0.0045318734 0.020327674 7.071068e-011 7.071068e-011 7.071068e-011 7.071068e-011
6860660660.6607 0.14488807 -0.020874469 -0.018640311 -0.009571176 7.071068e-011 7.071068e-011 7.071068e-011 7.071068e-011
6869069069.0691 0.0037696171 -0.026635574 0.014485225 -0.016132092 7.071068e-011 7.071068e-011 7.071068e-011 7.071068e-011
6877477477.4775 0.054421291 0.072709128 0.012733458 0.018074699 7.071068e-011 7.071068e-011 7.071068e-011 7.071068e-011
6885885885.8859 0.090364248 0.0066266176 -0.020443914 0.0077682496 7.071068e-011 7.071068e-011 7.071068e-011 7.071068e-011
6894294294.2943 0.047071185 -0.00097930455 -0.0023712318 -0.022016518 7.071068e-011 7.071068e-011 7.071068e-011 7.071068e-011
6902702702.7027 0.038219947 0.019505935 0.022010554 0.0031827055 7.071068e-011 7.071068e-011 7.071068e-011 7.071068e-011
6911111111.1111 0.031129034 0.037749045 -0.008721658 0.020248529 7.071068e-011 7.071068e-011 7.071068e-011 7.071068e-011
6919519519.5195 0.078374654 0.049675502 -0.017008636 -0.013569031 7.071068e-011 7.071068e-011 7.071068e-011 7.071068e-011
6927927927.9279 0.050380524 -0.012384968 0.017218983 -0.012832197 7.071068e-011 7.071068e-011 7.071068e-011 7.071068e-011
6936336336.3363 -0.0019857187 0.062616758 0.0073265973 0.01946277 7.071068e-011 7.071068e-011 7.071068e-011 7.071068e-011
6944744744.7447 0.11280024 0.088972755 -0.020852651 0.0012099312 7.071068e-011 7.071068e-011 7.071068e-011 7.071068e-011
6953153153.1532 0.083676778 -0.045730717 0.004427576 -0.020016627 7.071068e-011 7.071068e-011 7.071068e-011 7.071068e-011
6961561561.5616 -0.028204579 0.055137623 0.017372489 0.0098999552 7.071068e-011 7.071068e-011 7.071068e-011 7.071068e-011
6969969969.97 0.12526092 0.10545189 -0.014479741 0.013597947 7.071068e-011 7.071068e-011 7.071068e-011 7.071068e-011
6978378378.3784 0.10095166 -0.071180724 -0.008448543 -0.017352469 7.071068e-011 7.071068e-011 7.071068e-011 7.071068e-011
6986786786.7868 -0.064087234 0.033651974 0.018737439 -0.0023422949 7.071068e-011 7.071068e-011 7.071068e-011 7.071068e-011
6995195195.1952 0.10381158 0.13351908 -0.0034967805 0.018943697 7.071068e-011 7.071068e-011 7.071068e-011 7.071068e-011
7003603603.6036 0.10816951 -0.05846072 -0.016639944 -0.008855721 7.071068e-011 7.071068e-011 7.071068e-011 7.071068e-011
7012012012.012 -0.072844647 0.033444893 0.014085241 -0.012515375 7.071068e-011 7.071068e-011 7.071068e-011 7.071068e-011
7020420420.4204 0.088977724 0.16117646 0.0078495853 0.017313266 7.071068e-011 7.071068e-011 7.071068e-011 7.071068e-011
7028828828.8288 0.13198073 -0.029749021 -0.018528748 0.0019000325 7.071068e-011 7.071068e-011 7.071068e-011 7.071068e-011
7037237237.2372 -0.054324526 0.031612724 0.0043622139 -0.018661181 7.071068e-011 7.071068e-011 7.071068e-011 7.071068e-011
7045645645.6456 0.090975568 0.17084728 0.016489835 0.00975517 7.071068e-011 7.071068e-011 7.071068e-011 7.071068e-011
7054054054.0541 0.16718946 -0.0038626748 -0.014639267 0.01210171 7.071068e-011 7.071068e-011 7.071068e-011 7.071068e-011
7062462462.4625 -0.0086395517 -0.0032650211 -0.006901714 -0.018459056 7.071068e-011 7.071068e-011 7.071068e-011 7.071068e-011
7070870870.8709 0.079085834 0.14055006 0.019777384 -0.0012671056 7.071068e-011 7.071068e-011 7.071068e-011 7.071068e-011
7079279279.2793 0.16820061 0.0066593885 -0.0054743593 0.018824136 7.071068e-011 7.071068e-011 7.071068e-011 7.071068e-011
7087687687.6877 0.031978432 -0.026503757 -0.01669262 -0.011432651 7.071068e-011 7.071068e-011 7.071068e-011 7.071068e-011
7096096096.0961 0.060086522 0.089576349 0.015906496 -0.012545945 7.071068e-011 7.071068e-011 7.071068e-011 7.071068e-011
7104504504.5045 0.14784005 0.0098365992 0.0066004405 0.019123999 7.071068e-011 7.071068e-011 7.071068e-011 7.071068e-011
7112912912.9129 0.050399691 -0.04446584 -0.020657402 -6.3453022e-005 7.071068e-011 7.071068e-011 7.071068e-011 7.071068e-011
7121321321.3213 0.034685213 0.032221917 0.0062361746 -0.019864663 7.071068e-011 7.071068e-011 7.071068e-011 7.071068e-011
7129729729.7297 0.089504793 0.014160944 0.016500207 0.012034664 7.071068e-011 7.071068e-011 7.071068e-011 7.071068e-011
7138138138.1381 0.043097887 -0.037863515 -0.017162751 0.011763097 7.071068e-011 7.071068e-011 7.071068e-011 7.071068e-011
7146546546.5465 -0.00048595195 0.013913438 -0.0059194658 -0.020119499 7.071068e-011 7.071068e-011 7.071068e-011 7.071068e-011
7154954954.955 0.030894969 0.04124631 0.020824004 0.00078427192 7.071068e-011 7.071068e-011 7.071068e-011 7.071068e-011
7163363363.3634 0.044827394 0.015512645 -0.0076005068 0.019133793 7.071068e-011 7.071068e-011 7.071068e-011 7.071068e-011
7171771771.7718 0.0010089818 0.020461394 -0.015804451 -0.013432529 7.071068e-011 7.071068e-011 7.071068e-011 7.071068e-011
7180180180.1802 0.018687969 0.072652191 0.017597297 -0.010461871 7.071068e-011 7.071068e-011 7.071068e-011 7.071068e-011
7188588588.5886 0.067837849 0.055877563 0.0039521931 0.020456269 7.071068e-011 7.071068e-011 7.071068e-011 7.071068e-011
7196996996.997 0.039544314 0.010164766 -0.020623561 -0.0026819943 7.071068e-011 7.071068e-011 7.071068e-011 7.071068e-011
7205405405.4054 0.012450267 0.067439437 0.0094860541 -0.018046623 7.071068e-011 7.071068e-011 7.071068e-011 7.071068e-011
7213813813.8138 0.083456658 0.066967763 0.013909332 0.015163135 7.071068e-011 7.071068e-011 7.071068e-011 7.071068e-011
7222222222.2222 0.065862581 -0.0056036883 -0.018977011 0.0082963901 7.071068e-011 7.071068e-011 7.071068e-011 7.071068e-011
7230630630.6306 -0.0013119241 0.035556778 -0.0015206882 -0.020499984 7.071068e-011 7.071068e-011 7.071068e-011 7.071068e-011
7239039039.039 0.071925223 0.075416699 0.019981325 0.0057810759 7.071068e-011 7.071068e-011 7.071068e-011 7.071068e-011
7247447447.4474 0.074943334 -0.015074288 -0.01196666 0.017045477 7.071068e-011 7.071068e-011 7.071068e-011 7.071068e-011
7255855855.8559 -0.016754422 0.0077866921 -0.011681546 -0.016989283 7.071068e-011 7.071068e-011 7.071068e-011 7.071068e-011
7264264264.2643 0.035352621 0.084042698 0.020112686 -0.0054207183 7.071068e-011 7.071068e-011 7.071068e-011 7.071068e-011
7272672672.6727 0.074160963 0.00021197235 -0.0014516233 0.020562576 7.071068e-011 7.071068e-011 7.071068e-011 7.071068e-011
7281081081.0811 -0.030190432 0.0011866095 -0.018784825 -0.0083875917 7.071068e-011 7.071068e-011 7.071068e-011 7.071068e-011
7289489489.4895 0.00045096088 0.10776807 0.014658548 -0.014676457 7.071068e-011 7.071068e-011 7.071068e-011 7.071068e-011
7297897897.8979 0.084939159 0.050158408 0.0088801347 0.018814152 7.071068e-011 7.071068e-011 7.071068e-011 7.071068e-011
7306306306.3063 0.00061709713 0.0091003748 -0.020589283 0.0016655183 7.071068e-011 7.071068e-011 7.071068e-011 7.071068e-011
7314714714.7147 0.0044774855 0.11314714 0.0053280923 -0.02032174 7.071068e-011 7.071068e-011 7.071068e-011 7.071068e-011
7323123123.1231 0.1128405 0.074914724 0.01706042 0.011691833 7.071068e-011 7.071068e-011 7.071068e-011 7.071068e-011
7331531531.5315 0.050728459 -0.01177332 -0.017291773 0.011793135 7.071068e-011 7.071068e-011 7.071068e-011 7.071068e-011
7339939939.9399 0.0081427488 0.069133274 -0.00539554 -0.020545002 7.071068e-011 7.071068e-011 7.071068e-011 7.071068e-011
7348348348.3483 0.10580315 0.063304618 0.020942047 0.0018521833 7.071068e-011 7.071068e-011 7.071068e-011 7.071068e-011
7356756756.7568 0.065705024 -0.037088308 -0.0091317175 0.018830189 7.071068e-011 7.071068e-011 7.071068e-011 7.071068e-011
7365165165.1652 -0.010150653 0.021347424 -0.014807054 -0.015150145 7.071068e-011 7.071068e-011 7.071068e-011 7.071068e-011
7373573573.5736 0.061922226 0.049597025 0.018991295 -0.008653827 7.071068e-011 7.071068e-011 7.071068e-011 7.071068e-011
7381981981.982 0.043631531 -0.03562656 0.0011506211 0.021137228 7.071068e-011 7.071068e-011 7.071068e-011 7.071068e-011
7390390390.3904 -0.043163884 0.010076213 -0.0203746 -0.0060731387 7.071068e-011 7.071068e-011 7.071068e-011 7.071068e-011
7398798798.7988 0.013369118 0.071126476 0.012830926 -0.016764648 7.071068e-011 7.071068e-011 7.071068e-011 7.071068e-011
7407207207.2072 0.027699204 0.0095332069 0.01127416 0.017947042 7.071068e-011 7.071068e-011 7.071068e-011 7.071068e-011
7415615615.6156 -0.041118447 0.0356666 -0.020861484 0.0044733812 7.071068e-011 7.071068e-011 7.071068e-011 7.071068e-011
7424024024.024 0.0070926063 0.1050549 0.0029782183 -0.021063769 7.071068e-011 7.071068e-011 7.071068e-011 7.071068e-011
7432432432.4324 0.054607898 0.053838465 0.018725779 0.01035092 7.071068e-011 7.071068e-011 7.071068e-011 7.071068e-011
7440840840.8408 0.0095685124 0.042522114 -0.016092369 0.014121244 7.071068e-011 7.071068e-011 7.071068e-011 7.071068e-011
7449249249.2492 0.030468829 0.08725851 -0.0074137133 -0.019852191 7.071068e-011 7.071068e-011 7.071068e-011 7.071068e-011
7457657657.6577 0.07798212 0.048771627 0.021273494 8.1958708e-005 7.071068e-011 7.071068e-011 7.071068e-011 7.071068e-011
7466066066.0661 0.041541148 0.014157115 -0.0074499589 0.019968143 7.071068e-011 7.071068e-011 7.071068e-011 7.071068e-011
7474474474.4745 0.030606149 0.039529894 -0.01599689 -0.013777243 7.071068e-011 7.071068e-011 7.071068e-011 7.071068e-011
7482882882.8829 0.060026284 0.028977765 0.018595297 -0.0098805213 7.071068e-011 7.071068e-011 7.071068e-011 7.071068e-011
7491291291.2913 0.03878282 -0.013455203 0.002731415 0.020934021 7.071068e-011 7.071068e-011 7.071068e-011 7.071068e-011
7499699699.6997 -0.0033632829 0.0025756327 -0.020397455 -0.0048399256 7.071068e-011 7.071068e-011 7.071068e-011 7.071068e-011
7508108108.1081 0.0034669354 0.031958286 0.011694401 -0.017385431 7.071068e-011 7.071068e-011 7.071068e-011 7.071068e-011
7516516516.5165 0.019345123 0.011744693 0.012064181 0.016957872 7.071068e-011 7.071068e-011 7.071068e-011 7.071068e-011
7524924924.9249 -0.026590139 0.0067159943 -0.02001304 0.0051622707 7.071068e-011 7.071068e-011 7.071068e-011 7.071068e-011
7533333333.3333 -0.029658237 0.06613569 0.0024579803 -0.020520626 7.071068e-011 7.071068e-011 7.071068e-011 7.071068e-011
7541741741.7417 0.027935702 0.068645597 0.018299788 0.0094271675 7.071068e-011 7.071068e-011 7.071068e-011 7.071068e-011
7550150150.1502 0.012716703 0.020574916 -0.015178013 0.013283629 7.071068e-011 7.071068e-011 7.071068e-011 7.071068e-011
7558558558.5586 -0.015256262 0.068740159 -0.0069268709 -0.019029425 7.071068e-011 7.071068e-011 7.071068e-011 7.071068e-011
7566966966.967 0.055838436 0.07793282 0.020010129 0.00041551961 7.071068e-011 7.071068e-011 7.071068e-011 7.071068e-011
7575375375.3754 0.053273749 0.00081999449 -0.0078537855 0.018499224 7.071068e-011 7.071068e-011 7.071068e-011 7.071068e-011
7583783783.7838 -0.011910891 0.024385266 -0.014456882 -0.014048479 7.071068e-011 7.071068e-011 7.071068e-011 7.071068e-011
7592192192.1922 0.045827202 0.060524959 0.017988944 -0.0083851963 7.071068e-011 7.071068e-011 7.071068e-011 7.071068e-011
7600600600.6006 0.051535301 -0.024594469 0.00092813151 0.019493693 7.071068e-011 7.071068e-011 7.071068e-011 7.071068e-011
7609009009.009 -0.038088199 -0.010439293 -0.01890742 -0.0064830696 7.071068e-011 7.071068e-011 7.071068e-011 7.071068e-011
7617417417.4174 -0.0048149438 0.058115728 0.012577333 -0.015370503 7.071068e-011 7.071068e-011 7.071068e-011 7.071068e-011
7625825825.8258 0.026249405 -0.0044289278 0.0095022256 0.017376129 7.071068e-011 7.071068e-011 7.071068e-011 7.071068e-011
7634234234.2342 -0.060885999 0.0042673908 -0.019553222 0.0025151256 7.071068e-011 7.071068e-011 7.071068e-011 7.071068e-011
7642642642.6426 -0.026252536 0.091758065 0.0049208086 -0.018913168 7.071068e-011 7.071068e-011 7.071068e-011 7.071068e-011
7651051051.0511 0.03749124 0.042130496 0.015810452 0.011658877 7.071068e-011 7.071068e-011 7.071068e-011 7.071068e-011
7659459459.4595 -0.030154474 0.018322993 -0.016749987 0.010725904 7.071068e-011 7.071068e-011 7.071068e-011 7.071068e-011
7667867867.8679 -0.011260182 0.10267827 -0.0039496487 -0.019112684 7.071068e-011 7.071068e-011 7.071068e-011 7.071068e-011
7676276276.2763 0.073914237 0.058668066 0.019120263 0.0038994567 7.071068e-011 7.071068e-011 7.071068e-011 7.071068e-011
7684684684.6847 0.021066785 -0.0038356439 -0.010718837 0.01666039 7.071068e-011 7.071068e-011 7.071068e-011 7.071068e-011
7693093093.0931 0.00082977855 0.054680225 -0.011530583 -0.01593492 7.071068e-011 7.071068e-011 7.071068e-011 7.071068e-011
7701501501.5015 0.07125207 0.032348014 0.019018773 -0.0049003526 7.071068e-011 7.071068e-011 7.071068e-011 7.071068e-011
7709909909.9099 0.023028959 -0.042541809 -0.0025509384 0.019527704 7.071068e-011 7.071068e-011 7.071068e-011 7.071068e-011
7718318318.3183 -0.033096589 0.011177329 -0.017262364 -0.0095380573 7.071068e-011 7.071068e-011 7.071068e-011 7.071068e-011
7726726726.7267 0.024704698 0.027629593 0.015408521 -0.012286196 7.071068e-011 7.071068e-011 7.071068e-011 7.071068e-011
7735135135.1351 0.0026113268 -0.041469481 0.0060095727 0.018964341 7.071068e-011 7.071068e-011 7.071068e-011 7.071068e-011
7743543543.5435 -0.075079374 7.6046781e-005 -0.019552631 -0.0013964638 7.071068e-011 7.071068e-011 7.071068e-011 7.071068e-011
7751951951.952 -0.030110223 0.064274333 0.0086593926 -0.017738873 7.071068e-011 7.071068e-011 7.071068e-011 7.071068e-011
7760360360.3604 -0.0027518191 0.017200168 0.013316927 0.014628545 7.071068e-011 7.071068e-011 7.071068e-011 7.071068e-011
7768768768.7688 -0.058518134 0.028606452 -0.018583348 0.0069492641 7.071068e-011 7.071068e-011 7.071068e-011 7.071068e-011
7777177177.1772 -0.027039044 0.095671788 0.00051396358 -0.019745097 7.071068e-011 7.071068e-011 7.071068e-011 7.071068e-011
7785585585.5856 0.033841997 0.057780433 0.018177116 0.0077533778 7.071068e-011 7.071068e-011 7.071068e-011 7.071068e-011
7793993993.994 -0.0058138552 0.027884418 -0.013872038 0.013756149 7.071068e-011 7.071068e-011 7.071068e-011 7.071068e-011
7802402402.4024 -0.00030078102 0.075091645 -0.0076486287 -0.018351493 7.071068e-011 7.071068e-011 7.071068e-011 7.071068e-011
7810810810.8108 0.058088772 0.048729703 0.019791529 -0.00053416746 7.071068e-011 7.071068e-011 7.071068e-011 7.071068e-011
7819219219.2192 0.025809541 -0.0064147399 -0.007077428 0.018387849 7.071068e-011 7.071068e-011 7.071068e-011 7.071068e-011
7827627627.6276 -0.0035691482 0.027054636 -0.014472056 -0.013409966 7.071068e-011 7.071068e-011 7.071068e-011 7.071068e-011
7836036036.036 0.037676267 0.025676787 0.017820932 -0.0084245801 7.071068e-011 7.071068e-011 7.071068e-011 7.071068e-011
7844444444.4444 0.016378779 -0.023862619 0.0011971557 0.019733982 7.071068e-011 7.071068e-011 7.071068e-011 7.071068e-011
7852852852.8529 -0.028295092 0.0031986237 -0.0188323 -0.0062811021 7.071068e-011 7.071068e-011 7.071068e-011 7.071068e-011
7861261261.2613 0.0019035173 0.029459257 0.012728533 -0.015111051 7.071068e-011 7.071068e-011 7.071068e-011 7.071068e-011
7869669669.6697 0.0053638499 -0.0094231833 0.0090868659 0.017532593 7.071068e-011 7.071068e-011 7.071068e-011 7.071068e-011
7878078078.0781 -0.04050982 0.0035444093 -0.01981812 0.0020449574 7.071068e-011 7.071068e-011 7.071068e-011 7.071068e-011
7886486486.4865 -0.024266848 0.046990063 0.005310263 -0.019052962 7.071068e-011 7.071068e-011 7.071068e-011 7.071068e-011
7894894894.8949 0.01093262 0.030133439 0.015463874 0.011933213 7.071068e-011 7.071068e-011 7.071068e-011 7.071068e-011
7903303303.3033 -0.013684349 0.011130564 -0.017070761 0.0097646974 7.071068e-011 7.071068e-011 7.071068e-011 7.071068e-011
7911711711.7117 -0.017789725 0.044097178 -0.002853652 -0.01947538 7.071068e-011 7.071068e-011 7.071068e-011 7.071068e-011
7920120120.1201 0.023223447 0.044804223 0.018929366 0.0046647345 7.071068e-011 7.071068e-011 7.071068e-011 7.071068e-011
7928528528.5285 0.023456177 0.0018892149 -0.011409191 0.015778413 7.071068e-011 7.071068e-011 7.071068e-011 7.071068e-011
7936936936.9369 -0.0099836653 0.011375026 -0.010226746 -0.016362626 7.071068e-011 7.071068e-011 7.071068e-011 7.071068e-011
