!Keysight Technologies,N5235B,MY61252044,A.15.00.15
!Date: Friday, January 20, 2023 19:27:30
!Correction: S11(Off) 
!S21(Off) 
!S12(Off) 
!S22(Off) 
!S2P File: Measurements: S11, S21, S12, S22:
# Hz S  RI   R 50
6600000000 0.016885508 -0.17451067 0.014896397 -0.0052286182 7.071068e-011 7.071068e-011 7.071068e-011 7.071068e-011
6608400000 -0.12355974 0.16667314 0.0067826901 0.010006428 7.071068e-011 7.071068e-011 7.071068e-011 7.071068e-011
6616800000 0.30690798 0.091603622 -0.0083299922 0.0048735896 7.071068e-011 7.071068e-011 7.071068e-011 7.071068e-011
6625200000 0.023604902 -0.27298906 -0.002997573 -0.0089961076 7.071068e-011 7.071068e-011 7.071068e-011 7.071068e-011
6633600000 -0.16577651 0.16155924 0.0092166001 -0.0015889091 7.071068e-011 7.071068e-011 7.071068e-011 7.071068e-011
6642000000 0.29034975 0.11390568 -0.00068058819 0.0094604269 7.071068e-011 7.071068e-011 7.071068e-011 7.071068e-011
6650400000 0.039665639 -0.25275537 -0.011121821 -0.0027914811 7.071068e-011 7.071068e-011 7.071068e-011 7.071068e-011
6658800000 -0.14911819 0.13345842 0.0046080481 -0.012109159 7.071068e-011 7.071068e-011 7.071068e-011 7.071068e-011
6667200000 0.22805652 0.10345425 0.013096925 0.0077321478 7.071068e-011 7.071068e-011 7.071068e-011 7.071068e-011
6675600000 0.04445884 -0.15271266 -0.010040411 0.01489667 7.071068e-011 7.071068e-011 7.071068e-011 7.071068e-011
6684000000 -0.045351423 0.084128134 -0.015870146 -0.011855246 7.071068e-011 7.071068e-011 7.071068e-011 7.071068e-011
6692400000 0.10543085 0.048518177 0.013280125 -0.016282231 7.071068e-011 7.071068e-011 7.071068e-011 7.071068e-011
6700800000 0.086112767 0.01718808 0.01607142 0.014004054 7.071068e-011 7.071068e-011 7.071068e-011 7.071068e-011
6709200000 0.077888623 -0.040036399 -0.014419676 0.014432215 7.071068e-011 7.071068e-011 7.071068e-011 7.071068e-011
6717600000 -0.031374849 0.031813938 -0.011525463 -0.015608467 7.071068e-011 7.071068e-011 7.071068e-011 7.071068e-011
6726000000 0.15296602 0.11796721 0.016175967 -0.0084234364 7.071068e-011 7.071068e-011 7.071068e-011 7.071068e-011
6734400000 0.13178135 -0.13858773 0.0048003648 0.01592689 7.071068e-011 7.071068e-011 7.071068e-011 7.071068e-011
6742800000 -0.10808124 0.021811394 -0.015924877 0.00089032017 7.071068e-011 7.071068e-011 7.071068e-011 7.071068e-011
6751200000 0.16733481 0.1557401 0.0025627948 -0.015617755 7.071068e-011 7.071068e-011 7.071068e-011 7.071068e-011
6759600000 0.15588923 -0.16874221 0.013640737 0.0062165251 7.071068e-011 7.071068e-011 7.071068e-011 7.071068e-011
6768000000 -0.14681827 -0.011996359 -0.01020303 0.011043151 7.071068e-011 7.071068e-011 7.071068e-011 7.071068e-011
6776400000 0.12857111 0.18192868 -0.0087432824 -0.013011172 7.071068e-011 7.071068e-011 7.071068e-011 7.071068e-011
6784800000 0.15673871 -0.14208701 0.014317728 -0.0047931317 7.071068e-011 7.071068e-011 7.071068e-011 7.071068e-011
6793200000 -0.14655134 -0.014587138 0.00041130709 0.015507359 7.071068e-011 7.071068e-011 7.071068e-011 7.071068e-011
6801600000 0.094873048 0.20570874 -0.01591371 -0.0036219517 7.071068e-011 7.071068e-011 7.071068e-011 7.071068e-011
6810000000 0.1771647 -0.090256259 0.0081196046 -0.014779673 7.071068e-011 7.071068e-011 7.071068e-011 7.071068e-011
6818400000 -0.10289467 -0.017865144 0.012562995 0.012775239 7.071068e-011 7.071068e-011 7.071068e-011 7.071068e-011
6826800000 0.080319233 0.18790127 -0.01565082 0.0096637905 7.071068e-011 7.071068e-011 7.071068e-011 7.071068e-011
6835200000 0.18568578 -0.044294018 -0.004964456 -0.01775522 7.071068e-011 7.071068e-011 7.071068e-011 7.071068e-011
6843600000 -0.042484775 -0.033258617 0.020177862 -0.00018290876 7.071068e-011 7.071068e-011 7.071068e-011 7.071068e-011
6852000000 0.068416171 0.13006966 -0.0042263898 0.020391762 7.071068e-011 7.071068e-011 7.071068e-011 7.071068e-011
6860400000 0.14844891 -0.016469328 -0.018710066 -0.0093530249 7.071068e-011 7.071068e-011 7.071068e-011 7.071068e-011
6868800000 0.0060886238 -0.030229397 0.014386993 -0.016201876 7.071068e-011 7.071068e-011 7.071068e-011 7.071068e-011
6877200000 0.050732702 0.072478294 0.012764848 0.018067852 7.071068e-011 7.071068e-011 7.071068e-011 7.071068e-011
6885600000 0.091928683 0.0087998742 -0.020454032 0.0077544847 7.071068e-011 7.071068e-011 7.071068e-011 7.071068e-011
6894000000 0.047732327 -0.0018239582 -0.0022346862 -0.022045767 7.071068e-011 7.071068e-011 7.071068e-011 7.071068e-011
6902400000 0.038352437 0.019240685 0.02198752 0.0034359947 7.071068e-011 7.071068e-011 7.071068e-011 7.071068e-011
6910800000 0.03089739 0.036198463 -0.0090355426 0.020131705 7.071068e-011 7.071068e-011 7.071068e-011 7.071068e-011
6919200000 0.076572984 0.051540483 -0.016755011 -0.013887652 7.071068e-011 7.071068e-011 7.071068e-011 7.071068e-011
6927600000 0.053665161 -0.011709868 0.017527523 -0.012464489 7.071068e-011 7.071068e-011 7.071068e-011 7.071068e-011
6936000000 -0.003146169 0.057687037 0.0068549556 0.019702779 7.071068e-011 7.071068e-011 7.071068e-011 7.071068e-011
6944400000 0.10804251 0.093256712 -0.020883663 0.00056286715 7.071068e-011 7.071068e-011 7.071068e-011 7.071068e-011
6952800000 0.090180978 -0.043345734 0.0051258006 -0.019876845 7.071068e-011 7.071068e-011 7.071068e-011 7.071068e-011
6961200000 -0.029115884 0.047523275 0.016999574 0.010570508 7.071068e-011 7.071068e-011 7.071068e-011 7.071068e-011
6969600000 0.11796194 0.11063638 -0.015078215 0.012979133 7.071068e-011 7.071068e-011 7.071068e-011 7.071068e-011
6978000000 0.10998342 -0.066636838 -0.0076719648 -0.017755896 7.071068e-011 7.071068e-011 7.071068e-011 7.071068e-011
6986400000 -0.063903153 0.023211328 0.018836411 -0.0014458022 7.071068e-011 7.071068e-011 7.071068e-011 7.071068e-011
6994800000 0.094408497 0.13787097 -0.00456134 0.018742695 7.071068e-011 7.071068e-011 7.071068e-011 7.071068e-011
7003200000 0.11725923 -0.051689286 -0.016142989 -0.0098600378 7.071068e-011 7.071068e-011 7.071068e-011 7.071068e-011
7011600000 -0.071345128 0.021250168 0.014803858 -0.011612127 7.071068e-011 7.071068e-011 7.071068e-011 7.071068e-011
7020000000 0.077984802 0.16484633 0.0066928044 0.017791048 7.071068e-011 7.071068e-011 7.071068e-011 7.071068e-011
7028400000 0.13974598 -0.021488719 -0.018628195 0.0006185043 7.071068e-011 7.071068e-011 7.071068e-011 7.071068e-011
7036800000 -0.050872281 0.019657943 0.0057628881 -0.018298214 7.071068e-011 7.071068e-011 7.071068e-011 7.071068e-011
7045200000 0.078793801 0.17307995 0.015700893 0.011048337 7.071068e-011 7.071068e-011 7.071068e-011 7.071068e-011
7053600000 0.17297439 0.0060100737 -0.015580249 0.010862848 7.071068e-011 7.071068e-011 7.071068e-011 7.071068e-011
7062000000 -0.0027173921 -0.012687961 -0.0052425154 -0.018982915 7.071068e-011 7.071068e-011 7.071068e-011 7.071068e-011
7070400000 0.068264499 0.14021944 0.019855803 0.00055547577 7.071068e-011 7.071068e-011 7.071068e-011 7.071068e-011
7078800000 0.17136316 0.016136583 -0.0072060144 0.018199366 7.071068e-011 7.071068e-011 7.071068e-011 7.071068e-011
7087200000 0.038811836 -0.032432973 -0.015443611 -0.013055486 7.071068e-011 7.071068e-011 7.071068e-011 7.071068e-011
7095600000 0.05203414 0.087319806 0.017181935 -0.01084681 7.071068e-011 7.071068e-011 7.071068e-011 7.071068e-011
7104000000 0.14881986 0.017459299 0.0045185811 0.019753883 7.071068e-011 7.071068e-011 7.071068e-011 7.071068e-011
7112400000 0.056771941 -0.046491325 -0.020487539 -0.0023545348 7.071068e-011 7.071068e-011 7.071068e-011 7.071068e-011
7120800000 0.030923432 0.02836295 0.0085316068 -0.019008022 7.071068e-011 7.071068e-011 7.071068e-011 7.071068e-011
7129200000 0.089007594 0.018902808 0.014966189 0.013929359 7.071068e-011 7.071068e-011 7.071068e-011 7.071068e-011
7137600000 0.047504012 -0.037960507 -0.018518345 0.0095452089 7.071068e-011 7.071068e-011 7.071068e-011 7.071068e-011
7146000000 -0.00012632554 0.0095968237 -0.0033037667 -0.020747371 7.071068e-011 7.071068e-011 7.071068e-011 7.071068e-011
7154400000 0.028084347 0.041958153 0.020531498 0.003520157 7.071068e-011 7.071068e-011 7.071068e-011 7.071068e-011
7162800000 0.046307325 0.017130956 -0.010116844 0.017906997 7.071068e-011 7.071068e-011 7.071068e-011 7.071068e-011
7171200000 0.0033687479 0.017850436 -0.013762661 -0.015559375 7.071068e-011 7.071068e-011 7.071068e-011 7.071068e-011
7179600000 0.014792617 0.070161834 0.018974995 -0.0078836391 7.071068e-011 7.071068e-011 7.071068e-011 7.071068e-011
7188000000 0.066363439 0.059857599 0.00087381213 0.020814812 7.071068e-011 7.071068e-011 7.071068e-011 7.071068e-011
7196400000 0.043878134 0.010291064 -0.019990826 -0.0058218697 7.071068e-011 7.071068e-011 7.071068e-011 7.071068e-011
7204800000 0.010078286 0.062534563 0.012158779 -0.016319776 7.071068e-011 7.071068e-011 7.071068e-011 7.071068e-011
7213200000 0.07902725 0.07158722 0.011312018 0.017182525 7.071068e-011 7.071068e-011 7.071068e-011 7.071068e-011
7221600000 0.071828343 -0.0026837278 -0.020121811 0.0050896164 7.071068e-011 7.071068e-011 7.071068e-011 7.071068e-011
7230000000 -0.00081513944 0.028696369 0.0019328198 -0.020514589 7.071068e-011 7.071068e-011 7.071068e-011 7.071068e-011
7238400000 0.064910144 0.078662775 0.018660767 0.0091570616 7.071068e-011 7.071068e-011 7.071068e-011 7.071068e-011
7246800000 0.081081063 -0.009432978 -0.014826288 0.014642443 7.071068e-011 7.071068e-011 7.071068e-011 7.071068e-011
7255200000 -0.012922494 7.6742683e-005 -0.0084216576 -0.018781604 7.071068e-011 7.071068e-011 7.071068e-011 7.071068e-011
7263600000 0.026877861 0.084006391 0.020764804 -0.0016384003 7.071068e-011 7.071068e-011 7.071068e-011 7.071068e-011
7272000000 0.078672998 0.0080535682 -0.0052654371 0.019965714 7.071068e-011 7.071068e-011 7.071068e-011 7.071068e-011
7280400000 -0.023558838 -0.0063173966 -0.01684076 -0.011871916 7.071068e-011 7.071068e-011 7.071068e-011 7.071068e-011
7288800000 -0.0089323018 0.10323083 0.01725574 -0.01147148 7.071068e-011 7.071068e-011 7.071068e-011 7.071068e-011
7297200000 0.084926382 0.059787087 0.0048955642 0.020204376 7.071068e-011 7.071068e-011 7.071068e-011 7.071068e-011
7305600000 0.0086697405 0.004493169 -0.020460203 -0.002533695 7.071068e-011 7.071068e-011 7.071068e-011 7.071068e-011
7314000000 -0.0039250143 0.10619048 0.0094555672 -0.018786833 7.071068e-011 7.071068e-011 7.071068e-011 7.071068e-011
7322400000 0.10862579 0.08563862 0.014255317 0.01503135 7.071068e-011 7.071068e-011 7.071068e-011 7.071068e-011
7330800000 0.0604534 -0.011673289 -0.019410716 0.0077147535 7.071068e-011 7.071068e-011 7.071068e-011 7.071068e-011
7339200000 0.0039898017 0.060687479 -0.00067213428 -0.021247851 7.071068e-011 7.071068e-011 7.071068e-011 7.071068e-011
7347600000 0.099174947 0.072245359 0.020016301 0.0064890999 7.071068e-011 7.071068e-011 7.071068e-011 7.071068e-011
7356000000 0.076076008 -0.033680264 -0.013116899 0.016226722 7.071068e-011 7.071068e-011 7.071068e-011 7.071068e-011
7364400000 -0.010165442 0.012435267 -0.010835431 -0.018189069 7.071068e-011 7.071068e-011 7.071068e-011 7.071068e-011
7372800000 0.054682896 0.054691166 0.020575756 -0.003944464 7.071068e-011 7.071068e-011 7.071068e-011 7.071068e-011
7381200000 0.052928824 -0.03083816 -0.0039645913 0.020761747 7.071068e-011 7.071068e-011 7.071068e-011 7.071068e-011
7389600000 -0.040784277 0.00050219882 -0.018235942 -0.010892441 7.071068e-011 7.071068e-011 7.071068e-011 7.071068e-011
7398000000 0.0053734006 0.071988285 0.016558168 -0.013011335 7.071068e-011 7.071068e-011 7.071068e-011 7.071068e-011
7406400000 0.033089347 0.014957706 0.0063642599 0.020206608 7.071068e-011 7.071068e-011 7.071068e-011 7.071068e-011
7414800000 -0.03805865 0.02717175 -0.02134084 -0.0010397846 7.071068e-011 7.071068e-011 7.071068e-011 7.071068e-011
7423200000 -0.0017325354 0.10366308 0.0083598392 -0.019575223 7.071068e-011 7.071068e-011 7.071068e-011 7.071068e-011
7431600000 0.055600215 0.0605877 0.015263698 0.014920691 7.071068e-011 7.071068e-011 7.071068e-011 7.071068e-011
7440000000 0.013293086 0.038435694 -0.019330133 0.0092521273 7.071068e-011 7.071068e-011 7.071068e-011 7.071068e-011
7448400000 0.02413949 0.085542813 -0.0017359445 -0.021122603 7.071068e-011 7.071068e-011 7.071068e-011 7.071068e-011
7456800000 0.07738205 0.055416785 0.020405872 0.0059416066 7.071068e-011 7.071068e-011 7.071068e-011 7.071068e-011
7465200000 0.046210878 0.013914558 -0.012754627 0.017066201 7.071068e-011 7.071068e-011 7.071068e-011 7.071068e-011
7473600000 0.028479541 0.036912028 -0.011420771 -0.017780771 7.071068e-011 7.071068e-011 7.071068e-011 7.071068e-011
7482000000 0.058391832 0.033315379 0.020642454 -0.0040778574 7.071068e-011 7.071068e-011 7.071068e-011 7.071068e-011
7490400000 0.043635625 -0.010893215 -0.0035269805 0.020820942 7.071068e-011 7.071068e-011 7.071068e-011 7.071068e-011
7498800000 -0.00078141619 -0.0014803651 -0.018044708 -0.010633571 7.071068e-011 7.071068e-011 7.071068e-011 7.071068e-011
7507200000 0.00052212778 0.030880392 0.016364451 -0.013054047 7.071068e-011 7.071068e-011 7.071068e-011 7.071068e-011
7515600000 0.020603342 0.015440876 0.0063212351 0.019841913 7.071068e-011 7.071068e-011 7.071068e-011 7.071068e-011
7524000000 -0.020965891 0.0030856493 -0.020656142 -0.0012840929 7.071068e-011 7.071068e-011 7.071068e-011 7.071068e-011
7532400000 -0.034236688 0.060056172 0.0087277666 -0.018707015 7.071068e-011 7.071068e-011 7.071068e-011 7.071068e-011
7540800000 0.02279176 0.073310703 0.014388857 0.014728584 7.071068e-011 7.071068e-011 7.071068e-011 7.071068e-011
7549200000 0.01951101 0.02228133 -0.018569704 0.0077741556 7.071068e-011 7.071068e-011 7.071068e-011 7.071068e-011
7557600000 -0.018423352 0.06104948 -0.00036306289 -0.020243034 7.071068e-011 7.071068e-011 7.071068e-011 7.071068e-011
7566000000 0.047861923 0.083554469 0.018840183 0.0069544907 7.071068e-011 7.071068e-011 7.071068e-011 7.071068e-011
7574400000 0.060927216 0.0079036625 -0.013522598 0.014843928 7.071068e-011 7.071068e-011 7.071068e-011 7.071068e-011
7582800000 -0.0098747015 0.015312534 -0.0088623408 -0.01801767 7.071068e-011 7.071068e-011 7.071068e-011 7.071068e-011
7591200000 0.036592737 0.064412631 0.01975661 -0.0017703392 7.071068e-011 7.071068e-011 7.071068e-011 7.071068e-011
7599600000 0.059280563 -0.015063765 -0.0057255905 0.018660702 7.071068e-011 7.071068e-011 7.071068e-011 7.071068e-011
7608000000 -0.031029196 -0.020610824 -0.015450957 -0.012642329 7.071068e-011 7.071068e-011 7.071068e-011 7.071068e-011
7616400000 -0.014955036 0.056790888 0.017211501 -0.0099984603 7.071068e-011 7.071068e-011 7.071068e-011 7.071068e-011
7624800000 0.031501975 0.0050285356 0.0026762905 0.019553876 7.071068e-011 7.071068e-011 7.071068e-011 7.071068e-011
7633200000 -0.052668769 -0.0061877416 -0.019120794 -0.0046774135 7.071068e-011 7.071068e-011 7.071068e-011 7.071068e-011
7641600000 -0.038319763 0.086785644 0.011413869 -0.015859334 7.071068e-011 7.071068e-011 7.071068e-011 7.071068e-011
7650000000 0.037716329 0.053185981 0.01046219 0.01660344 7.071068e-011 7.071068e-011 7.071068e-011 7.071068e-011
7658400000 -0.020845762 0.011656226 -0.019531831 0.0037360699 7.071068e-011 7.071068e-011 7.071068e-011 7.071068e-011
7666800000 -0.02286952 0.095812432 0.0034738893 -0.019262865 7.071068e-011 7.071068e-011 7.071068e-011 7.071068e-011
7675200000 0.069659181 0.071720846 0.016141668 0.010771982 7.071068e-011 7.071068e-011 7.071068e-011 7.071068e-011
7683600000 0.031954985 -0.0041379761 -0.016273167 0.011243636 7.071068e-011 7.071068e-011 7.071068e-011 7.071068e-011
7692000000 -0.0052588275 0.046967469 -0.0045436807 -0.019144276 7.071068e-011 7.071068e-011 7.071068e-011 7.071068e-011
7700400000 0.065750852 0.043795921 0.019448899 0.0028511586 7.071068e-011 7.071068e-011 7.071068e-011 7.071068e-011
7708800000 0.035663787 -0.039712165 -0.010010436 0.016926084 7.071068e-011 7.071068e-011 7.071068e-011 7.071068e-011
7717200000 -0.033647437 0.00069943204 -0.012012548 -0.015651004 7.071068e-011 7.071068e-011 7.071068e-011 7.071068e-011
7725600000 0.01682964 0.033835541 0.018997934 -0.0050935769 7.071068e-011 7.071068e-011 7.071068e-011 7.071068e-011
7734000000 0.01410776 -0.035639822 -0.0021655846 0.019747125 7.071068e-011 7.071068e-011 7.071068e-011 7.071068e-011
7742400000 -0.070788831 -0.012312775 -0.017283831 -0.0091845915 7.071068e-011 7.071068e-011 7.071068e-011 7.071068e-011
7750800000 -0.04058459 0.062484168 0.015222641 -0.01253558 7.071068e-011 7.071068e-011 7.071068e-011 7.071068e-011
7759200000 0.0015328666 0.025248149 0.006014667 0.018891415 7.071068e-011 7.071068e-011 7.071068e-011 7.071068e-011
7767600000 -0.053362869 0.019512411 -0.019761585 -0.0014990888 7.071068e-011 7.071068e-011 7.071068e-011 7.071068e-011
7776000000 -0.037777301 0.090924658 0.0087705487 -0.017604724 7.071068e-011 7.071068e-011 7.071068e-011 7.071068e-011
7784400000 0.031452466 0.068094969 0.013089444 0.01477298 7.071068e-011 7.071068e-011 7.071068e-011 7.071068e-011
7792800000 0.0012979148 0.024768669 -0.018467532 0.0065172776 7.071068e-011 7.071068e-011 7.071068e-011 7.071068e-011
7801200000 -0.007668091 0.070216447 0.0011072578 -0.01983561 7.071068e-011 7.071068e-011 7.071068e-011 7.071068e-011
7809600000 0.053138804 0.058501925 0.018027687 0.0082347775 7.071068e-011 7.071068e-011 7.071068e-011 7.071068e-011
7818000000 0.035329994 -0.0043452778 -0.014421833 0.0133047 7.071068e-011 7.071068e-011 7.071068e-011 7.071068e-011
7826400000 -0.005553198 0.020853419 -0.0069706202 -0.018450202 7.071068e-011 7.071068e-011 7.071068e-011 7.071068e-011
7834800000 0.032557238 0.031579375 0.019716142 0.0004548961 7.071068e-011 7.071068e-011 7.071068e-011 7.071068e-011
7843200000 0.025274485 -0.019671651 -0.0078680972 0.018147254 7.071068e-011 7.071068e-011 7.071068e-011 7.071068e-011
7851600000 -0.026784839 -0.0046464428 -0.01384502 -0.014196385 7.071068e-011 7.071068e-011 7.071068e-011 7.071068e-011
7860000000 -0.0041577099 0.030774871 0.018267613 -0.0075483327 7.071068e-011 7.071068e-011 7.071068e-011 7.071068e-011
7868400000 0.010395624 -0.0035099483 -7.806348e-005 0.019719094 7.071068e-011 7.071068e-011 7.071068e-011 7.071068e-011
7876800000 -0.036223162 -0.0038343659 -0.01846187 -0.0074896575 7.071068e-011 7.071068e-011 7.071068e-011 7.071068e-011
7885200000 -0.030564835 0.043485805 0.013676787 -0.014325114 7.071068e-011 7.071068e-011 7.071068e-011 7.071068e-011
7893600000 0.0088387979 0.036156978 0.0079671387 0.017864112 7.071068e-011 7.071068e-011 7.071068e-011 7.071068e-011
7902000000 -0.0082831345 0.0093184067 -0.019646637 0.00036910881 7.071068e-011 7.071068e-011 7.071068e-011 7.071068e-011
7910400000 -0.021398004 0.039033778 0.0069487118 -0.018488467 7.071068e-011 7.071068e-011 7.071068e-011 7.071068e-011
7918800000 0.017086111 0.049014479 0.014330886 0.013211107 7.071068e-011 7.071068e-011 7.071068e-011 7.071068e-011
7927200000 0.028600689 0.0073991166 -0.017656608 0.0081649618 7.071068e-011 7.071068e-011 7.071068e-011 7.071068e-011
7935600000 -0.0080130976 0.0057960944 -0.00082199962 -0.01932078 7.071068e-011 7.071068e-011 7.071068e-011 7.071068e-011
7944000000 0.010937795 0.033214401 0.018135941 0.0067033083 7.071068e-011 7.071068e-011 7.071068e-011 7.071068e-011
7952400000 0.037532661 -0.0056059156 -0.013124406 0.014197496 7.071068e-011 7.071068e-011 7.071068e-011 7.071068e-011
7960800000 -0.015035191 -0.033379346 -0.0082514696 -0.017459845 7.071068e-011 7.071068e-011 7.071068e-011 7.071068e-011
7969200000 -0.029217334 0.020801684 0.019000802 -0.00088852656 7.071068e-011 7.071068e-011 7.071068e-011 7.071068e-011
7977600000 0.020009676 0.0068603056 -0.0065590432 0.017879495 7.071068e-011 7.071068e-011 7.071068e-011 7.071068e-011
7986000000 -0.024184695 -0.039761517 -0.014053196 -0.012843634 7.071068e-011 7.071068e-011 7.071068e-011 7.071068e-011
7994400000 -0.065396398 0.024773344 0.017137377 -0.0081089959 7.071068e-011 7.071068e-011 7.071068e-011 7.071068e-011
