!Keysight Technologies,N5235B,MY61252044,A.15.00.15
!Date: Friday, January 20, 2023 23:15:19
!Correction: S11(Off) 
!S21(Off) 
!S12(Off) 
!S22(Off) 
!S2P File: Measurements: S11, S21, S12, S22:
# Hz S  RI   R 50
6600000000 0.01837695 -0.1753725 0.015478252 -0.0031384628 7.071068e-011 7.071068e-011 7.071068e-011 7.071068e-011
6608408408.4084 -0.12435915 0.16580598 0.0053832103 0.010830126 7.071068e-011 7.071068e-011 7.071068e-011 7.071068e-011
6616816816.8168 0.30597007 0.092432782 -0.0089105582 0.0037493773 7.071068e-011 7.071068e-011 7.071068e-011 7.071068e-011
6625225225.2252 0.024467373 -0.27281022 -0.0018385106 -0.0093175815 7.071068e-011 7.071068e-011 7.071068e-011 7.071068e-011
6633633633.6336 -0.16559571 0.16141824 0.0093577402 -0.00044614944 7.071068e-011 7.071068e-011 7.071068e-011 7.071068e-011
6642042042.042 0.28992683 0.11314682 -0.0018037336 0.0093509713 7.071068e-011 7.071068e-011 7.071068e-011 7.071068e-011
6650450450.4505 0.039039213 -0.25219268 -0.010768467 -0.0040362594 7.071068e-011 7.071068e-011 7.071068e-011 7.071068e-011
6658858858.8589 -0.14840947 0.13463724 0.0059231152 -0.011551408 7.071068e-011 7.071068e-011 7.071068e-011 7.071068e-011
6667267267.2673 0.22866727 0.101033 0.012274896 0.0091217179 7.071068e-011 7.071068e-011 7.071068e-011 7.071068e-011
6675675675.6757 0.042620309 -0.15098292 -0.011491206 0.013917271 7.071068e-011 7.071068e-011 7.071068e-011 7.071068e-011
6684084084.0841 -0.044123143 0.084101714 -0.014713788 -0.0133076 7.071068e-011 7.071068e-011 7.071068e-011 7.071068e-011
6692492492.4925 0.10554548 0.047616556 0.014764756 -0.015049758 7.071068e-011 7.071068e-011 7.071068e-011 7.071068e-011
6700900900.9009 0.08622817 0.018114865 0.014890385 0.015351848 7.071068e-011 7.071068e-011 7.071068e-011 7.071068e-011
6709309309.3093 0.076942727 -0.041674413 -0.015501976 0.01322369 7.071068e-011 7.071068e-011 7.071068e-011 7.071068e-011
6717717717.7177 -0.030904606 0.034248982 -0.010253585 -0.016451683 7.071068e-011 7.071068e-011 7.071068e-011 7.071068e-011
6726126126.1261 0.15485448 0.11633223 0.016795624 -0.0071939356 7.071068e-011 7.071068e-011 7.071068e-011 7.071068e-011
6734534534.5345 0.12880403 -0.14064364 0.0036553282 0.016247811 7.071068e-011 7.071068e-011 7.071068e-011 7.071068e-011
6742942942.9429 -0.10806974 0.026625214 -0.015952008 -0.00018497313 7.071068e-011 7.071068e-011 7.071068e-011 7.071068e-011
6751351351.3514 0.17169632 0.15267128 0.0035314984 -0.015427339 7.071068e-011 7.071068e-011 7.071068e-011 7.071068e-011
6759759759.7598 0.15050758 -0.17167561 0.013255116 0.0070005283 7.071068e-011 7.071068e-011 7.071068e-011 7.071068e-011
6768168168.1682 -0.1467957 -0.005306249 -0.010812366 0.010498606 7.071068e-011 7.071068e-011 7.071068e-011 7.071068e-011
6776576576.5766 0.13397893 0.17870511 -0.0081003625 -0.013448129 7.071068e-011 7.071068e-011 7.071068e-011 7.071068e-011
6784984984.985 0.15119687 -0.14595591 0.014558924 -0.0041135638 7.071068e-011 7.071068e-011 7.071068e-011 7.071068e-011
6793393393.3934 -0.14734444 -0.0068193451 -0.00025468916 0.015552032 7.071068e-011 7.071068e-011 7.071068e-011 7.071068e-011
6801801801.8018 0.10139272 0.2028698 -0.015771976 -0.0042120288 7.071068e-011 7.071068e-011 7.071068e-011 7.071068e-011
6810210210.2102 0.17260468 -0.095057622 0.0086045824 -0.014512276 7.071068e-011 7.071068e-011 7.071068e-011 7.071068e-011
6818618618.6186 -0.10549628 -0.010249143 0.012246775 0.013186403 7.071068e-011 7.071068e-011 7.071068e-011 7.071068e-011
6827027027.027 0.08802367 0.18541662 -0.015936002 0.0093231285 7.071068e-011 7.071068e-011 7.071068e-011 7.071068e-011
6835435435.4354 0.18123311 -0.048773568 -0.0045998096 -0.017899353 7.071068e-011 7.071068e-011 7.071068e-011 7.071068e-011
6843843843.8438 -0.045158796 -0.027928293 0.020208308 0.00011887998 7.071068e-011 7.071068e-011 7.071068e-011 7.071068e-011
6852252252.2523 0.074477561 0.12907049 -0.0044627106 0.020360444 7.071068e-011 7.071068e-011 7.071068e-011 7.071068e-011
6860660660.6607 0.14531717 -0.020009497 -0.01869077 -0.0095068263 7.071068e-011 7.071068e-011 7.071068e-011 7.071068e-011
6869069069.0691 0.0040140916 -0.027315363 0.014441251 -0.016200282 7.071068e-011 7.071068e-011 7.071068e-011 7.071068e-011
6877477477.4775 0.054114871 0.07284753 0.012807729 0.018051166 7.071068e-011 7.071068e-011 7.071068e-011 7.071068e-011
6885885885.8859 0.090358265 0.0066217273 -0.02044021 0.0078401705 7.071068e-011 7.071068e-011 7.071068e-011 7.071068e-011
6894294294.2943 0.047157835 -0.00072993763 -0.0024504403 -0.022045253 7.071068e-011 7.071068e-011 7.071068e-011 7.071068e-011
6902702702.7027 0.038406324 0.019121267 0.022050438 0.0031093904 7.071068e-011 7.071068e-011 7.071068e-011 7.071068e-011
6911111111.1111 0.030743545 0.037872154 -0.0086579891 0.020304924 7.071068e-011 7.071068e-011 7.071068e-011 7.071068e-011
6919519519.5195 0.07856176 0.049775183 -0.017060136 -0.013521205 7.071068e-011 7.071068e-011 7.071068e-011 7.071068e-011
6927927927.9279 0.050431237 -0.0123116 0.017181937 -0.012899206 7.071068e-011 7.071068e-011 7.071068e-011 7.071068e-011
6936336336.3363 -0.0018637842 0.062204748 0.0074015404 0.019452561 7.071068e-011 7.071068e-011 7.071068e-011 7.071068e-011
6944744744.7447 0.11216363 0.089261301 -0.020858048 0.0012776201 7.071068e-011 7.071068e-011 7.071068e-011 7.071068e-011
6953153153.1532 0.084488653 -0.045368459 0.004374295 -0.020050371 7.071068e-011 7.071068e-011 7.071068e-011 7.071068e-011
6961561561.5616 -0.028464818 0.054226372 0.017429816 0.0098611619 7.071068e-011 7.071068e-011 7.071068e-011 7.071068e-011
6969969969.97 0.12473035 0.10613472 -0.014447247 0.013670929 7.071068e-011 7.071068e-011 7.071068e-011 7.071068e-011
6978378378.3784 0.10166664 -0.0710942 -0.0085156001 -0.017340697 7.071068e-011 7.071068e-011 7.071068e-011 7.071068e-011
6986786786.7868 -0.064157702 0.0330614 0.01873675 -0.0024168638 7.071068e-011 7.071068e-011 7.071068e-011 7.071068e-011
6995195195.1952 0.10318074 0.13364637 -0.0034262103 0.018961228 7.071068e-011 7.071068e-011 7.071068e-011 7.071068e-011
7003603603.6036 0.10862933 -0.057775401 -0.016677592 -0.0088046864 7.071068e-011 7.071068e-011 7.071068e-011 7.071068e-011
7012012012.012 -0.072431564 0.032481313 0.014055306 -0.012574269 7.071068e-011 7.071068e-011 7.071068e-011 7.071068e-011
7020420420.4204 0.087837853 0.16137463 0.0079120733 0.017298944 7.071068e-011 7.071068e-011 7.071068e-011 7.071068e-011
7028828828.8288 0.13278851 -0.028960248 -0.018543212 0.0019475605 7.071068e-011 7.071068e-011 7.071068e-011 7.071068e-011
7037237237.2372 -0.054188021 0.030591277 0.0042999806 -0.018705208 7.071068e-011 7.071068e-011 7.071068e-011 7.071068e-011
7045645645.6456 0.090221271 0.1710951 0.016542431 0.0096997675 7.071068e-011 7.071068e-011 7.071068e-011 7.071068e-011
7054054054.0541 0.16752082 -0.0033952403 -0.014609812 0.012166051 7.071068e-011 7.071068e-011 7.071068e-011 7.071068e-011
7062462462.4625 -0.0082345055 -0.0036750359 -0.0069747907 -0.018442513 7.071068e-011 7.071068e-011 7.071068e-011 7.071068e-011
7070870870.8709 0.078493692 0.14016111 0.019783273 -0.0013349168 7.071068e-011 7.071068e-011 7.071068e-011 7.071068e-011
7079279279.2793 0.16808414 0.0074659642 -0.0054243263 0.018850831 7.071068e-011 7.071068e-011 7.071068e-011 7.071068e-011
7087687687.6877 0.032762766 -0.027027968 -0.016737618 -0.011386264 7.071068e-011 7.071068e-011 7.071068e-011 7.071068e-011
7096096096.0961 0.059278585 0.089305848 0.015878774 -0.012599953 7.071068e-011 7.071068e-011 7.071068e-011 7.071068e-011
7104504504.5045 0.14802061 0.010407914 0.0066696675 0.019120518 7.071068e-011 7.071068e-011 7.071068e-011 7.071068e-011
7112912912.9129 0.050615054 -0.04477293 -0.020671226 1.296478e-005 7.071068e-011 7.071068e-011 7.071068e-011 7.071068e-011
7121321321.3213 0.034549329 0.032139849 0.0061790561 -0.019914053 7.071068e-011 7.071068e-011 7.071068e-011 7.071068e-011
7129729729.7297 0.089262865 0.014195742 0.016555097 0.011976895 7.071068e-011 7.071068e-011 7.071068e-011 7.071068e-011
7138138138.1381 0.04332938 -0.037519593 -0.017121624 0.011841083 7.071068e-011 7.071068e-011 7.071068e-011 7.071068e-011
7146546546.5465 -0.00036291895 0.013387618 -0.0059996909 -0.020096151 7.071068e-011 7.071068e-011 7.071068e-011 7.071068e-011
7154954954.955 0.030430382 0.041526955 0.020824557 0.00070731255 7.071068e-011 7.071068e-011 7.071068e-011 7.071068e-011
7163363363.3634 0.04522375 0.015591552 -0.0075365817 0.019165449 7.071068e-011 7.071068e-011 7.071068e-011 7.071068e-011
7171771771.7718 0.00088032143 0.020329719 -0.01585052 -0.013390145 7.071068e-011 7.071068e-011 7.071068e-011 7.071068e-011
7180180180.1802 0.018747253 0.072577141 0.01757467 -0.010523399 7.071068e-011 7.071068e-011 7.071068e-011 7.071068e-011
7188588588.5886 0.067532942 0.056008108 0.0040279846 0.020454917 7.071068e-011 7.071068e-011 7.071068e-011 7.071068e-011
7196996996.997 0.04002424 0.010327957 -0.02065769 -0.0025964787 7.071068e-011 7.071068e-011 7.071068e-011 7.071068e-011
7205405405.4054 0.012235544 0.066882871 0.0094241947 -0.018093184 7.071068e-011 7.071068e-011 7.071068e-011 7.071068e-011
7213813813.8138 0.083174318 0.067494236 0.01397251 0.015102336 7.071068e-011 7.071068e-011 7.071068e-011 7.071068e-011
7222222222.2222 0.066337481 -0.0057455343 -0.018942755 0.0083654812 7.071068e-011 7.071068e-011 7.071068e-011 7.071068e-011
7230630630.6306 -0.0015236509 0.035355046 -0.0015858442 -0.02049407 7.071068e-011 7.071068e-011 7.071068e-011 7.071068e-011
7239039039.039 0.0717998 0.075450882 0.020005956 0.0057244701 7.071068e-011 7.071068e-011 7.071068e-011 7.071068e-011
7247447447.4474 0.074948497 -0.014764542 -0.011914819 0.017077129 7.071068e-011 7.071068e-011 7.071068e-011 7.071068e-011
7255855855.8559 -0.016322784 0.0074037523 -0.011727963 -0.016962256 7.071068e-011 7.071068e-011 7.071068e-011 7.071068e-011
7264264264.2643 0.034640063 0.083910316 0.020115601 -0.0054964134 7.071068e-011 7.071068e-011 7.071068e-011 7.071068e-011
7272672672.6727 0.074542545 0.00087094615 -0.0013695909 0.02057782 7.071068e-011 7.071068e-011 7.071068e-011 7.071068e-011
7281081081.0811 -0.029930716 0.00053905457 -0.018810442 -0.0083204256 7.071068e-011 7.071068e-011 7.071068e-011 7.071068e-011
7289489489.4895 -5.2094809e-005 0.10786847 0.014601089 -0.014736814 7.071068e-011 7.071068e-011 7.071068e-011 7.071068e-011
7297897897.8979 0.085092925 0.050411183 0.0089477971 0.018772226 7.071068e-011 7.071068e-011 7.071068e-011 7.071068e-011
7306306306.3063 0.00086875068 0.0090494463 -0.020574369 0.0017229363 7.071068e-011 7.071068e-011 7.071068e-011 7.071068e-011
7314714714.7147 0.0043569379 0.1126954 0.0052667898 -0.020339506 7.071068e-011 7.071068e-011 7.071068e-011 7.071068e-011
7323123123.1231 0.11239037 0.075365119 0.017101029 0.011632483 7.071068e-011 7.071068e-011 7.071068e-011 7.071068e-011
7331531531.5315 0.051498737 -0.011720337 -0.017274622 0.011844211 7.071068e-011 7.071068e-011 7.071068e-011 7.071068e-011
7339939939.9399 0.0076918029 0.068462305 -0.0054772766 -0.020546855 7.071068e-011 7.071068e-011 7.071068e-011 7.071068e-011
7348348348.3483 0.10562589 0.06391868 0.020964416 0.00176979 7.071068e-011 7.071068e-011 7.071068e-011 7.071068e-011
7356756756.7568 0.066103838 -0.037249956 -0.0090623433 0.018876912 7.071068e-011 7.071068e-011 7.071068e-011 7.071068e-011
7365165165.1652 -0.010289146 0.021133346 -0.014866389 -0.015087807 7.071068e-011 7.071068e-011 7.071068e-011 7.071068e-011
7373573573.5736 0.061685689 0.04961 0.018955993 -0.0087077189 7.071068e-011 7.071068e-011 7.071068e-011 7.071068e-011
7381981981.982 0.043728344 -0.035225503 0.001217243 0.02112131 7.071068e-011 7.071068e-011 7.071068e-011 7.071068e-011
7390390390.3904 -0.042809028 0.0096077854 -0.020390214 -0.0060268296 7.071068e-011 7.071068e-011 7.071068e-011 7.071068e-011
7398798798.7988 0.012679353 0.071171127 0.012793321 -0.01680419 7.071068e-011 7.071068e-011 7.071068e-011 7.071068e-011
7407207207.2072 0.028193166 0.0099771852 0.011335166 0.017925018 7.071068e-011 7.071068e-011 7.071068e-011 7.071068e-011
7415615615.6156 -0.041128784 0.035133179 -0.020868601 0.0045502372 7.071068e-011 7.071068e-011 7.071068e-011 7.071068e-011
7424024024.024 0.0068584997 0.10526799 0.0028990137 -0.021084568 7.071068e-011 7.071068e-011 7.071068e-011 7.071068e-011
7432432432.4324 0.054714181 0.05387038 0.018771714 0.010277488 7.071068e-011 7.071068e-011 7.071068e-011 7.071068e-011
7440840840.8408 0.0097008562 0.04258164 -0.016037649 0.014188739 7.071068e-011 7.071068e-011 7.071068e-011 7.071068e-011
7449249249.2492 0.030436303 0.086911328 -0.0074795927 -0.019823555 7.071068e-011 7.071068e-011 7.071068e-011 7.071068e-011
7457657657.6577 0.077683486 0.049100686 0.021264248 1.203018e-005 7.071068e-011 7.071068e-011 7.071068e-011 7.071068e-011
7466066066.0661 0.042052906 0.014056449 -0.0073812041 0.019998973 7.071068e-011 7.071068e-011 7.071068e-011 7.071068e-011
7474474474.4745 0.030211933 0.03921254 -0.016047191 -0.013731497 7.071068e-011 7.071068e-011 7.071068e-011 7.071068e-011
7482882882.8829 0.060083192 0.029292198 0.018575542 -0.0099452808 7.071068e-011 7.071068e-011 7.071068e-011 7.071068e-011
7491291291.2913 0.038776152 -0.013607807 0.0027993512 0.020931475 7.071068e-011 7.071068e-011 7.071068e-011 7.071068e-011
7499699699.6997 -0.0032791507 0.0026421449 -0.020416318 -0.0047718477 7.071068e-011 7.071068e-011 7.071068e-011 7.071068e-011
7508108108.1081 0.0033271408 0.031694759 0.011621971 -0.017420424 7.071068e-011 7.071068e-011 7.071068e-011 7.071068e-011
7516516516.5165 0.019242985 0.012160576 0.012125433 0.016907888 7.071068e-011 7.071068e-011 7.071068e-011 7.071068e-011
7524924924.9249 -0.026147978 0.0064518638 -0.019996064 0.0052261017 7.071068e-011 7.071068e-011 7.071068e-011 7.071068e-011
7533333333.3333 -0.030107263 0.06600529 0.0023909933 -0.020519501 7.071068e-011 7.071068e-011 7.071068e-011 7.071068e-011
7541741741.7417 0.028108174 0.068953395 0.018320031 0.0093630636 7.071068e-011 7.071068e-011 7.071068e-011 7.071068e-011
7550150150.1502 0.012794465 0.020438837 -0.015130807 0.013330707 7.071068e-011 7.071068e-011 7.071068e-011 7.071068e-011
7558558558.5586 -0.015174861 0.068624981 -0.0069833193 -0.01900653 7.071068e-011 7.071068e-011 7.071068e-011 7.071068e-011
7566966966.967 0.05550196 0.077878252 0.020019364 0.00034794887 7.071068e-011 7.071068e-011 7.071068e-011 7.071068e-011
7575375375.3754 0.053577974 0.0012175514 -0.0077873613 0.018527796 7.071068e-011 7.071068e-011 7.071068e-011 7.071068e-011
7583783783.7838 -0.011758995 0.02376397 -0.01450639 -0.013984617 7.071068e-011 7.071068e-011 7.071068e-011 7.071068e-011
7592192192.1922 0.045247447 0.060783282 0.017953573 -0.0084461216 7.071068e-011 7.071068e-011 7.071068e-011 7.071068e-011
7600600600.6006 0.052051313 -0.024362607 0.0010115086 0.019479614 7.071068e-011 7.071068e-011 7.071068e-011 7.071068e-011
7609009009.009 -0.038211096 -0.010878081 -0.018918781 -0.0064060958 7.071068e-011 7.071068e-011 7.071068e-011 7.071068e-011
7617417417.4174 -0.004994703 0.058258019 0.012519527 -0.015397222 7.071068e-011 7.071068e-011 7.071068e-011 7.071068e-011
7625825825.8258 0.026273945 -0.0042495783 0.0095335431 0.017340763 7.071068e-011 7.071068e-011 7.071068e-011 7.071068e-011
7634234234.2342 -0.060533572 0.0041704834 -0.019542446 0.0025657108 7.071068e-011 7.071068e-011 7.071068e-011 7.071068e-011
7642642642.6426 -0.026636481 0.091374889 0.0048718313 -0.018947314 7.071068e-011 7.071068e-011 7.071068e-011 7.071068e-011
7651051051.0511 0.037432879 0.042780213 0.01584411 0.011605286 7.071068e-011 7.071068e-011 7.071068e-011 7.071068e-011
7659459459.4595 -0.029577157 0.017898664 -0.01670854 0.010791071 7.071068e-011 7.071068e-011 7.071068e-011 7.071068e-011
7667867867.8679 -0.011857119 0.10249283 -0.0040321294 -0.019093137 7.071068e-011 7.071068e-011 7.071068e-011 7.071068e-011
7676276276.2763 0.074063599 0.059088755 0.019115312 0.0038254892 7.071068e-011 7.071068e-011 7.071068e-011 7.071068e-011
7684684684.6847 0.02127126 -0.0040531978 -0.010658686 0.016682597 7.071068e-011 7.071068e-011 7.071068e-011 7.071068e-011
7693093093.0931 0.0007625873 0.054514688 -0.01157623 -0.015893605 7.071068e-011 7.071068e-011 7.071068e-011 7.071068e-011
7701501501.5015 0.070970863 0.032407925 0.018998981 -0.0049522668 7.071068e-011 7.071068e-011 7.071068e-011 7.071068e-011
7709909909.9099 0.023385404 -0.042241514 -0.0024873917 0.019545155 7.071068e-011 7.071068e-011 7.071068e-011 7.071068e-011
7718318318.3183 -0.033076506 0.01055082 -0.017295856 -0.0094865616 7.071068e-011 7.071068e-011 7.071068e-011 7.071068e-011
7726726726.7267 0.0241576 0.028039074 0.015370839 -0.012363695 7.071068e-011 7.071068e-011 7.071068e-011 7.071068e-011
7735135135.1351 0.0031723853 -0.041351564 0.0060835825 0.018921362 7.071068e-011 7.071068e-011 7.071068e-011 7.071068e-011
7743543543.5435 -0.075238787 -0.00030502403 -0.019544398 -0.0013101969 7.071068e-011 7.071068e-011 7.071068e-011 7.071068e-011
7751951951.952 -0.030255403 0.064408518 0.0085962228 -0.017746523 7.071068e-011 7.071068e-011 7.071068e-011 7.071068e-011
7760360360.3604 -0.0027392565 0.017349476 0.01335304 0.014566931 7.071068e-011 7.071068e-011 7.071068e-011 7.071068e-011
7768768768.7688 -0.058199488 0.028565206 -0.018541403 0.0069938563 7.071068e-011 7.071068e-011 7.071068e-011 7.071068e-011
7777177177.1772 -0.027312674 0.095291294 0.00046389908 -0.01973271 7.071068e-011 7.071068e-011 7.071068e-011 7.071068e-011
7785585585.5856 0.033749092 0.058311693 0.01819443 0.0077022002 7.071068e-011 7.071068e-011 7.071068e-011 7.071068e-011
7793993993.994 -0.0053048576 0.027574468 -0.013823538 0.013804096 7.071068e-011 7.071068e-011 7.071068e-011 7.071068e-011
7802402402.4024 -0.00077924639 0.074935235 -0.0077185826 -0.018332768 7.071068e-011 7.071068e-011 7.071068e-011 7.071068e-011
7810810810.8108 0.058247074 0.048998822 0.019783022 -0.00060536643 7.071068e-011 7.071068e-011 7.071068e-011 7.071068e-011
7819219219.2192 0.025875283 -0.0065371338 -0.0069983723 0.018392388 7.071068e-011 7.071068e-011 7.071068e-011 7.071068e-011
7827627627.6276 -0.0035117248 0.026934616 -0.014500674 -0.013350477 7.071068e-011 7.071068e-011 7.071068e-011 7.071068e-011
7836036036.036 0.037376523 0.02560791 0.017783199 -0.0084684128 7.071068e-011 7.071068e-011 7.071068e-011 7.071068e-011
7844444444.4444 0.016590962 -0.02352893 0.0012532729 0.019713087 7.071068e-011 7.071068e-011 7.071068e-011 7.071068e-011
7852852852.8529 -0.028176522 0.002716538 -0.01884388 -0.0062330053 7.071068e-011 7.071068e-011 7.071068e-011 7.071068e-011
7861261261.2613 0.0014536587 0.02969712 0.012677052 -0.015148016 7.071068e-011 7.071068e-011 7.071068e-011 7.071068e-011
7869669669.6697 0.0057676164 -0.0092830146 0.0091518806 0.017505832 7.071068e-011 7.071068e-011 7.071068e-011 7.071068e-011
7878078078.0781 -0.040611003 0.0033204313 -0.0198048 0.002111546 7.071068e-011 7.071068e-011 7.071068e-011 7.071068e-011
7886486486.4865 -0.024257042 0.04700987 0.0052350448 -0.019068394 7.071068e-011 7.071068e-011 7.071068e-011 7.071068e-011
7894894894.8949 0.010762338 0.030167468 0.015498318 0.011868662 7.071068e-011 7.071068e-011 7.071068e-011 7.071068e-011
7903303303.3033 -0.013379866 0.011296674 -0.017015764 0.0098172771 7.071068e-011 7.071068e-011 7.071068e-011 7.071068e-011
7911711711.7117 -0.01785985 0.043647598 -0.0029047844 -0.019462019 7.071068e-011 7.071068e-011 7.071068e-011 7.071068e-011
7920120120.1201 0.022945726 0.045159604 0.018930847 0.0045975479 7.071068e-011 7.071068e-011 7.071068e-011 7.071068e-011
7928528528.5285 0.023857353 0.0018092457 -0.011356059 0.015810983 7.071068e-011 7.071068e-011 7.071068e-011 7.071068e-011
7936936936.9369 -0.01018783 0.011186352 -0.010278216 -0.016325932 7.071068e-011 7.071068e-011 7.071068e-011 7.071068e-011
7945345345.3453 0.018009281 0.032141972 0.019011848 -0.0032266884 7.071068e-011 7.071068e-011 7.071068e-011 7.071068e-011
