!Keysight Technologies,N5235B,MY61252044,A.15.00.15
!Date: Friday, January 20, 2023 19:04:06
!Correction: S11(Off) 
!S21(Off) 
!S12(Off) 
!S22(Off) 
!S2P File: Measurements: S11, S21, S12, S22:
# Hz S  RI   R 50
6600000000 0.016941201 -0.17437172 0.014909179 -0.0052299551 7.071068e-011 7.071068e-011 7.071068e-011 7.071068e-011
6608400000 -0.12354361 0.1666178 0.0067837043 0.010013242 7.071068e-011 7.071068e-011 7.071068e-011 7.071068e-011
6616800000 0.30691564 0.09162537 -0.0083394218 0.0048846547 7.071068e-011 7.071068e-011 7.071068e-011 7.071068e-011
6625200000 0.023604341 -0.27300936 -0.0029911431 -0.0090014944 7.071068e-011 7.071068e-011 7.071068e-011 7.071068e-011
6633600000 -0.16577944 0.16158691 0.0092193875 -0.001589435 7.071068e-011 7.071068e-011 7.071068e-011 7.071068e-011
6642000000 0.29036823 0.11389551 -0.00067661668 0.0094693406 7.071068e-011 7.071068e-011 7.071068e-011 7.071068e-011
6650400000 0.039657429 -0.2527217 -0.011124186 -0.0027910897 7.071068e-011 7.071068e-011 7.071068e-011 7.071068e-011
6658800000 -0.14911945 0.13341509 0.0046124882 -0.01211523 7.071068e-011 7.071068e-011 7.071068e-011 7.071068e-011
6667200000 0.22802763 0.10349195 0.013104433 0.007729786 7.071068e-011 7.071068e-011 7.071068e-011 7.071068e-011
6675600000 0.044481248 -0.15277016 -0.01003735 0.014914061 7.071068e-011 7.071068e-011 7.071068e-011 7.071068e-011
6684000000 -0.045444425 0.084218815 -0.015889622 -0.011867298 7.071068e-011 7.071068e-011 7.071068e-011 7.071068e-011
6692400000 0.10550024 0.048472241 0.013290911 -0.016287442 7.071068e-011 7.071068e-011 7.071068e-011 7.071068e-011
6700800000 0.086045831 0.017205456 0.01609244 0.014013295 7.071068e-011 7.071068e-011 7.071068e-011 7.071068e-011
6709200000 0.077914417 -0.040041197 -0.01443499 0.014449428 7.071068e-011 7.071068e-011 7.071068e-011 7.071068e-011
6717600000 -0.031386536 0.031856827 -0.01153628 -0.015626231 7.071068e-011 7.071068e-011 7.071068e-011 7.071068e-011
6726000000 0.15298747 0.11789591 0.016190505 -0.0084421709 7.071068e-011 7.071068e-011 7.071068e-011 7.071068e-011
6734400000 0.13169414 -0.13852239 0.0048079924 0.015938168 7.071068e-011 7.071068e-011 7.071068e-011 7.071068e-011
6742800000 -0.10800152 0.021796165 -0.01593405 0.00090794021 7.071068e-011 7.071068e-011 7.071068e-011 7.071068e-011
6751200000 0.16726337 0.15571851 0.0025606868 -0.015630042 7.071068e-011 7.071068e-011 7.071068e-011 7.071068e-011
6759600000 0.15591507 -0.16870706 0.013645946 0.0062145004 7.071068e-011 7.071068e-011 7.071068e-011 7.071068e-011
6768000000 -0.14685647 -0.012018701 -0.010208835 0.01105643 7.071068e-011 7.071068e-011 7.071068e-011 7.071068e-011
6776400000 0.12858565 0.18195637 -0.0087515749 -0.013025611 7.071068e-011 7.071068e-011 7.071068e-011 7.071068e-011
6784800000 0.15670148 -0.14213468 0.014334837 -0.0048034163 7.071068e-011 7.071068e-011 7.071068e-011 7.071068e-011
6793200000 -0.14654778 -0.014517169 0.00041495837 0.015524385 7.071068e-011 7.071068e-011 7.071068e-011 7.071068e-011
6801600000 0.094881371 0.2056694 -0.015927119 -0.0036117977 7.071068e-011 7.071068e-011 7.071068e-011 7.071068e-011
6810000000 0.17712043 -0.090218976 0.0081205824 -0.014796365 7.071068e-011 7.071068e-011 7.071068e-011 7.071068e-011
6818400000 -0.10285085 -0.017919721 0.012571382 0.012776205 7.071068e-011 7.071068e-011 7.071068e-011 7.071068e-011
6826800000 0.080257706 0.18792737 -0.015669636 0.0096757412 7.071068e-011 7.071068e-011 7.071068e-011 7.071068e-011
6835200000 0.18572955 -0.044293303 -0.0049670064 -0.017767582 7.071068e-011 7.071068e-011 7.071068e-011 7.071068e-011
6843600000 -0.042581249 -0.033265691 0.020199748 -0.00019434051 7.071068e-011 7.071068e-011 7.071068e-011 7.071068e-011
6852000000 0.068504088 0.13011838 -0.0042198137 0.020421259 7.071068e-011 7.071068e-011 7.071068e-011 7.071068e-011
6860400000 0.14839047 -0.016514283 -0.018738067 -0.0093561299 7.071068e-011 7.071068e-011 7.071068e-011 7.071068e-011
6868800000 0.0061222496 -0.030171139 0.014377753 -0.016216975 7.071068e-011 7.071068e-011 7.071068e-011 7.071068e-011
6877200000 0.050694771 0.072423331 0.012783722 0.018071281 7.071068e-011 7.071068e-011 7.071068e-011 7.071068e-011
6885600000 0.091947965 0.0088827061 -0.020456843 0.0077645932 7.071068e-011 7.071068e-011 7.071068e-011 7.071068e-011
6894000000 0.047729444 -0.0019183235 -0.0022430175 -0.022055414 7.071068e-011 7.071068e-011 7.071068e-011 7.071068e-011
6902400000 0.03830969 0.019345487 0.022009972 0.0034377526 7.071068e-011 7.071068e-011 7.071068e-011 7.071068e-011
6910800000 0.030958293 0.036124539 -0.0090299211 0.020144286 7.071068e-011 7.071068e-011 7.071068e-011 7.071068e-011
6919200000 0.076488651 0.051586218 -0.016776927 -0.013891361 7.071068e-011 7.071068e-011 7.071068e-011 7.071068e-011
6927600000 0.05372994 -0.011716853 0.017538037 -0.012477287 7.071068e-011 7.071068e-011 7.071068e-011 7.071068e-011
6936000000 -0.0032232946 0.057685755 0.0068625258 0.019721743 7.071068e-011 7.071068e-011 7.071068e-011 7.071068e-011
6944400000 0.10809738 0.093264662 -0.020900527 0.00057181797 7.071068e-011 7.071068e-011 7.071068e-011 7.071068e-011
6952800000 0.090097137 -0.043365423 0.005120391 -0.019903366 7.071068e-011 7.071068e-011 7.071068e-011 7.071068e-011
6961200000 -0.029044569 0.047580015 0.017018024 0.010565758 7.071068e-011 7.071068e-011 7.071068e-011 7.071068e-011
6969600000 0.11790927 0.11054821 -0.015080759 0.012993303 7.071068e-011 7.071068e-011 7.071068e-011 7.071068e-011
6978000000 0.10998753 -0.066549018 -0.0076863058 -0.017765364 7.071068e-011 7.071068e-011 7.071068e-011 7.071068e-011
6986400000 -0.063879073 0.023136716 0.018856522 -0.0014491666 7.071068e-011 7.071068e-011 7.071068e-011 7.071068e-011
6994800000 0.094361737 0.13793193 -0.0045477748 0.018758206 7.071068e-011 7.071068e-011 7.071068e-011 7.071068e-011
7003200000 0.11730596 -0.051735107 -0.01616637 -0.0098638469 7.071068e-011 7.071068e-011 7.071068e-011 7.071068e-011
7011600000 -0.071404211 0.02129207 0.01482855 -0.011624216 7.071068e-011 7.071068e-011 7.071068e-011 7.071068e-011
7020000000 0.078060806 0.16483639 0.006711307 0.017802523 7.071068e-011 7.071068e-011 7.071068e-011 7.071068e-011
7028400000 0.13967998 -0.021515185 -0.018646302 0.00063361775 7.071068e-011 7.071068e-011 7.071068e-011 7.071068e-011
7036800000 -0.050817907 0.019707518 0.0057513621 -0.018307816 7.071068e-011 7.071068e-011 7.071068e-011 7.071068e-011
7045200000 0.078733727 0.17301989 0.015718849 0.01104323 7.071068e-011 7.071068e-011 7.071068e-011 7.071068e-011
7053600000 0.17297307 0.0060747359 -0.015590946 0.010875354 7.071068e-011 7.071068e-011 7.071068e-011 7.071068e-011
7062000000 -0.0027142148 -0.012772485 -0.0052475114 -0.019002257 7.071068e-011 7.071068e-011 7.071068e-011 7.071068e-011
7070400000 0.068220235 0.14029667 0.019877024 0.00053547276 7.071068e-011 7.071068e-011 7.071068e-011 7.071068e-011
7078800000 0.17139043 0.016067149 -0.0072103348 0.018212326 7.071068e-011 7.071068e-011 7.071068e-011 7.071068e-011
7087200000 0.03873565 -0.032399196 -0.01546672 -0.013054067 7.071068e-011 7.071068e-011 7.071068e-011 7.071068e-011
7095600000 0.052118592 0.087334372 0.01718832 -0.010866941 7.071068e-011 7.071068e-011 7.071068e-011 7.071068e-011
7104000000 0.14875382 0.017442729 0.0045314254 0.019772872 7.071068e-011 7.071068e-011 7.071068e-011 7.071068e-011
7112400000 0.056822132 -0.046435256 -0.020500382 -0.0023508677 7.071068e-011 7.071068e-011 7.071068e-011 7.071068e-011
7120800000 0.030869292 0.028294703 0.0085258521 -0.019030094 7.071068e-011 7.071068e-011 7.071068e-011 7.071068e-011
7129200000 0.089026608 0.018982284 0.014981235 0.013938705 7.071068e-011 7.071068e-011 7.071068e-011 7.071068e-011
7137600000 0.047498692 -0.03803299 -0.018531218 0.0095677665 7.071068e-011 7.071068e-011 7.071068e-011 7.071068e-011
7146000000 -0.00017136826 0.0096969772 -0.0033189661 -0.020768631 7.071068e-011 7.071068e-011 7.071068e-011 7.071068e-011
7154400000 0.028152291 0.041888881 0.020562248 0.0035177134 7.071068e-011 7.071068e-011 7.071068e-011 7.071068e-011
7162800000 0.046227746 0.017158274 -0.010110314 0.017932085 7.071068e-011 7.071068e-011 7.071068e-011 7.071068e-011
7171200000 0.003448548 0.017844493 -0.013788856 -0.015548948 7.071068e-011 7.071068e-011 7.071068e-011 7.071068e-011
7179600000 0.014718817 0.07012447 0.018991973 -0.0079009486 7.071068e-011 7.071068e-011 7.071068e-011 7.071068e-011
7188000000 0.066433288 0.059909754 0.00088161213 0.020823626 7.071068e-011 7.071068e-011 7.071068e-011 7.071068e-011
7196400000 0.043828167 0.010221093 -0.019999491 -0.0058161244 7.071068e-011 7.071068e-011 7.071068e-011 7.071068e-011
7204800000 0.010111849 0.062624149 0.012165316 -0.016344724 7.071068e-011 7.071068e-011 7.071068e-011 7.071068e-011
7213200000 0.079038218 0.071489707 0.011336763 0.017195379 7.071068e-011 7.071068e-011 7.071068e-011 7.071068e-011
7221600000 0.071789585 -0.0025963588 -0.020147042 0.0051021432 7.071068e-011 7.071068e-011 7.071068e-011 7.071068e-011
7230000000 -0.00075121602 0.028632462 0.0019287659 -0.02054471 7.071068e-011 7.071068e-011 7.071068e-011 7.071068e-011
7238400000 0.064833209 0.078680761 0.018680286 0.0091482382 7.071068e-011 7.071068e-011 7.071068e-011 7.071068e-011
7246800000 0.081145316 -0.0094223777 -0.014819342 0.014667388 7.071068e-011 7.071068e-011 7.071068e-011 7.071068e-011
7255200000 -0.013007496 6.0110993e-005 -0.0084412713 -0.018791853 7.071068e-011 7.071068e-011 7.071068e-011 7.071068e-011
7263600000 0.026957221 0.084058233 0.020783754 -0.0016404518 7.071068e-011 7.071068e-011 7.071068e-011 7.071068e-011
7272000000 0.078624934 0.0079743331 -0.0052564745 0.019987168 7.071068e-011 7.071068e-011 7.071068e-011 7.071068e-011
7280400000 -0.023541305 -0.0062115365 -0.016858775 -0.011870739 7.071068e-011 7.071068e-011 7.071068e-011 7.071068e-011
7288800000 -0.0089073032 0.10314462 0.017268354 -0.011492701 7.071068e-011 7.071068e-011 7.071068e-011 7.071068e-011
7297200000 0.084852569 0.059864998 0.0049205236 0.020222053 7.071068e-011 7.071068e-011 7.071068e-011 7.071068e-011
7305600000 0.008725781 0.0044438276 -0.020495499 -0.0025220974 7.071068e-011 7.071068e-011 7.071068e-011 7.071068e-011
7314000000 -0.0039977636 0.10619441 0.0094548436 -0.018813444 7.071068e-011 7.071068e-011 7.071068e-011 7.071068e-011
7322400000 0.10871254 0.085632548 0.014267647 0.015034203 7.071068e-011 7.071068e-011 7.071068e-011 7.071068e-011
7330800000 0.060359079 -0.011708093 -0.019413671 0.0077275089 7.071068e-011 7.071068e-011 7.071068e-011 7.071068e-011
7339200000 0.0040508443 0.060758188 -0.00068825932 -0.021253986 7.071068e-011 7.071068e-011 7.071068e-011 7.071068e-011
7347600000 0.099150479 0.07215409 0.020022973 0.0064683934 7.071068e-011 7.071068e-011 7.071068e-011 7.071068e-011
7356000000 0.076052919 -0.033583034 -0.0131319 0.016251052 7.071068e-011 7.071068e-011 7.071068e-011 7.071068e-011
7364400000 -0.010134762 0.012363805 -0.010844935 -0.018196747 7.071068e-011 7.071068e-011 7.071068e-011 7.071068e-011
7372800000 0.054611091 0.054763742 0.020591727 -0.0039570411 7.071068e-011 7.071068e-011 7.071068e-011 7.071068e-011
7381200000 0.053017229 -0.030886257 -0.003960622 0.020787289 7.071068e-011 7.071068e-011 7.071068e-011 7.071068e-011
7389600000 -0.040879767 0.00051477237 -0.018264931 -0.010882177 7.071068e-011 7.071068e-011 7.071068e-011 7.071068e-011
7398000000 0.0054835491 0.072025597 0.016555328 -0.013034374 7.071068e-011 7.071068e-011 7.071068e-011 7.071068e-011
7406400000 0.033017304 0.014896592 0.0063868952 0.020217031 7.071068e-011 7.071068e-011 7.071068e-011 7.071068e-011
7414800000 -0.038002439 0.027246729 -0.021353738 -0.0010220298 7.071068e-011 7.071068e-011 7.071068e-011 7.071068e-011
7423200000 -0.0017389202 0.10357829 0.0083620604 -0.01958693 7.071068e-011 7.071068e-011 7.071068e-011 7.071068e-011
7431600000 0.055568069 0.06068347 0.015290643 0.014923741 7.071068e-011 7.071068e-011 7.071068e-011 7.071068e-011
7440000000 0.013346357 0.038357817 -0.019345406 0.0092712333 7.071068e-011 7.071068e-011 7.071068e-011 7.071068e-011
7448400000 0.024058212 0.085612692 -0.0017551304 -0.021143008 7.071068e-011 7.071068e-011 7.071068e-011 7.071068e-011
7456800000 0.077472828 0.05540723 0.020424748 0.0059389411 7.071068e-011 7.071068e-011 7.071068e-011 7.071068e-011
7465200000 0.046096615 0.013910479 -0.012754098 0.017092392 7.071068e-011 7.071068e-011 7.071068e-011 7.071068e-011
7473600000 0.028572815 0.036970723 -0.011447517 -0.017793823 7.071068e-011 7.071068e-011 7.071068e-011 7.071068e-011
7482000000 0.058338497 0.033250675 0.020654708 -0.0041049221 7.071068e-011 7.071068e-011 7.071068e-011 7.071068e-011
7490400000 0.043646015 -0.010809661 -0.0035206468 0.020834999 7.071068e-011 7.071068e-011 7.071068e-011 7.071068e-011
7498800000 -0.0007609544 -0.0015656262 -0.018056327 -0.010633016 7.071068e-011 7.071068e-011 7.071068e-011 7.071068e-011
7507200000 0.00048936845 0.030961007 0.016369503 -0.013071665 7.071068e-011 7.071068e-011 7.071068e-011 7.071068e-011
7515600000 0.020679595 0.015376941 0.0063313642 0.01986176 7.071068e-011 7.071068e-011 7.071068e-011 7.071068e-011
7524000000 -0.02106967 0.0031282417 -0.020684609 -0.0012681063 7.071068e-011 7.071068e-011 7.071068e-011 7.071068e-011
7532400000 -0.034136433 0.060057271 0.0087370565 -0.018737178 7.071068e-011 7.071068e-011 7.071068e-011 7.071068e-011
7540800000 0.022692392 0.073255584 0.014419029 0.01472457 7.071068e-011 7.071068e-011 7.071068e-011 7.071068e-011
7549200000 0.019565066 0.022359394 -0.018582378 0.0077979174 7.071068e-011 7.071068e-011 7.071068e-011 7.071068e-011
7557600000 -0.018452875 0.060964063 -0.00039074285 -0.020266697 7.071068e-011 7.071068e-011 7.071068e-011 7.071068e-011
7566000000 0.04785626 0.083629921 0.018861882 0.0069582625 7.071068e-011 7.071068e-011 7.071068e-011 7.071068e-011
7574400000 0.060947459 0.0078330608 -0.013515355 0.014861908 7.071068e-011 7.071068e-011 7.071068e-011 7.071068e-011
7582800000 -0.0099422606 0.015377667 -0.0088731814 -0.018025016 7.071068e-011 7.071068e-011 7.071068e-011 7.071068e-011
7591200000 0.036689587 0.064369395 0.019771984 -0.0017863193 7.071068e-011 7.071068e-011 7.071068e-011 7.071068e-011
7599600000 0.059181031 -0.01506009 -0.0057171015 0.018681269 7.071068e-011 7.071068e-011 7.071068e-011 7.071068e-011
7608000000 -0.030942434 -0.020568855 -0.015482998 -0.012655658 7.071068e-011 7.071068e-011 7.071068e-011 7.071068e-011
7616400000 -0.015021836 0.056717511 0.017217243 -0.010029174 7.071068e-011 7.071068e-011 7.071068e-011 7.071068e-011
7624800000 0.031528778 0.0051072463 0.0027019775 0.019564521 7.071068e-011 7.071068e-011 7.071068e-011 7.071068e-011
7633200000 -0.052671023 -0.0062670354 -0.019136788 -0.0046641561 7.071068e-011 7.071068e-011 7.071068e-011 7.071068e-011
7641600000 -0.03833732 0.08687982 0.011397611 -0.015886188 7.071068e-011 7.071068e-011 7.071068e-011 7.071068e-011
7650000000 0.037783138 0.053129766 0.010475607 0.016605534 7.071068e-011 7.071068e-011 7.071068e-011 7.071068e-011
7658400000 -0.020942334 0.011696734 -0.019553881 0.0037531054 7.071068e-011 7.071068e-011 7.071068e-011 7.071068e-011
7666800000 -0.022788143 0.095820077 0.0034749974 -0.019283274 7.071068e-011 7.071068e-011 7.071068e-011 7.071068e-011
7675200000 0.069563992 0.071664192 0.016171528 0.010781521 7.071068e-011 7.071068e-011 7.071068e-011 7.071068e-011
7683600000 0.031996444 -0.0040545058 -0.016285002 0.011271847 7.071068e-011 7.071068e-011 7.071068e-011 7.071068e-011
7692000000 -0.0052884188 0.046870202 -0.0045740833 -0.019177213 7.071068e-011 7.071068e-011 7.071068e-011 7.071068e-011
7700400000 0.065762863 0.043884467 0.019472906 0.0028294064 7.071068e-011 7.071068e-011 7.071068e-011 7.071068e-011
7708800000 0.035678886 -0.039813284 -0.010010274 0.016951835 7.071068e-011 7.071068e-011 7.071068e-011 7.071068e-011
7717200000 -0.033722773 0.0007812999 -0.012025664 -0.015650755 7.071068e-011 7.071068e-011 7.071068e-011 7.071068e-011
7725600000 0.016913915 0.033804387 0.019017801 -0.0051047578 7.071068e-011 7.071068e-011 7.071068e-011 7.071068e-011
7734000000 0.013999107 -0.035644852 -0.0021601187 0.019777324 7.071068e-011 7.071068e-011 7.071068e-011 7.071068e-011
7742400000 -0.070700496 -0.012265245 -0.017306039 -0.0091843596 7.071068e-011 7.071068e-011 7.071068e-011 7.071068e-011
7750800000 -0.040636286 0.062400013 0.015237818 -0.012558054 7.071068e-011 7.071068e-011 7.071068e-011 7.071068e-011
7759200000 0.0015568919 0.025337925 0.0060244338 0.018907927 7.071068e-011 7.071068e-011 7.071068e-011 7.071068e-011
7767600000 -0.053350221 0.019403215 -0.019788761 -0.0014648077 7.071068e-011 7.071068e-011 7.071068e-011 7.071068e-011
7776000000 -0.037802972 0.091031961 0.0087522296 -0.01763862 7.071068e-011 7.071068e-011 7.071068e-011 7.071068e-011
7784400000 0.031523153 0.06802325 0.013118553 0.014785968 7.071068e-011 7.071068e-011 7.071068e-011 7.071068e-011
7792800000 0.0011981879 0.024807706 -0.018473655 0.006530127 7.071068e-011 7.071068e-011 7.071068e-011 7.071068e-011
7801200000 -0.0075586061 0.070235059 0.0010972189 -0.019858129 7.071068e-011 7.071068e-011 7.071068e-011 7.071068e-011
7809600000 0.053056054 0.058445886 0.018059652 0.0082224533 7.071068e-011 7.071068e-011 7.071068e-011 7.071068e-011
7818000000 0.0353598 -0.0042750901 -0.014423971 0.013335665 7.071068e-011 7.071068e-011 7.071068e-011 7.071068e-011
7826400000 -0.0055748927 0.020761207 -0.0069950805 -0.018472871 7.071068e-011 7.071068e-011 7.071068e-011 7.071068e-011
7834800000 0.032558106 0.031671535 0.019732749 0.00043934508 7.071068e-011 7.071068e-011 7.071068e-011 7.071068e-011
7843200000 0.025315454 -0.01975264 -0.0078630345 0.018177053 7.071068e-011 7.071068e-011 7.071068e-011 7.071068e-011
7851600000 -0.026873663 -0.004573381 -0.013878333 -0.01419926 7.071068e-011 7.071068e-011 7.071068e-011 7.071068e-011
7860000000 -0.0040518162 0.030755283 0.018283689 -0.0075796735 7.071068e-011 7.071068e-011 7.071068e-011 7.071068e-011
7868400000 0.010284889 -0.0035228299 -6.4133077e-005 0.019740021 7.071068e-011 7.071068e-011 7.071068e-011 7.071068e-011
7876800000 -0.036141884 -0.0037647046 -0.018484954 -0.0074777873 7.071068e-011 7.071068e-011 7.071068e-011 7.071068e-011
7885200000 -0.030620191 0.043412767 0.013680856 -0.014338536 7.071068e-011 7.071068e-011 7.071068e-011 7.071068e-011
7893600000 0.0088582654 0.036262713 0.0079875225 0.017880259 7.071068e-011 7.071068e-011 7.071068e-011 7.071068e-011
7902000000 -0.0082790842 0.0092154788 -0.019657835 0.00038739078 7.071068e-011 7.071068e-011 7.071068e-011 7.071068e-011
7910400000 -0.02145192 0.039130289 0.0069431746 -0.018515913 7.071068e-011 7.071068e-011 7.071068e-011 7.071068e-011
7918800000 0.017164622 0.048949696 0.014352706 0.013218318 7.071068e-011 7.071068e-011 7.071068e-011 7.071068e-011
7927200000 0.028500037 0.0074203731 -0.017669681 0.0081989011 7.071068e-011 7.071068e-011 7.071068e-011 7.071068e-011
7935600000 -0.007912186 0.0058280444 -0.00084169628 -0.019331561 7.071068e-011 7.071068e-011 7.071068e-011 7.071068e-011
7944000000 0.010875493 0.033153523 0.018162686 0.0066911327 7.071068e-011 7.071068e-011 7.071068e-011 7.071068e-011
7952400000 0.037577499 -0.0055301683 -0.013131329 0.014229575 7.071068e-011 7.071068e-011 7.071068e-011 7.071068e-011
7960800000 -0.015037538 -0.033476379 -0.0082666604 -0.017474284 7.071068e-011 7.071068e-011 7.071068e-011 7.071068e-011
7969200000 -0.029229451 0.020905787 0.019015595 -0.00090023055 7.071068e-011 7.071068e-011 7.071068e-011 7.071068e-011
7977600000 0.020078596 0.006774798 -0.0065552588 0.017900784 7.071068e-011 7.071068e-011 7.071068e-011 7.071068e-011
7986000000 -0.024283025 -0.03970319 -0.01409195 -0.012835947 7.071068e-011 7.071068e-011 7.071068e-011 7.071068e-011
7994400000 -0.065277703 0.024784295 0.017162431 -0.00813198 7.071068e-011 7.071068e-011 7.071068e-011 7.071068e-011
