!Keysight Technologies,N5235B,MY61252044,A.15.00.15
!Date: Friday, January 20, 2023 20:24:31
!Correction: S11(Off) 
!S21(Off) 
!S12(Off) 
!S22(Off) 
!S2P File: Measurements: S11, S21, S12, S22:
# Hz S  RI   R 50
6600000000 0.01704376 -0.17455569 0.014900297 -0.0052669235 7.071068e-011 7.071068e-011 7.071068e-011 7.071068e-011
6601680336.0672 -0.060363274 -0.15830697 0.0033215682 -0.014820245 7.071068e-011 7.071068e-011 7.071068e-011 7.071068e-011
6603360672.1344 -0.12828942 -0.10454442 -0.010322222 -0.010306342 7.071068e-011 7.071068e-011 7.071068e-011 7.071068e-011
6605041008.2016 -0.16813156 -0.020954799 -0.013533906 0.0030016941 7.071068e-011 7.071068e-011 7.071068e-011 7.071068e-011
6606721344.2689 -0.16749634 0.076234154 -0.0046310099 0.012134355 7.071068e-011 7.071068e-011 7.071068e-011 7.071068e-011
6608401680.3361 -0.12364533 0.16663817 0.0068150819 0.0099950284 7.071068e-011 7.071068e-011 7.071068e-011 7.071068e-011
6610082016.4033 -0.043939602 0.23137759 0.011361197 0.00036444547 7.071068e-011 7.071068e-011 7.071068e-011 7.071068e-011
6611762352.4705 0.056892045 0.25745636 0.0067714513 -0.0084701777 7.071068e-011 7.071068e-011 7.071068e-011 7.071068e-011
6613442688.5377 0.16060235 0.23976816 -0.0026281797 -0.010121586 7.071068e-011 7.071068e-011 7.071068e-011 7.071068e-011
6615123024.6049 0.24898718 0.18121669 -0.0093317656 -0.0038093736 7.071068e-011 7.071068e-011 7.071068e-011 7.071068e-011
6616803360.6721 0.30696148 0.091560036 -0.0083260555 0.0049066371 7.071068e-011 7.071068e-011 7.071068e-011 7.071068e-011
6618483696.7393 0.32471094 -0.014583171 -0.0012658156 0.0092164222 7.071068e-011 7.071068e-011 7.071068e-011 7.071068e-011
6620164032.8066 0.29873443 -0.12009564 0.0062129977 0.006665335 7.071068e-011 7.071068e-011 7.071068e-011 7.071068e-011
6621844368.8738 0.2322657 -0.20761488 0.0091277175 -0.00061367574 7.071068e-011 7.071068e-011 7.071068e-011 7.071068e-011
6623524704.941 0.13527538 -0.26199871 0.0052695279 -0.0077050696 7.071068e-011 7.071068e-011 7.071068e-011 7.071068e-011
6625205041.0082 0.023384562 -0.27298012 -0.0030341665 -0.0089930538 7.071068e-011 7.071068e-011 7.071068e-011 7.071068e-011
6626885377.0754 -0.084430009 -0.23747504 -0.009030222 -0.0029269969 7.071068e-011 7.071068e-011 7.071068e-011 7.071068e-011
6628565713.1426 -0.1690121 -0.16061544 -0.0076859561 0.0053505274 7.071068e-011 7.071068e-011 7.071068e-011 7.071068e-011
6630246049.2098 -0.21483029 -0.055551857 -0.00053516956 0.0092404708 7.071068e-011 7.071068e-011 7.071068e-011 7.071068e-011
6631926385.2771 -0.21342213 0.058823846 0.0069058784 0.00617324 7.071068e-011 7.071068e-011 7.071068e-011 7.071068e-011
6633606721.3443 -0.1655274 0.16182415 0.0092158318 -0.0016377051 7.071068e-011 7.071068e-011 7.071068e-011 7.071068e-011
6635287057.4115 -0.080603585 0.23548891 0.0043572155 -0.0083533358 7.071068e-011 7.071068e-011 7.071068e-011 7.071068e-011
6636967393.4787 0.025576135 0.26786894 -0.0039104102 -0.0085135968 7.071068e-011 7.071068e-011 7.071068e-011 7.071068e-011
6638647729.5459 0.13430078 0.25480568 -0.0089934738 -0.0022519273 7.071068e-011 7.071068e-011 7.071068e-011 7.071068e-011
6640328065.6131 0.22747312 0.19998328 -0.0074856943 0.0054871156 7.071068e-011 7.071068e-011 7.071068e-011 7.071068e-011
6642008401.6803 0.29044214 0.11348399 -0.00062598143 0.0094767893 7.071068e-011 7.071068e-011 7.071068e-011 7.071068e-011
6643688737.7475 0.31371033 0.0097710965 0.0072289435 0.0067865751 7.071068e-011 7.071068e-011 7.071068e-011 7.071068e-011
6645369073.8148 0.29384691 -0.094302863 0.010303098 -0.0015490361 7.071068e-011 7.071068e-011 7.071068e-011 7.071068e-011
6647049409.882 0.23407421 -0.18171196 0.0052430313 -0.0095169721 7.071068e-011 7.071068e-011 7.071068e-011 7.071068e-011
6648729745.9492 0.14413674 -0.23775156 -0.0045347423 -0.010235275 7.071068e-011 7.071068e-011 7.071068e-011 7.071068e-011
6650410082.0164 0.039154429 -0.25257412 -0.01115512 -0.0027223066 7.071068e-011 7.071068e-011 7.071068e-011 7.071068e-011
6652090418.0836 -0.062625118 -0.22330752 -0.009251575 0.0073731965 7.071068e-011 7.071068e-011 7.071068e-011 7.071068e-011
6653770754.1508 -0.14297701 -0.15510567 0.00024228478 0.012226354 7.071068e-011 7.071068e-011 7.071068e-011 7.071068e-011
6655451090.218 -0.18751417 -0.060782511 0.010198388 0.007372818 7.071068e-011 7.071068e-011 7.071068e-011 7.071068e-011
6657131426.2853 -0.18898936 0.041846365 0.012246679 -0.0037720157 7.071068e-011 7.071068e-011 7.071068e-011 7.071068e-011
6658811762.3525 -0.14870463 0.13381968 0.0045239311 -0.012161836 7.071068e-011 7.071068e-011 7.071068e-011 7.071068e-011
6660492098.4197 -0.076012999 0.19903204 -0.0068785171 -0.011249851 7.071068e-011 7.071068e-011 7.071068e-011 7.071068e-011
6662172434.4869 0.014075172 0.22744854 -0.013441833 -0.0016452781 7.071068e-011 7.071068e-011 7.071068e-011 7.071068e-011
6663852770.5541 0.1044635 0.21677347 -0.009960318 0.0099067427 7.071068e-011 7.071068e-011 7.071068e-011 7.071068e-011
6665533106.6213 0.1796388 0.17189373 0.0018292443 0.014527153 7.071068e-011 7.071068e-011 7.071068e-011 7.071068e-011
6667213442.6885 0.22813393 0.10298043 0.013187974 0.0076367017 7.071068e-011 7.071068e-011 7.071068e-011 7.071068e-011
6668893778.7558 0.24378796 0.023252074 0.014569145 -0.0061495518 7.071068e-011 7.071068e-011 7.071068e-011 7.071068e-011
6670574114.823 0.22610919 -0.053233501 0.0039770124 -0.015903752 7.071068e-011 7.071068e-011 7.071068e-011 7.071068e-011
6672254450.8902 0.1800414 -0.11369833 -0.010747169 -0.013146806 7.071068e-011 7.071068e-011 7.071068e-011 7.071068e-011
6673934786.9574 0.11510734 -0.14846747 -0.017513666 0.0008722684 7.071068e-011 7.071068e-011 7.071068e-011 7.071068e-011
6675615123.0246 0.043955475 -0.1526223 -0.0099091558 0.015023872 7.071068e-011 7.071068e-011 7.071068e-011 7.071068e-011
6677295459.0918 -0.019851074 -0.12725301 0.0063500819 0.017227249 7.071068e-011 7.071068e-011 7.071068e-011 7.071068e-011
6678975795.159 -0.064858124 -0.079190642 0.017936241 0.0052638911 7.071068e-011 7.071068e-011 7.071068e-011 7.071068e-011
6680656131.2262 -0.083905086 -0.019446537 0.015231286 -0.011452107 7.071068e-011 7.071068e-011 7.071068e-011 7.071068e-011
6682336467.2935 -0.075637802 0.039060257 -0.00010393429 -0.019456351 7.071068e-011 7.071068e-011 7.071068e-011 7.071068e-011
6684016803.3607 -0.044987608 0.084512934 -0.016026808 -0.011706968 7.071068e-011 7.071068e-011 7.071068e-011 7.071068e-011
6685697139.4279 -0.0017026708 0.10940932 -0.019228322 0.0060788584 7.071068e-011 7.071068e-011 7.071068e-011 7.071068e-011
6687377475.4951 0.042710677 0.11223658 -0.0065892232 0.019317826 7.071068e-011 7.071068e-011 7.071068e-011 7.071068e-011
6689057811.5623 0.078233927 0.097263783 0.011721205 0.016958628 7.071068e-011 7.071068e-011 7.071068e-011 7.071068e-011
6690738147.6295 0.099099815 0.072861627 0.020809531 0.00070566928 7.071068e-011 7.071068e-011 7.071068e-011 7.071068e-011
6692418483.6967 0.10537226 0.048149154 0.013110271 -0.016467733 7.071068e-011 7.071068e-011 7.071068e-011 7.071068e-011
6694098819.764 0.10146764 0.029382095 -0.0055027283 -0.020543357 7.071068e-011 7.071068e-011 7.071068e-011 7.071068e-011
6695779155.8312 0.09322764 0.018951101 -0.019982584 -0.0077914288 7.071068e-011 7.071068e-011 7.071068e-011 7.071068e-011
6697459491.8984 0.086029142 0.015989531 -0.01815524 0.011560366 7.071068e-011 7.071068e-011 7.071068e-011 7.071068e-011
6699139827.9656 0.083500892 0.01698707 -0.0014184295 0.021428186 7.071068e-011 7.071068e-011 7.071068e-011 7.071068e-011
6700820164.0328 0.086120546 0.01736927 0.016274655 0.013810824 7.071068e-011 7.071068e-011 7.071068e-011 7.071068e-011
6702500500.1 0.091676839 0.01379425 0.020671409 -0.0047355681 7.071068e-011 7.071068e-011 7.071068e-011 7.071068e-011
6704180836.1672 0.096894085 0.0048504928 0.0085642682 -0.019287776 7.071068e-011 7.071068e-011 7.071068e-011 7.071068e-011
6705861172.2344 0.098141529 -0.0090707438 -0.010278717 -0.018303465 7.071068e-011 7.071068e-011 7.071068e-011 7.071068e-011
6707541508.3017 0.092232354 -0.025492597 -0.020605853 -0.0026565501 7.071068e-011 7.071068e-011 7.071068e-011 7.071068e-011
6709221844.3689 0.077781551 -0.040339142 -0.014241693 0.014636985 7.071068e-011 7.071068e-011 7.071068e-011 7.071068e-011
6710902180.4361 0.055476803 -0.049322307 0.0029298263 0.019794919 7.071068e-011 7.071068e-011 7.071068e-011 7.071068e-011
6712582516.5033 0.0277423 -0.04837564 0.017132781 0.0096788211 7.071068e-011 7.071068e-011 7.071068e-011 7.071068e-011
6714262852.5705 -0.00066079613 -0.034157399 0.018025504 -0.0074593737 7.071068e-011 7.071068e-011 7.071068e-011 7.071068e-011
6715943188.6377 -0.022752473 -0.0060582082 0.0051488578 -0.018777259 7.071068e-011 7.071068e-011 7.071068e-011 7.071068e-011
6717623524.7049 -0.031536341 0.032433286 -0.011767817 -0.015459305 7.071068e-011 7.071068e-011 7.071068e-011 7.071068e-011
6719303860.7722 -0.02239868 0.074504018 -0.01923847 3.3877186e-005 7.071068e-011 7.071068e-011 7.071068e-011 7.071068e-011
6720984196.8394 0.0057654534 0.11154529 -0.011466482 0.015030455 7.071068e-011 7.071068e-011 7.071068e-011 7.071068e-011
6722664532.9066 0.049793262 0.13475893 0.0047057574 0.017956922 7.071068e-011 7.071068e-011 7.071068e-011 7.071068e-011
6724344868.9738 0.10234301 0.1375618 0.016817221 0.0073396955 7.071068e-011 7.071068e-011 7.071068e-011 7.071068e-011
6726025205.041 0.15373561 0.11748628 0.016067188 -0.0086743496 7.071068e-011 7.071068e-011 7.071068e-011 7.071068e-011
6727705541.1082 0.19418864 0.076431721 0.0029044538 -0.017912449 7.071068e-011 7.071068e-011 7.071068e-011 7.071068e-011
6729385877.1754 0.21521012 0.020237768 -0.01226102 -0.012975953 7.071068e-011 7.071068e-011 7.071068e-011 7.071068e-011
6731066213.2426 0.21132666 -0.041701984 -0.017303355 0.0016646618 7.071068e-011 7.071068e-011 7.071068e-011 7.071068e-011
6732746549.3099 0.18181898 -0.098234303 -0.0092657516 0.014171747 7.071068e-011 7.071068e-011 7.071068e-011 7.071068e-011
6734426885.3771 0.13079014 -0.13900325 0.005055543 0.015866239 7.071068e-011 7.071068e-011 7.071068e-011 7.071068e-011
6736107221.4443 0.066187158 -0.15608726 0.0154218 0.0060443226 7.071068e-011 7.071068e-011 7.071068e-011 7.071068e-011
6737787557.5115 -0.0011977731 -0.1452477 0.014309433 -0.008272293 7.071068e-011 7.071068e-011 7.071068e-011 7.071068e-011
6739467893.5787 -0.059334088 -0.10717715 0.0023612096 -0.016232781 7.071068e-011 7.071068e-011 7.071068e-011 7.071068e-011
6741148229.6459 -0.097383343 -0.047780704 -0.011070421 -0.011790211 7.071068e-011 7.071068e-011 7.071068e-011 7.071068e-011
6742828565.7131 -0.10790556 0.02292658 -0.015921103 0.0011552768 7.071068e-011 7.071068e-011 7.071068e-011 7.071068e-011
6744508901.7804 -0.088212803 0.092551522 -0.0091532627 0.012999224 7.071068e-011 7.071068e-011 7.071068e-011 7.071068e-011
6746189237.8476 -0.041191898 0.14844975 0.0043660975 0.015386685 7.071068e-011 7.071068e-011 7.071068e-011 7.071068e-011
6747869573.9148 0.025052516 0.18041958 0.014887728 0.0061638439 7.071068e-011 7.071068e-011 7.071068e-011 7.071068e-011
6749549909.982 0.099020123 0.18280137 0.013970633 -0.0079561817 7.071068e-011 7.071068e-011 7.071068e-011 7.071068e-011
6751230246.0492 0.16827293 0.15504713 0.0022941346 -0.015675176 7.071068e-011 7.071068e-011 7.071068e-011 7.071068e-011
6752910582.1164 0.22158554 0.10160344 -0.010580252 -0.011357483 7.071068e-011 7.071068e-011 7.071068e-011 7.071068e-011
6754590918.1836 0.24916267 0.030538034 -0.015258883 0.0010080967 7.071068e-011 7.071068e-011 7.071068e-011 7.071068e-011
6756271254.2508 0.24641897 -0.046411946 -0.0088205254 0.012361162 7.071068e-011 7.071068e-011 7.071068e-011 7.071068e-011
6757951590.3181 0.21337445 -0.11688226 0.0040275655 0.014580033 7.071068e-011 7.071068e-011 7.071068e-011 7.071068e-011
6759631926.3853 0.15475984 -0.16941698 0.013763168 0.0059794211 7.071068e-011 7.071068e-011 7.071068e-011 7.071068e-011
6761312262.4525 0.079442464 -0.19513094 0.013168248 -0.0068012299 7.071068e-011 7.071068e-011 7.071068e-011 7.071068e-011
6762992598.5197 -0.00068917254 -0.18925731 0.0031562275 -0.014331826 7.071068e-011 7.071068e-011 7.071068e-011 7.071068e-011
6764672934.5869 -0.072644174 -0.15210749 -0.0089444006 -0.011629532 7.071068e-011 7.071068e-011 7.071068e-011 7.071068e-011
6766353270.6541 -0.12443992 -0.08918944 -0.014814169 -0.000595983 7.071068e-011 7.071068e-011 7.071068e-011 7.071068e-011
6768033606.7213 -0.14700411 -0.010509918 -0.010007431 0.011260723 7.071068e-011 7.071068e-011 7.071068e-011 7.071068e-011
6769713942.7886 -0.13604158 0.070660144 0.0025275326 0.015066558 7.071068e-011 7.071068e-011 7.071068e-011 7.071068e-011
6771394278.8558 -0.093281858 0.14020079 0.013459266 0.0075076241 7.071068e-011 7.071068e-011 7.071068e-011 7.071068e-011
6773074614.923 -0.026350131 0.18603174 0.014367109 -0.0058423709 7.071068e-011 7.071068e-011 7.071068e-011 7.071068e-011
6774754950.9902 0.052764419 0.20037781 0.0044451067 -0.014972677 7.071068e-011 7.071068e-011 7.071068e-011 7.071068e-011
6776435287.0574 0.13001935 0.1812873 -0.0090164486 -0.012853859 7.071068e-011 7.071068e-011 7.071068e-011 7.071068e-011
6778115623.1246 0.19212174 0.13283207 -0.015651349 -0.00086063839 7.071068e-011 7.071068e-011 7.071068e-011 7.071068e-011
6779795959.1918 0.22885831 0.063919283 -0.010296174 0.011589363 7.071068e-011 7.071068e-011 7.071068e-011 7.071068e-011
6781476295.2591 0.23453437 -0.013580771 0.0024641871 0.015067313 7.071068e-011 7.071068e-011 7.071068e-011 7.071068e-011
6783156631.3263 0.20852302 -0.086645797 0.013037454 0.0076486934 7.071068e-011 7.071068e-011 7.071068e-011 7.071068e-011
6784836967.3935 0.15535621 -0.14307797 0.014235641 -0.0050976835 7.071068e-011 7.071068e-011 7.071068e-011 7.071068e-011
6786517303.4607 0.084033586 -0.17364909 0.0051940656 -0.01433757 7.071068e-011 7.071068e-011 7.071068e-011 7.071068e-011
6788197639.5279 0.0062713004 -0.17349313 -0.0078993123 -0.013204124 7.071068e-011 7.071068e-011 7.071068e-011 7.071068e-011
6789877975.5951 -0.065377802 -0.14264704 -0.015285298 -0.0021973257 7.071068e-011 7.071068e-011 7.071068e-011 7.071068e-011
6791558311.6623 -0.11929098 -0.086025268 -0.011403511 0.010430138 7.071068e-011 7.071068e-011 7.071068e-011 7.071068e-011
6793238647.7295 -0.14678015 -0.012803123 0.00075213687 0.015516155 7.071068e-011 7.071068e-011 7.071068e-011 7.071068e-011
6794918983.7968 -0.14357497 0.065223634 0.012611385 0.0094578285 7.071068e-011 7.071068e-011 7.071068e-011 7.071068e-011
6796599319.864 -0.11029088 0.13566473 0.01560441 -0.0038934171 7.071068e-011 7.071068e-011 7.071068e-011 7.071068e-011
6798279655.9312 -0.052326284 0.18722165 0.006768974 -0.014874272 7.071068e-011 7.071068e-011 7.071068e-011 7.071068e-011
6799959991.9984 0.020698793 0.21155186 -0.0075098728 -0.014594467 7.071068e-011 7.071068e-011 7.071068e-011 7.071068e-011
6801640328.0656 0.096537665 0.20509647 -0.016007641 -0.0032587277 7.071068e-011 7.071068e-011 7.071068e-011 7.071068e-011
6803320664.1328 0.16277649 0.16956161 -0.012634251 0.01027423 7.071068e-011 7.071068e-011 7.071068e-011 7.071068e-011
6805001000.2 0.20880318 0.11123297 -0.0001410282 0.016373061 7.071068e-011 7.071068e-011 7.071068e-011 7.071068e-011
6806681336.2673 0.22725521 0.040120658 0.012749038 0.010631924 7.071068e-011 7.071068e-011 7.071068e-011 7.071068e-011
6808361672.3345 0.21538386 -0.031492408 0.016481541 -0.0032986703 7.071068e-011 7.071068e-011 7.071068e-011 7.071068e-011
6810042008.4017 0.17586797 -0.091334619 0.0077695544 -0.014990215 7.071068e-011 7.071068e-011 7.071068e-011 7.071068e-011
6811722344.4689 0.11602303 -0.12942883 -0.0067185047 -0.015465181 7.071068e-011 7.071068e-011 7.071068e-011 7.071068e-011
6813402680.5361 0.046503171 -0.13961916 -0.016230335 -0.0047023818 7.071068e-011 7.071068e-011 7.071068e-011 7.071068e-011
6815083016.6033 -0.020347835 -0.12066472 -0.014185227 0.0095844958 7.071068e-011 7.071068e-011 7.071068e-011 7.071068e-011
6816763352.6705 -0.073000886 -0.076760225 -0.0016419856 0.017437009 7.071068e-011 7.071068e-011 7.071068e-011 7.071068e-011
6818443688.7377 -0.10319628 -0.016326901 0.012896694 0.012482891 7.071068e-011 7.071068e-011 7.071068e-011 7.071068e-011
6820124024.805 -0.10698052 0.050264783 0.018074961 -0.0024665934 7.071068e-011 7.071068e-011 7.071068e-011 7.071068e-011
6821804360.8722 -0.084514521 0.11229879 0.0092771668 -0.015815105 7.071068e-011 7.071068e-011 7.071068e-011 7.071068e-011
6823484696.9394 -0.040060796 0.15997267 -0.0065698265 -0.017099289 7.071068e-011 7.071068e-011 7.071068e-011 7.071068e-011
6825165033.0066 0.018574215 0.18616693 -0.017449882 -0.0056355521 7.071068e-011 7.071068e-011 7.071068e-011 7.071068e-011
6826845369.0738 0.081778757 0.18763548 -0.015430401 0.010076334 7.071068e-011 7.071068e-011 7.071068e-011 7.071068e-011
6828525705.141 0.13975719 0.16496295 -0.0018170452 0.018426394 7.071068e-011 7.071068e-011 7.071068e-011 7.071068e-011
6830206041.2082 0.18370943 0.12231333 0.013234083 0.012951238 7.071068e-011 7.071068e-011 7.071068e-011 7.071068e-011
6831886377.2755 0.20724073 0.066984385 0.018312987 -0.0021067075 7.071068e-011 7.071068e-011 7.071068e-011 7.071068e-011
6833566713.3427 0.20742953 0.0079590036 0.010014318 -0.015409819 7.071068e-011 7.071068e-011 7.071068e-011 7.071068e-011
6835247049.4099 0.1849027 -0.045570292 -0.005427639 -0.017661167 7.071068e-011 7.071068e-011 7.071068e-011 7.071068e-011
6836927385.4771 0.14354575 -0.085178271 -0.017311957 -0.0072586117 7.071068e-011 7.071068e-011 7.071068e-011 7.071068e-011
6838607721.5443 0.09052939 -0.10434093 -0.016971454 0.0089829788 7.071068e-011 7.071068e-011 7.071068e-011 7.071068e-011
6840288057.6115 0.035422008 -0.10011129 -0.0037202891 0.019277206 7.071068e-011 7.071068e-011 7.071068e-011 7.071068e-011
6841968393.6787 -0.011845694 -0.074102454 0.012990081 0.015176637 7.071068e-011 7.071068e-011 7.071068e-011 7.071068e-011
6843648729.7459 -0.043201804 -0.031923324 0.020210626 -0.00074009428 7.071068e-011 7.071068e-011 7.071068e-011 7.071068e-011
6845329065.8132 -0.053777751 0.018025994 0.012136973 -0.016440058 7.071068e-011 7.071068e-011 7.071068e-011 7.071068e-011
6847009401.8804 -0.042917002 0.066193953 -0.0053726365 -0.019924136 7.071068e-011 7.071068e-011 7.071068e-011 7.071068e-011
6848689737.9476 -0.014198415 0.10411433 -0.019105922 -0.0082264021 7.071068e-011 7.071068e-011 7.071068e-011 7.071068e-011
6850370074.0148 0.025917767 0.1261337 -0.018366948 0.0099264029 7.071068e-011 7.071068e-011 7.071068e-011 7.071068e-011
6852050410.082 0.069787592 0.12991709 -0.0036485305 0.020538172 7.071068e-011 7.071068e-011 7.071068e-011 7.071068e-011
6853730746.1492 0.10984858 0.11640012 0.013706857 0.015646838 7.071068e-011 7.071068e-011 7.071068e-011 7.071068e-011
6855411082.2164 0.14005686 0.089441746 0.020753937 -0.00081717153 7.071068e-011 7.071068e-011 7.071068e-011 7.071068e-011
6857091418.2837 0.15690634 0.054465715 0.012463811 -0.016647721 7.071068e-011 7.071068e-011 7.071068e-011 7.071068e-011
6858771754.3509 0.15927576 0.017071828 -0.0050930562 -0.020235678 7.071068e-011 7.071068e-011 7.071068e-011 7.071068e-011
6860452090.4181 0.14777251 -0.017455066 -0.019009585 -0.0088159982 7.071068e-011 7.071068e-011 7.071068e-011 7.071068e-011
6862132426.4853 0.12466582 -0.044417519 -0.018894238 0.0092586186 7.071068e-011 7.071068e-011 7.071068e-011 7.071068e-011
6863812762.5525 0.093704179 -0.060133375 -0.0047422857 0.020601837 7.071068e-011 7.071068e-011 7.071068e-011 7.071068e-011
6865493098.6197 0.059820715 -0.06247716 0.013088602 0.016785815 7.071068e-011 7.071068e-011 7.071068e-011 7.071068e-011
6867173434.6869 0.028681403 -0.05136437 0.02148056 0.00039804107 7.071068e-011 7.071068e-011 7.071068e-011 7.071068e-011
6868853770.7542 0.0056634424 -0.029296622 0.013908909 -0.016652277 7.071068e-011 7.071068e-011 7.071068e-011 7.071068e-011
