!Keysight Technologies,N5235B,MY61252044,A.15.00.15
!Date: Friday, January 20, 2023 22:01:49
!Correction: S11(Off) 
!S21(Off) 
!S12(Off) 
!S22(Off) 
!S2P File: Measurements: S11, S21, S12, S22:
# Hz S  RI   R 50
6600000000 0.01755284 -0.17492649 0.015502965 -0.0030750327 7.071068e-011 7.071068e-011 7.071068e-011 7.071068e-011
6608408408.4084 -0.12364552 0.16659428 0.0053484249 0.010854534 7.071068e-011 7.071068e-011 7.071068e-011 7.071068e-011
6616816816.8168 0.30646876 0.091352366 -0.0089249248 0.0037238349 7.071068e-011 7.071068e-011 7.071068e-011 7.071068e-011
6625225225.2252 0.023133432 -0.27281651 -0.0018127844 -0.0093225474 7.071068e-011 7.071068e-011 7.071068e-011 7.071068e-011
6633633633.6336 -0.16488479 0.16262583 0.0093563683 -0.00041805045 7.071068e-011 7.071068e-011 7.071068e-011 7.071068e-011
6642042042.042 0.29057178 0.1119818 -0.0018323096 0.0093426527 7.071068e-011 7.071068e-011 7.071068e-011 7.071068e-011
6650450450.4505 0.037792068 -0.2521911 -0.010754744 -0.0040689725 7.071068e-011 7.071068e-011 7.071068e-011 7.071068e-011
6658858858.8589 -0.14787905 0.13557906 0.0059550786 -0.011529411 7.071068e-011 7.071068e-011 7.071068e-011 7.071068e-011
6667267267.2673 0.22919253 0.10030959 0.012245378 0.0091531826 7.071068e-011 7.071068e-011 7.071068e-011 7.071068e-011
6675675675.6757 0.041905969 -0.15118559 -0.011524546 0.013878454 7.071068e-011 7.071068e-011 7.071068e-011 7.071068e-011
6684084084.0841 -0.044079807 0.084738702 -0.014658058 -0.01334755 7.071068e-011 7.071068e-011 7.071068e-011 7.071068e-011
6692492492.4925 0.10601306 0.047308188 0.014817605 -0.014990723 7.071068e-011 7.071068e-011 7.071068e-011 7.071068e-011
6700900900.9009 0.085992999 0.017992223 0.014841421 0.015411212 7.071068e-011 7.071068e-011 7.071068e-011 7.071068e-011
6709309309.3093 0.076731771 -0.041747387 -0.015553324 0.013179706 7.071068e-011 7.071068e-011 7.071068e-011 7.071068e-011
6717717717.7177 -0.030853305 0.034792304 -0.01021411 -0.016490577 7.071068e-011 7.071068e-011 7.071068e-011 7.071068e-011
6726126126.1261 0.15542318 0.11582938 0.016822059 -0.0071525387 7.071068e-011 7.071068e-011 7.071068e-011 7.071068e-011
6734534534.5345 0.12796012 -0.14092155 0.0036150513 0.016261905 7.071068e-011 7.071068e-011 7.071068e-011 7.071068e-011
6742942942.9429 -0.10786224 0.027513003 -0.015953263 -0.00022691164 7.071068e-011 7.071068e-011 7.071068e-011 7.071068e-011
6751351351.3514 0.1723585 0.15210579 0.0035730489 -0.015419254 7.071068e-011 7.071068e-011 7.071068e-011 7.071068e-011
6759759759.7598 0.1497691 -0.17210996 0.013236123 0.0070401402 7.071068e-011 7.071068e-011 7.071068e-011 7.071068e-011
6768168168.1682 -0.14693074 -0.0044024414 -0.010844632 0.010470941 7.071068e-011 7.071068e-011 7.071068e-011 7.071068e-011
6776576576.5766 0.13493793 0.17840004 -0.0080693094 -0.013471832 7.071068e-011 7.071068e-011 7.071068e-011 7.071068e-011
6784984984.985 0.15041627 -0.14669985 0.014574573 -0.0040740892 7.071068e-011 7.071068e-011 7.071068e-011 7.071068e-011
6793393393.3934 -0.1475701 -0.0057633193 -0.00029612248 0.015555467 7.071068e-011 7.071068e-011 7.071068e-011 7.071068e-011
6801801801.8018 0.10235041 0.20252243 -0.015762957 -0.0042509814 7.071068e-011 7.071068e-011 7.071068e-011 7.071068e-011
6810210210.2102 0.17193595 -0.09566626 0.008644022 -0.01449017 7.071068e-011 7.071068e-011 7.071068e-011 7.071068e-011
6818618618.6186 -0.10572608 -0.0095218578 0.012213545 0.013223033 7.071068e-011 7.071068e-011 7.071068e-011 7.071068e-011
6827027027.027 0.088693246 0.18537726 -0.01596004 0.0092834393 7.071068e-011 7.071068e-011 7.071068e-011 7.071068e-011
6835435435.4354 0.18100293 -0.049400222 -0.0045503615 -0.017916197 7.071068e-011 7.071068e-011 7.071068e-011 7.071068e-011
6843843843.8438 -0.045655537 -0.02743993 0.020209961 0.00017592558 7.071068e-011 7.071068e-011 7.071068e-011 7.071068e-011
6852252252.2523 0.075167067 0.12919882 -0.0045179687 0.020353068 7.071068e-011 7.071068e-011 7.071068e-011 7.071068e-011
6860660660.6607 0.145034 -0.020568192 -0.018670635 -0.0095620444 7.071068e-011 7.071068e-011 7.071068e-011 7.071068e-011
6869069069.0691 0.0038228531 -0.026910074 0.01448957 -0.016168905 7.071068e-011 7.071068e-011 7.071068e-011 7.071068e-011
6877477477.4775 0.054342572 0.072807901 0.012765457 0.018085886 7.071068e-011 7.071068e-011 7.071068e-011 7.071068e-011
6885885885.8859 0.090377696 0.0065447437 -0.020468393 0.0077879541 7.071068e-011 7.071068e-011 7.071068e-011 7.071068e-011
6894294294.2943 0.047059342 -0.00085857854 -0.0023930592 -0.022055477 7.071068e-011 7.071068e-011 7.071068e-011 7.071068e-011
6902702702.7027 0.03832164 0.019350836 0.022047205 0.0031688365 7.071068e-011 7.071068e-011 7.071068e-011 7.071068e-011
6911111111.1111 0.030976662 0.037798606 -0.0087222131 0.020286459 7.071068e-011 7.071068e-011 7.071068e-011 7.071068e-011
6919519519.5195 0.078483611 0.049679283 -0.017030563 -0.013579183 7.071068e-011 7.071068e-011 7.071068e-011 7.071068e-011
6927927927.9279 0.050334398 -0.012359545 0.017225543 -0.012862403 7.071068e-011 7.071068e-011 7.071068e-011 7.071068e-011
6936336336.3363 -0.00187206 0.062499959 0.0073550297 0.019482419 7.071068e-011 7.071068e-011 7.071068e-011 7.071068e-011
6944744744.7447 0.11253654 0.088995442 -0.020870853 0.0012268764 7.071068e-011 7.071068e-011 7.071068e-011 7.071068e-011
6953153153.1532 0.083966009 -0.045562461 0.0044230265 -0.020050449 7.071068e-011 7.071068e-011 7.071068e-011 7.071068e-011
6961561561.5616 -0.028285513 0.054811403 0.017410517 0.0099078156 7.071068e-011 7.071068e-011 7.071068e-011 7.071068e-011
6969969969.97 0.12509453 0.10567196 -0.014487728 0.013635958 7.071068e-011 7.071068e-011 7.071068e-011 7.071068e-011
6978378378.3784 0.10117664 -0.071202829 -0.0084728822 -0.017371759 7.071068e-011 7.071068e-011 7.071068e-011 7.071068e-011
6986786786.7868 -0.064119972 0.033513218 0.01875612 -0.0023646725 7.071068e-011 7.071068e-011 7.071068e-011 7.071068e-011
6995195195.1952 0.10365705 0.13348903 -0.0034786032 0.018966451 7.071068e-011 7.071068e-011 7.071068e-011 7.071068e-011
7003603603.6036 0.10824502 -0.058231968 -0.016670302 -0.0088505996 7.071068e-011 7.071068e-011 7.071068e-011 7.071068e-011
7012012012.012 -0.072645642 0.033144888 0.014094968 -0.012550139 7.071068e-011 7.071068e-011 7.071068e-011 7.071068e-011
7020420420.4204 0.088559225 0.16118474 0.0078774514 0.01732727 7.071068e-011 7.071068e-011 7.071068e-011 7.071068e-011
7028828828.8288 0.13225392 -0.029469917 -0.01855587 0.0019088602 7.071068e-011 7.071068e-011 7.071068e-011 7.071068e-011
7037237237.2372 -0.054297812 0.031257957 0.0043501025 -0.018700676 7.071068e-011 7.071068e-011 7.071068e-011 7.071068e-011
7045645645.6456 0.090752251 0.17092571 0.016522627 0.0097469641 7.071068e-011 7.071068e-011 7.071068e-011 7.071068e-011
7054054054.0541 0.16725589 -0.0037796439 -0.014650526 0.012133973 7.071068e-011 7.071068e-011 7.071068e-011 7.071068e-011
7062462462.4625 -0.0085234148 -0.0033376152 -0.0069291797 -0.018473709 7.071068e-011 7.071068e-011 7.071068e-011 7.071068e-011
7070870870.8709 0.078942962 0.14035437 0.01979848 -0.0012852765 7.071068e-011 7.071068e-011 7.071068e-011 7.071068e-011
7079279279.2793 0.16807418 0.0069096535 -0.0054787062 0.018850666 7.071068e-011 7.071068e-011 7.071068e-011 7.071068e-011
7087687687.6877 0.032284737 -0.026678618 -0.016723746 -0.011439608 7.071068e-011 7.071068e-011 7.071068e-011 7.071068e-011
7096096096.0961 0.059779122 0.089452073 0.015920319 -0.012570693 7.071068e-011 7.071068e-011 7.071068e-011 7.071068e-011
7104504504.5045 0.14792012 0.010021742 0.0066274609 0.019149859 7.071068e-011 7.071068e-011 7.071068e-011 7.071068e-011
7112912912.9129 0.050401606 -0.044601329 -0.020686865 -3.6451991e-005 7.071068e-011 7.071068e-011 7.071068e-011 7.071068e-011
7121321321.3213 0.034679912 0.03225439 0.0062315068 -0.019911617 7.071068e-011 7.071068e-011 7.071068e-011 7.071068e-011
7129729729.7297 0.089416161 0.014094981 0.016535966 0.012025847 7.071068e-011 7.071068e-011 7.071068e-011 7.071068e-011
7138138138.1381 0.043134715 -0.037701055 -0.017165987 0.011800749 7.071068e-011 7.071068e-011 7.071068e-011 7.071068e-011
7146546546.5465 -0.00040485695 0.013711672 -0.0059531983 -0.020129379 7.071068e-011 7.071068e-011 7.071068e-011 7.071068e-011
7154954954.955 0.030709619 0.041353118 0.020843193 0.00075971481 7.071068e-011 7.071068e-011 7.071068e-011 7.071068e-011
7163363363.3634 0.045007192 0.015520704 -0.0075916746 0.019164847 7.071068e-011 7.071068e-011 7.071068e-011 7.071068e-011
7171771771.7718 0.0009010983 0.020419434 -0.015835673 -0.01343626 7.071068e-011 7.071068e-011 7.071068e-011 7.071068e-011
7180180180.1802 0.018789262 0.072647125 0.017613661 -0.010491269 7.071068e-011 7.071068e-011 7.071068e-011 7.071068e-011
7188588588.5886 0.067681514 0.055861022 0.003979804 0.020477975 7.071068e-011 7.071068e-011 7.071068e-011 7.071068e-011
7196996996.997 0.039729901 0.010269142 -0.02066472 -0.0026465312 7.071068e-011 7.071068e-011 7.071068e-011 7.071068e-011
7205405405.4054 0.012386769 0.067196026 0.0094764363 -0.018080495 7.071068e-011 7.071068e-011 7.071068e-011 7.071068e-011
7213813813.8138 0.083347581 0.067182101 0.013945372 0.015153992 7.071068e-011 7.071068e-011 7.071068e-011 7.071068e-011
7222222222.2222 0.066036694 -0.0057095112 -0.018981062 0.0083266869 7.071068e-011 7.071068e-011 7.071068e-011 7.071068e-011
7230630630.6306 -0.001417335 0.035527181 -0.0015373661 -0.020519003 7.071068e-011 7.071068e-011 7.071068e-011 7.071068e-011
7239039039.039 0.071946837 0.075395048 0.020010263 0.0057751318 7.071068e-011 7.071068e-011 7.071068e-011 7.071068e-011
7247447447.4474 0.074856885 -0.01498904 -0.01196558 0.01706299 7.071068e-011 7.071068e-011 7.071068e-011 7.071068e-011
7255855855.8559 -0.016544068 0.0076888427 -0.01169838 -0.017001763 7.071068e-011 7.071068e-011 7.071068e-011 7.071068e-011
7264264264.2643 0.035082482 0.083940879 0.020141177 -0.0054526678 7.071068e-011 7.071068e-011 7.071068e-011 7.071068e-011
7272672672.6727 0.07431028 0.00047716609 -0.001421788 0.020589119 7.071068e-011 7.071068e-011 7.071068e-011 7.071068e-011
7281081081.0811 -0.030111255 0.00091919117 -0.0188042 -0.0083740568 7.071068e-011 7.071068e-011 7.071068e-011 7.071068e-011
7289489489.4895 0.00029488825 0.10785363 0.014652559 -0.014714335 7.071068e-011 7.071068e-011 7.071068e-011 7.071068e-011
7297897897.8979 0.085025236 0.050166097 0.0089108441 0.018816965 7.071068e-011 7.071068e-011 7.071068e-011 7.071068e-011
7306306306.3063 0.00063383661 0.0091259917 -0.020602072 0.001681193 7.071068e-011 7.071068e-011 7.071068e-011 7.071068e-011
7314714714.7147 0.0045184279 0.11296757 0.005317484 -0.020350536 7.071068e-011 7.071068e-011 7.071068e-011 7.071068e-011
7323123123.1231 0.11261436 0.07502386 0.017090093 0.011680454 7.071068e-011 7.071068e-011 7.071068e-011 7.071068e-011
7331531531.5315 0.051021565 -0.011727752 -0.01731188 0.011817837 7.071068e-011 7.071068e-011 7.071068e-011 7.071068e-011
7339939939.9399 0.0079691885 0.068845384 -0.0054311152 -0.020573631 7.071068e-011 7.071068e-011 7.071068e-011 7.071068e-011
7348348348.3483 0.10575961 0.063549921 0.020978207 0.0018268814 7.071068e-011 7.071068e-011 7.071068e-011 7.071068e-011
7356756756.7568 0.065815598 -0.037220996 -0.0091234939 0.018876662 7.071068e-011 7.071068e-011 7.071068e-011 7.071068e-011
7365165165.1652 -0.01021317 0.021351518 -0.014848948 -0.015143177 7.071068e-011 7.071068e-011 7.071068e-011 7.071068e-011
7373573573.5736 0.061905596 0.04953599 0.019000821 -0.0086747846 7.071068e-011 7.071068e-011 7.071068e-011 7.071068e-011
7381981981.982 0.043578051 -0.035463832 0.0011716092 0.021149149 7.071068e-011 7.071068e-011 7.071068e-011 7.071068e-011
7390390390.3904 -0.042977542 0.0099244276 -0.020400073 -0.0060742893 7.071068e-011 7.071068e-011 7.071068e-011 7.071068e-011
7398798798.7988 0.013087888 0.071117289 0.012839886 -0.016792761 7.071068e-011 7.071068e-011 7.071068e-011 7.071068e-011
7407207207.2072 0.02791626 0.0097134011 0.011301166 0.017968729 7.071068e-011 7.071068e-011 7.071068e-011 7.071068e-011
7415615615.6156 -0.041162729 0.035436854 -0.020898102 0.0045059179 7.071068e-011 7.071068e-011 7.071068e-011 7.071068e-011
7424024024.024 0.0070475726 0.10518806 0.0029559059 -0.021099577 7.071068e-011 7.071068e-011 7.071068e-011 7.071068e-011
7432432432.4324 0.054654792 0.05376745 0.018768268 0.010338663 7.071068e-011 7.071068e-011 7.071068e-011 7.071068e-011
7440840840.8408 0.009578933 0.042610586 -0.01608921 0.014168994 7.071068e-011 7.071068e-011 7.071068e-011 7.071068e-011
7449249249.2492 0.030525884 0.087088481 -0.0074446704 -0.019864272 7.071068e-011 7.071068e-011 7.071068e-011 7.071068e-011
7457657657.6577 0.077814318 0.048879009 0.02129321 6.2656763e-005 7.071068e-011 7.071068e-011 7.071068e-011 7.071068e-011
7466066066.0661 0.041778903 0.01411349 -0.00743121 0.020008141 7.071068e-011 7.071068e-011 7.071068e-011 7.071068e-011
7474474474.4745 0.030418031 0.039377697 -0.016035693 -0.01378166 7.071068e-011 7.071068e-011 7.071068e-011 7.071068e-011
7482882882.8829 0.060089909 0.029123064 0.018618658 -0.0099117775 7.071068e-011 7.071068e-011 7.071068e-011 7.071068e-011
7491291291.2913 0.038721789 -0.013578399 0.0027568312 0.020961074 7.071068e-011 7.071068e-011 7.071068e-011 7.071068e-011
7499699699.6997 -0.00333125 0.0026837615 -0.020430354 -0.0048271399 7.071068e-011 7.071068e-011 7.071068e-011 7.071068e-011
7508108108.1081 0.0034590154 0.031791002 0.011674642 -0.017417897 7.071068e-011 7.071068e-011 7.071068e-011 7.071068e-011
7516516516.5165 0.019264953 0.011930081 0.01210427 0.016956385 7.071068e-011 7.071068e-011 7.071068e-011 7.071068e-011
7524924924.9249 -0.026383735 0.0065979296 -0.020034727 0.0051866476 7.071068e-011 7.071068e-011 7.071068e-011 7.071068e-011
7533333333.3333 -0.029850448 0.066096582 0.002436569 -0.020541282 7.071068e-011 7.071068e-011 7.071068e-011 7.071068e-011
7541741741.7417 0.02806657 0.068759449 0.018323664 0.0094174109 7.071068e-011 7.071068e-011 7.071068e-011 7.071068e-011
7550150150.1502 0.012683983 0.02048027 -0.015180351 0.013314962 7.071068e-011 7.071068e-011 7.071068e-011 7.071068e-011
7558558558.5586 -0.015171015 0.068774141 -0.0069537698 -0.019041564 7.071068e-011 7.071068e-011 7.071068e-011 7.071068e-011
7566966966.967 0.055725846 0.077814311 0.020044163 0.00039499532 7.071068e-011 7.071068e-011 7.071068e-011 7.071068e-011
7575375375.3754 0.053358007 0.0010179237 -0.0078384662 0.018535357 7.071068e-011 7.071068e-011 7.071068e-011 7.071068e-011
7583783783.7838 -0.011814717 0.024117155 -0.014495458 -0.014034213 7.071068e-011 7.071068e-011 7.071068e-011 7.071068e-011
7592192192.1922 0.045588352 0.060634829 0.017995585 -0.0084165521 7.071068e-011 7.071068e-011 7.071068e-011 7.071068e-011
7600600600.6006 0.051758949 -0.02453295 0.00096835243 0.019509204 7.071068e-011 7.071068e-011 7.071068e-011 7.071068e-011
7609009009.009 -0.038210027 -0.010593665 -0.018936379 -0.0064592701 7.071068e-011 7.071068e-011 7.071068e-011 7.071068e-011
7617417417.4174 -0.0047862399 0.058207572 0.012572909 -0.015397649 7.071068e-011 7.071068e-011 7.071068e-011 7.071068e-011
7625825825.8258 0.026206849 -0.0044411821 0.0095135756 0.017387217 7.071068e-011 7.071068e-011 7.071068e-011 7.071068e-011
7634234234.2342 -0.060751084 0.0043251617 -0.019575264 0.0025311527 7.071068e-011 7.071068e-011 7.071068e-011 7.071068e-011
7642642642.6426 -0.026341273 0.091553211 0.0049149743 -0.018962281 7.071068e-011 7.071068e-011 7.071068e-011 7.071068e-011
7651051051.0511 0.037429444 0.042384561 0.015838094 0.011657169 7.071068e-011 7.071068e-011 7.071068e-011 7.071068e-011
7659459459.4595 -0.029903039 0.01814438 -0.016758921 0.010767089 7.071068e-011 7.071068e-011 7.071068e-011 7.071068e-011
7667867867.8679 -0.011525366 0.10263142 -0.0039972048 -0.019132638 7.071068e-011 7.071068e-011 7.071068e-011 7.071068e-011
7676276276.2763 0.074037917 0.058801539 0.019139728 0.0038742027 7.071068e-011 7.071068e-011 7.071068e-011 7.071068e-011
7684684684.6847 0.021057621 -0.0039486233 -0.010710094 0.016688064 7.071068e-011 7.071068e-011 7.071068e-011 7.071068e-011
7693093093.0931 0.00087435375 0.054691318 -0.011567619 -0.015939485 7.071068e-011 7.071068e-011 7.071068e-011 7.071068e-011
7701501501.5015 0.071144737 0.032265712 0.019037209 -0.0049246754 7.071068e-011 7.071068e-011 7.071068e-011 7.071068e-011
7709909909.9099 0.023118099 -0.042368896 -0.002530037 0.019566156 7.071068e-011 7.071068e-011 7.071068e-011 7.071068e-011
7718318318.3183 -0.033045731 0.010923278 -0.01729863 -0.0095334817 7.071068e-011 7.071068e-011 7.071068e-011 7.071068e-011
7726726726.7267 0.024457673 0.027804393 0.015421691 -0.012345393 7.071068e-011 7.071068e-011 7.071068e-011 7.071068e-011
7735135135.1351 0.0028576115 -0.041452605 0.0060483525 0.01896585 7.071068e-011 7.071068e-011 7.071068e-011 7.071068e-011
7743543543.5435 -0.075209618 -4.3488642e-005 -0.019578354 -0.0013555499 7.071068e-011 7.071068e-011 7.071068e-011 7.071068e-011
7751951951.952 -0.030063303 0.064356804 0.0086480947 -0.017764548 7.071068e-011 7.071068e-011 7.071068e-011 7.071068e-011
7760360360.3604 -0.0028073248 0.017177839 0.013349609 0.014617746 7.071068e-011 7.071068e-011 7.071068e-011 7.071068e-011
7768768768.7688 -0.058381915 0.028681934 -0.018583825 0.0069720168 7.071068e-011 7.071068e-011 7.071068e-011 7.071068e-011
7777177177.1772 -0.027099777 0.095464587 0.00049835083 -0.019762414 7.071068e-011 7.071068e-011 7.071068e-011 7.071068e-011
7785585585.5856 0.033781644 0.058003932 0.018207489 0.0077462322 7.071068e-011 7.071068e-011 7.071068e-011 7.071068e-011
7793993993.994 -0.0055840039 0.027743801 -0.013870756 0.013796021 7.071068e-011 7.071068e-011 7.071068e-011 7.071068e-011
7802402402.4024 -0.00052614615 0.07506422 -0.0076916059 -0.018376604 7.071068e-011 7.071068e-011 7.071068e-011 7.071068e-011
7810810810.8108 0.058233254 0.048809722 0.019816883 -0.00056315685 7.071068e-011 7.071068e-011 7.071068e-011 7.071068e-011
7819219219.2192 0.025742872 -0.0065007298 -0.0070514162 0.018411286 7.071068e-011 7.071068e-011 7.071068e-011 7.071068e-011
7827627627.6276 -0.0034940727 0.027084811 -0.014505297 -0.013402324 7.071068e-011 7.071068e-011 7.071068e-011 7.071068e-011
7836036036.036 0.037552819 0.025556484 0.017829716 -0.008453141 7.071068e-011 7.071068e-011 7.071068e-011 7.071068e-011
7844444444.4444 0.016428823 -0.023678076 0.0012181922 0.019748963 7.071068e-011 7.071068e-011 7.071068e-011 7.071068e-011
7852852852.8529 -0.028222838 0.0029843154 -0.018864254 -0.006273197 7.071068e-011 7.071068e-011 7.071068e-011 7.071068e-011
7861261261.2613 0.001697593 0.0295923 0.012722651 -0.015147765 7.071068e-011 7.071068e-011 7.071068e-011 7.071068e-011
7869669669.6697 0.0055812499 -0.0093926853 0.00912927 0.017553134 7.071068e-011 7.071068e-011 7.071068e-011 7.071068e-011
7878078078.0781 -0.040628932 0.0034752924 -0.01984342 0.0020787544 7.071068e-011 7.071068e-011 7.071068e-011 7.071068e-011
7886486486.4865 -0.024169642 0.047041047 0.0052838968 -0.019090716 7.071068e-011 7.071068e-011 7.071068e-011 7.071068e-011
7894894894.8949 0.010820811 0.030064112 0.015502172 0.011923335 7.071068e-011 7.071068e-011 7.071068e-011 7.071068e-011
7903303303.3033 -0.013561402 0.011267737 -0.017063504 0.0098042041 7.071068e-011 7.071068e-011 7.071068e-011 7.071068e-011
7911711711.7117 -0.017790267 0.043875255 -0.0028751742 -0.019504044 7.071068e-011 7.071068e-011 7.071068e-011 7.071068e-011
7920120120.1201 0.023091162 0.044977617 0.018957391 0.0046392493 7.071068e-011 7.071068e-011 7.071068e-011 7.071068e-011
7928528528.5285 0.023647733 0.001800183 -0.011402066 0.015817804 7.071068e-011 7.071068e-011 7.071068e-011 7.071068e-011
7936936936.9369 -0.010139643 0.011341144 -0.010268037 -0.016370581 7.071068e-011 7.071068e-011 7.071068e-011 7.071068e-011
7945345345.3453 0.018115938 0.032116592 0.019051688 -0.0031968774 7.071068e-011 7.071068e-011 7.071068e-011 7.071068e-011
