!Keysight Technologies,N5235B,MY61252044,A.15.00.15
!Date: Friday, January 20, 2023 21:57:09
!Correction: S11(Off) 
!S21(Off) 
!S12(Off) 
!S22(Off) 
!S2P File: Measurements: S11, S21, S12, S22:
# Hz S  RI   R 50
6600000000 0.01740714 -0.17479648 0.015482632 -0.00305782 7.071068e-011 7.071068e-011 7.071068e-011 7.071068e-011
6608408408.4084 -0.12352996 0.16667947 0.0053314539 0.010843032 7.071068e-011 7.071068e-011 7.071068e-011 7.071068e-011
6616816816.8168 0.30655351 0.091175355 -0.0089130271 0.0037129328 7.071068e-011 7.071068e-011 7.071068e-011 7.071068e-011
6625225225.2252 0.022873197 -0.27284086 -0.0018031829 -0.0093104634 7.071068e-011 7.071068e-011 7.071068e-011 7.071068e-011
6633633633.6336 -0.16474898 0.16288345 0.0093410239 -0.00040911403 7.071068e-011 7.071068e-011 7.071068e-011 7.071068e-011
6642042042.042 0.29070503 0.11171535 -0.0018373969 0.0093269246 7.071068e-011 7.071068e-011 7.071068e-011 7.071068e-011
6650450450.4505 0.03752524 -0.25212997 -0.010736443 -0.0040718671 7.071068e-011 7.071068e-011 7.071068e-011 7.071068e-011
6658858858.8589 -0.14772157 0.13569412 0.0059546693 -0.011507776 7.071068e-011 7.071068e-011 7.071068e-011 7.071068e-011
6667267267.2673 0.2292133 0.10020677 0.012220238 0.0091494266 7.071068e-011 7.071068e-011 7.071068e-011 7.071068e-011
6675675675.6757 0.041835185 -0.15124021 -0.011518508 0.013847744 7.071068e-011 7.071068e-011 7.071068e-011 7.071068e-011
6684084084.0841 -0.044137727 0.084880531 -0.014623361 -0.013334624 7.071068e-011 7.071068e-011 7.071068e-011 7.071068e-011
6692492492.4925 0.10617771 0.047209118 0.014808234 -0.014950298 7.071068e-011 7.071068e-011 7.071068e-011 7.071068e-011
6700900900.9009 0.085844323 0.018030033 0.014803939 0.015404837 7.071068e-011 7.071068e-011 7.071068e-011 7.071068e-011
6709309309.3093 0.076815046 -0.041821927 -0.015545208 0.013147135 7.071068e-011 7.071068e-011 7.071068e-011 7.071068e-011
6717717717.7177 -0.03096386 0.034928042 -0.010186947 -0.016474824 7.071068e-011 7.071068e-011 7.071068e-011 7.071068e-011
6726126126.1261 0.15564092 0.1157265 0.016802611 -0.0071291039 7.071068e-011 7.071068e-011 7.071068e-011 7.071068e-011
6734534534.5345 0.12771896 -0.14098585 0.0035959724 0.016240496 7.071068e-011 7.071068e-011 7.071068e-011 7.071068e-011
6742942942.9429 -0.10775186 0.027699165 -0.015926542 -0.00023806423 7.071068e-011 7.071068e-011 7.071068e-011 7.071068e-011
6751351351.3514 0.17240617 0.15196411 0.0035816061 -0.015390299 7.071068e-011 7.071068e-011 7.071068e-011 7.071068e-011
6759759759.7598 0.14969796 -0.17213058 0.013209104 0.00704329 7.071068e-011 7.071068e-011 7.071068e-011 7.071068e-011
6768168168.1682 -0.14699349 -0.0043172347 -0.010839412 0.010446022 7.071068e-011 7.071068e-011 7.071068e-011 7.071068e-011
6776576576.5766 0.1351167 0.17843585 -0.0080441125 -0.013460394 7.071068e-011 7.071068e-011 7.071068e-011 7.071068e-011
6784984984.985 0.15029693 -0.14691515 0.014557105 -0.0040537054 7.071068e-011 7.071068e-011 7.071068e-011 7.071068e-011
6793393393.3934 -0.14764163 -0.0054968754 -0.00030902229 0.01553079 7.071068e-011 7.071068e-011 7.071068e-011 7.071068e-011
6801801801.8018 0.10256742 0.20238863 -0.015736613 -0.0042577083 7.071068e-011 7.071068e-011 7.071068e-011 7.071068e-011
6810210210.2102 0.17173797 -0.095706478 0.0086429436 -0.01446046 7.071068e-011 7.071068e-011 7.071068e-011 7.071068e-011
6818618618.6186 -0.10567362 -0.0094283167 0.012184074 0.013212912 7.071068e-011 7.071068e-011 7.071068e-011 7.071068e-011
6827027027.027 0.088704549 0.18537562 -0.01594449 0.0092529152 7.071068e-011 7.071068e-011 7.071068e-011 7.071068e-011
6835435435.4354 0.18105212 -0.049481768 -0.0045239464 -0.017892536 7.071068e-011 7.071068e-011 7.071068e-011 7.071068e-011
6843843843.8438 -0.045832243 -0.027404271 0.02018052 0.00019734296 7.071068e-011 7.071068e-011 7.071068e-011 7.071068e-011
6852252252.2523 0.075363681 0.12929174 -0.0045347228 0.020319704 7.071068e-011 7.071068e-011 7.071068e-011 7.071068e-011
6860660660.6607 0.1449082 -0.020761861 -0.018635672 -0.0095677115 7.071068e-011 7.071068e-011 7.071068e-011 7.071068e-011
6869069069.0691 0.0038377433 -0.026712675 0.014485177 -0.016135257 7.071068e-011 7.071068e-011 7.071068e-011 7.071068e-011
6877477477.4775 0.054362912 0.072662003 0.012731234 0.01807015 7.071068e-011 7.071068e-011 7.071068e-011 7.071068e-011
6885885885.8859 0.090358749 0.0066697183 -0.020441849 0.0077590868 7.071068e-011 7.071068e-011 7.071068e-011 7.071068e-011
6894294294.2943 0.047094021 -0.00099776895 -0.0023653337 -0.02202145 7.071068e-011 7.071068e-011 7.071068e-011 7.071068e-011
6902702702.7027 0.038222395 0.019481741 0.022006311 0.0031896795 7.071068e-011 7.071068e-011 7.071068e-011 7.071068e-011
6911111111.1111 0.031114766 0.037714589 -0.0087306211 0.020244569 7.071068e-011 7.071068e-011 7.071068e-011 7.071068e-011
6919519519.5195 0.078345604 0.049711782 -0.016991051 -0.013582093 7.071068e-011 7.071068e-011 7.071068e-011 7.071068e-011
6927927927.9279 0.050449118 -0.012382031 0.017219186 -0.012824942 7.071068e-011 7.071068e-011 7.071068e-011 7.071068e-011
6936336336.3363 -0.0020065997 0.062534183 0.0073287841 0.019465253 7.071068e-011 7.071068e-011 7.071068e-011 7.071068e-011
6944744744.7447 0.11272059 0.08900819 -0.020845234 0.0012060519 7.071068e-011 7.071068e-011 7.071068e-011 7.071068e-011
6953153153.1532 0.083788902 -0.045683224 0.004436262 -0.020017512 7.071068e-011 7.071068e-011 7.071068e-011 7.071068e-011
6961561561.5616 -0.028201476 0.055019274 0.017373115 0.0099038249 7.071068e-011 7.071068e-011 7.071068e-011 7.071068e-011
6969969969.97 0.12514283 0.10548501 -0.01447959 0.013596255 7.071068e-011 7.071068e-011 7.071068e-011 7.071068e-011
6978378378.3784 0.10107213 -0.071109645 -0.0084362105 -0.017353823 7.071068e-011 7.071068e-011 7.071068e-011 7.071068e-011
6986786786.7868 -0.064065076 0.03348935 0.018732948 -0.0023382506 7.071068e-011 7.071068e-011 7.071068e-011 7.071068e-011
6995195195.1952 0.10365322 0.13354743 -0.0034972196 0.018935652 7.071068e-011 7.071068e-011 7.071068e-011 7.071068e-011
7003603603.6036 0.10827652 -0.058358759 -0.016637564 -0.0088585448 7.071068e-011 7.071068e-011 7.071068e-011 7.071068e-011
7012012012.012 -0.072800681 0.033274233 0.014087422 -0.012520629 7.071068e-011 7.071068e-011 7.071068e-011 7.071068e-011
7020420420.4204 0.088786162 0.1611723 0.007850321 0.01730926 7.071068e-011 7.071068e-011 7.071068e-011 7.071068e-011
7028828828.8288 0.13206148 -0.029616389 -0.018530734 0.0018883102 7.071068e-011 7.071068e-011 7.071068e-011 7.071068e-011
7037237237.2372 -0.054244429 0.031465344 0.0043634721 -0.018665353 7.071068e-011 7.071068e-011 7.071068e-011 7.071068e-011
7045645645.6456 0.090799347 0.17079449 0.016482694 0.0097509436 7.071068e-011 7.071068e-011 7.071068e-011 7.071068e-011
7054054054.0541 0.16721612 -0.0037295618 -0.014643429 0.012093222 7.071068e-011 7.071068e-011 7.071068e-011 7.071068e-011
7062462462.4625 -0.0085360492 -0.003385213 -0.0068950439 -0.018459655 7.071068e-011 7.071068e-011 7.071068e-011 7.071068e-011
7070870870.8709 0.07894022 0.14047584 0.019773081 -0.0012579153 7.071068e-011 7.071068e-011 7.071068e-011 7.071068e-011
7079279279.2793 0.16817296 0.0067626256 -0.0054931501 0.018820895 7.071068e-011 7.071068e-011 7.071068e-011 7.071068e-011
7087687687.6877 0.032077242 -0.026593486 -0.01668898 -0.011440888 7.071068e-011 7.071068e-011 7.071068e-011 7.071068e-011
7096096096.0961 0.059991863 0.089491799 0.015908659 -0.012536672 7.071068e-011 7.071068e-011 7.071068e-011 7.071068e-011
7104504504.5045 0.14778873 0.0099155558 0.0065955045 0.019127129 7.071068e-011 7.071068e-011 7.071068e-011 7.071068e-011
7112912912.9129 0.0504683 -0.044483755 -0.020653093 -6.0687824e-005 7.071068e-011 7.071068e-011 7.071068e-011 7.071068e-011
7121321321.3213 0.034640588 0.032162342 0.0062449421 -0.019869175 7.071068e-011 7.071068e-011 7.071068e-011 7.071068e-011
7129729729.7297 0.08945816 0.01420248 0.016491389 0.012031991 7.071068e-011 7.071068e-011 7.071068e-011 7.071068e-011
7138138138.1381 0.043134961 -0.03784655 -0.017154749 0.011761387 7.071068e-011 7.071068e-011 7.071068e-011 7.071068e-011
7146546546.5465 -0.00048566383 0.013867271 -0.0059166369 -0.020109581 7.071068e-011 7.071068e-011 7.071068e-011 7.071068e-011
7154954954.955 0.030865388 0.041246384 0.020814961 0.00078605785 7.071068e-011 7.071068e-011 7.071068e-011 7.071068e-011
7163363363.3634 0.044837296 0.015554488 -0.0075995778 0.019132938 7.071068e-011 7.071068e-011 7.071068e-011 7.071068e-011
7171771771.7718 0.0010475981 0.020431846 -0.015797526 -0.013431996 7.071068e-011 7.071068e-011 7.071068e-011 7.071068e-011
7180180180.1802 0.018656967 0.072619617 0.017593414 -0.010455634 7.071068e-011 7.071068e-011 7.071068e-011 7.071068e-011
7188588588.5886 0.067820318 0.055922564 0.0039509838 0.020444402 7.071068e-011 7.071068e-011 7.071068e-011 7.071068e-011
7196996996.997 0.039606381 0.010149873 -0.020623952 -0.002674131 7.071068e-011 7.071068e-011 7.071068e-011 7.071068e-011
7205405405.4054 0.012442051 0.06737867 0.0094881952 -0.018036576 7.071068e-011 7.071068e-011 7.071068e-011 7.071068e-011
7213813813.8138 0.083398715 0.067007683 0.013900274 0.015151346 7.071068e-011 7.071068e-011 7.071068e-011 7.071068e-011
7222222222.2222 0.065918073 -0.005591712 -0.018968996 0.0082884384 7.071068e-011 7.071068e-011 7.071068e-011 7.071068e-011
7230630630.6306 -0.0012935576 0.035472412 -0.0015085457 -0.020496901 7.071068e-011 7.071068e-011 7.071068e-011 7.071068e-011
7239039039.039 0.071839012 0.075433619 0.019978469 0.0057852492 7.071068e-011 7.071068e-011 7.071068e-011 7.071068e-011
7247447447.4474 0.074987851 -0.015028898 -0.011961764 0.017024901 7.071068e-011 7.071068e-011 7.071068e-011 7.071068e-011
7255855855.8559 -0.016720746 0.0076924618 -0.011658097 -0.016986582 7.071068e-011 7.071068e-011 7.071068e-011 7.071068e-011
7264264264.2643 0.035266697 0.084032968 0.020110365 -0.0054199663 7.071068e-011 7.071068e-011 7.071068e-011 7.071068e-011
7272672672.6727 0.074196927 0.00029092655 -0.0014499241 0.020548869 7.071068e-011 7.071068e-011 7.071068e-011 7.071068e-011
7281081081.0811 -0.030117102 0.0011188269 -0.018760061 -0.0083913933 7.071068e-011 7.071068e-011 7.071068e-011 7.071068e-011
7289489489.4895 0.00037714059 0.10772524 0.014654863 -0.01467238 7.071068e-011 7.071068e-011 7.071068e-011 7.071068e-011
7297897897.8979 0.084944636 0.050245639 0.0088706231 0.01880567 7.071068e-011 7.071068e-011 7.071068e-011 7.071068e-011
7306306306.3063 0.00070355576 0.0090537211 -0.020580644 0.0016495432 7.071068e-011 7.071068e-011 7.071068e-011 7.071068e-011
7314714714.7147 0.0044115912 0.11306037 0.0053310199 -0.020318152 7.071068e-011 7.071068e-011 7.071068e-011 7.071068e-011
7323123123.1231 0.11279367 0.074979328 0.017052941 0.011681474 7.071068e-011 7.071068e-011 7.071068e-011 7.071068e-011
7331531531.5315 0.050813153 -0.011792859 -0.017295066 0.011778437 7.071068e-011 7.071068e-011 7.071068e-011 7.071068e-011
7339939939.9399 0.0081164595 0.069019191 -0.0053937961 -0.020540439 7.071068e-011 7.071068e-011 7.071068e-011 7.071068e-011
7348348348.3483 0.10572356 0.063360564 0.020934731 0.0018544655 7.071068e-011 7.071068e-011 7.071068e-011 7.071068e-011
7356756756.7568 0.065783933 -0.037067268 -0.0091431299 0.018827206 7.071068e-011 7.071068e-011 7.071068e-011 7.071068e-011
7365165165.1652 -0.010162087 0.021252118 -0.014802341 -0.015147628 7.071068e-011 7.071068e-011 7.071068e-011 7.071068e-011
7373573573.5736 0.061852641 0.04963693 0.018989539 -0.0086375149 7.071068e-011 7.071068e-011 7.071068e-011 7.071068e-011
7381981981.982 0.043675631 -0.035574354 0.0011420007 0.021125421 7.071068e-011 7.071068e-011 7.071068e-011 7.071068e-011
7390390390.3904 -0.04315114 0.010000383 -0.020366624 -0.0060867695 7.071068e-011 7.071068e-011 7.071068e-011 7.071068e-011
7398798798.7988 0.013297426 0.07114058 0.012837046 -0.016753254 7.071068e-011 7.071068e-011 7.071068e-011 7.071068e-011
7407207207.2072 0.027741021 0.0095887473 0.011256995 0.017951978 7.071068e-011 7.071068e-011 7.071068e-011 7.071068e-011
7415615615.6156 -0.041076589 0.035612721 -0.020867957 0.0044718804 7.071068e-011 7.071068e-011 7.071068e-011 7.071068e-011
7424024024.024 0.0070372564 0.1050361 0.0029852099 -0.021057714 7.071068e-011 7.071068e-011 7.071068e-011 7.071068e-011
7432432432.4324 0.054637052 0.053896621 0.018721707 0.01035492 7.071068e-011 7.071068e-011 7.071068e-011 7.071068e-011
7440840840.8408 0.0096223503 0.042487353 -0.016091762 0.014122467 7.071068e-011 7.071068e-011 7.071068e-011 7.071068e-011
7449249249.2492 0.030431123 0.087218113 -0.007404801 -0.019852262 7.071068e-011 7.071068e-011 7.071068e-011 7.071068e-011
7457657657.6577 0.077971503 0.048796985 0.02126649 9.3374867e-005 7.071068e-011 7.071068e-011 7.071068e-011 7.071068e-011
7466066066.0661 0.041583605 0.014120398 -0.0074466267 0.019972941 7.071068e-011 7.071068e-011 7.071068e-011 7.071068e-011
7474474474.4745 0.030591879 0.039461546 -0.01599632 -0.013777453 7.071068e-011 7.071068e-011 7.071068e-011 7.071068e-011
7482882882.8829 0.059979144 0.028993314 0.018602548 -0.0098687811 7.071068e-011 7.071068e-011 7.071068e-011 7.071068e-011
7491291291.2913 0.038783845 -0.013438297 0.0027234319 0.020926602 7.071068e-011 7.071068e-011 7.071068e-011 7.071068e-011
7499699699.6997 -0.0033596549 0.0025391642 -0.020387301 -0.0048501776 7.071068e-011 7.071068e-011 7.071068e-011 7.071068e-011
7508108108.1081 0.0034431159 0.031947002 0.011691396 -0.01736377 7.071068e-011 7.071068e-011 7.071068e-011 7.071068e-011
7516516516.5165 0.019354867 0.011780852 0.012059161 0.016952271 7.071068e-011 7.071068e-011 7.071068e-011 7.071068e-011
7524924924.9249 -0.026545973 0.006689983 -0.020016406 0.0051469752 7.071068e-011 7.071068e-011 7.071068e-011 7.071068e-011
7533333333.3333 -0.029666496 0.066102743 0.0024719657 -0.020513074 7.071068e-011 7.071068e-011 7.071068e-011 7.071068e-011
7541741741.7417 0.027920414 0.068687983 0.018291686 0.0094240662 7.071068e-011 7.071068e-011 7.071068e-011 7.071068e-011
7550150150.1502 0.012787414 0.020576665 -0.015176504 0.013274618 7.071068e-011 7.071068e-011 7.071068e-011 7.071068e-011
7558558558.5586 -0.01526161 0.068670794 -0.0069145071 -0.019021988 7.071068e-011 7.071068e-011 7.071068e-011 7.071068e-011
7566966966.967 0.055793829 0.077953972 0.020005625 0.00041848022 7.071068e-011 7.071068e-011 7.071068e-011 7.071068e-011
7575375375.3754 0.053342175 0.0008445261 -0.0078589329 0.018489143 7.071068e-011 7.071068e-011 7.071068e-011 7.071068e-011
7583783783.7838 -0.011900738 0.024301177 -0.014444503 -0.014040438 7.071068e-011 7.071068e-011 7.071068e-011 7.071068e-011
7592192192.1922 0.04575716 0.060534317 0.017984651 -0.0083741993 7.071068e-011 7.071068e-011 7.071068e-011 7.071068e-011
7600600600.6006 0.051572911 -0.0245343 0.00093112391 0.019484095 7.071068e-011 7.071068e-011 7.071068e-011 7.071068e-011
7609009009.009 -0.038068809 -0.010519729 -0.018902067 -0.006485844 7.071068e-011 7.071068e-011 7.071068e-011 7.071068e-011
7617417417.4174 -0.0048787156 0.058122035 0.012580575 -0.015358697 7.071068e-011 7.071068e-011 7.071068e-011 7.071068e-011
7625825825.8258 0.026278354 -0.0043561761 0.0094810193 0.017375305 7.071068e-011 7.071068e-011 7.071068e-011 7.071068e-011
7634234234.2342 -0.060820207 0.0042103301 -0.019545861 0.0025016314 7.071068e-011 7.071068e-011 7.071068e-011 7.071068e-011
7642642642.6426 -0.026317174 0.091730244 0.0049325121 -0.018920548 7.071068e-011 7.071068e-011 7.071068e-011 7.071068e-011
7651051051.0511 0.037507124 0.042189896 0.015790442 0.011660589 7.071068e-011 7.071068e-011 7.071068e-011 7.071068e-011
7659459459.4595 -0.03007224 0.018280461 -0.016752329 0.010714589 7.071068e-011 7.071068e-011 7.071068e-011 7.071068e-011
7667867867.8679 -0.01132587 0.10260879 -0.003950797 -0.019112343 7.071068e-011 7.071068e-011 7.071068e-011 7.071068e-011
7676276276.2763 0.073891371 0.058741987 0.019109705 0.0039057054 7.071068e-011 7.071068e-011 7.071068e-011 7.071068e-011
7684684684.6847 0.02114515 -0.0038611745 -0.010726741 0.016650729 7.071068e-011 7.071068e-011 7.071068e-011 7.071068e-011
7693093093.0931 0.00080039713 0.054606345 -0.011530759 -0.015936585 7.071068e-011 7.071068e-011 7.071068e-011 7.071068e-011
7701501501.5015 0.071207456 0.032384947 0.019014157 -0.0048906584 7.071068e-011 7.071068e-011 7.071068e-011 7.071068e-011
7709909909.9099 0.023098193 -0.042534549 -0.0025545526 0.019528607 7.071068e-011 7.071068e-011 7.071068e-011 7.071068e-011
7718318318.3183 -0.033116464 0.011117136 -0.017252529 -0.0095439674 7.071068e-011 7.071068e-011 7.071068e-011 7.071068e-011
7726726726.7267 0.024632268 0.027667621 0.015414631 -0.01229264 7.071068e-011 7.071068e-011 7.071068e-011 7.071068e-011
7735135135.1351 0.0026562307 -0.041424002 0.0059963162 0.018947793 7.071068e-011 7.071068e-011 7.071068e-011 7.071068e-011
7743543543.5435 -0.075048715 8.4895428e-006 -0.019547595 -0.0013962904 7.071068e-011 7.071068e-011 7.071068e-011 7.071068e-011
7751951951.952 -0.0301724 0.064283937 0.0086735319 -0.017725943 7.071068e-011 7.071068e-011 7.071068e-011 7.071068e-011
7760360360.3604 -0.0027159897 0.017265992 0.013306946 0.014626191 7.071068e-011 7.071068e-011 7.071068e-011 7.071068e-011
7768768768.7688 -0.058463689 0.028561085 -0.018573573 0.0069364216 7.071068e-011 7.071068e-011 7.071068e-011 7.071068e-011
7777177177.1772 -0.027081091 0.095642269 0.00052646489 -0.019734319 7.071068e-011 7.071068e-011 7.071068e-011 7.071068e-011
7785585585.5856 0.033856191 0.057828281 0.018166052 0.0077628032 7.071068e-011 7.071068e-011 7.071068e-011 7.071068e-011
7793993993.994 -0.0057552052 0.027866257 -0.013870137 0.013748726 7.071068e-011 7.071068e-011 7.071068e-011 7.071068e-011
7802402402.4024 -0.00033491472 0.075042017 -0.0076430002 -0.018359559 7.071068e-011 7.071068e-011 7.071068e-011 7.071068e-011
7810810810.8108 0.058071107 0.048770007 0.019786935 -0.00051906396 7.071068e-011 7.071068e-011 7.071068e-011 7.071068e-011
7819219219.2192 0.025866287 -0.0064229546 -0.0070825466 0.018370364 7.071068e-011 7.071068e-011 7.071068e-011 7.071068e-011
7827627627.6276 -0.0035976775 0.02699301 -0.014462287 -0.013414769 7.071068e-011 7.071068e-011 7.071068e-011 7.071068e-011
7836036036.036 0.037631419 0.02569383 0.01782429 -0.0084105022 7.071068e-011 7.071068e-011 7.071068e-011 7.071068e-011
7844444444.4444 0.016414855 -0.023853524 0.0011843385 0.019725332 7.071068e-011 7.071068e-011 7.071068e-011 7.071068e-011
7852852852.8529 -0.028302168 0.0031652513 -0.018826537 -0.0062895869 7.071068e-011 7.071068e-011 7.071068e-011 7.071068e-011
7861261261.2613 0.001856337 0.029476404 0.012725729 -0.015099874 7.071068e-011 7.071068e-011 7.071068e-011 7.071068e-011
7869669669.6697 0.0053977394 -0.0093622841 0.0090775145 0.017537266 7.071068e-011 7.071068e-011 7.071068e-011 7.071068e-011
7878078078.0781 -0.040474866 0.0035139511 -0.019812262 0.0020348262 7.071068e-011 7.071068e-011 7.071068e-011 7.071068e-011
7886486486.4865 -0.024298189 0.046977777 0.005320929 -0.019047698 7.071068e-011 7.071068e-011 7.071068e-011 7.071068e-011
7894894894.8949 0.010935474 0.030167798 0.015455636 0.011944139 7.071068e-011 7.071068e-011 7.071068e-011 7.071068e-011
7903303303.3033 -0.013638032 0.011112143 -0.017064778 0.0097604236 7.071068e-011 7.071068e-011 7.071068e-011 7.071068e-011
7911711711.7117 -0.017796366 0.044068146 -0.0028345468 -0.019487431 7.071068e-011 7.071068e-011 7.071068e-011 7.071068e-011
7920120120.1201 0.023190169 0.044812758 0.018923936 0.0046631601 7.071068e-011 7.071068e-011 7.071068e-011 7.071068e-011
7928528528.5285 0.023493776 0.0019011289 -0.011408299 0.015775844 7.071068e-011 7.071068e-011 7.071068e-011 7.071068e-011
7936936936.9369 -0.0099781519 0.011321949 -0.010216978 -0.016358441 7.071068e-011 7.071068e-011 7.071068e-011 7.071068e-011
7945345345.3453 0.017974263 0.032102574 0.019021261 -0.0031531984 7.071068e-011 7.071068e-011 7.071068e-011 7.071068e-011
