!Keysight Technologies,N5235B,MY61252044,A.15.00.15
!Date: Friday, January 20, 2023 19:38:24
!Correction: S11(Off) 
!S21(Off) 
!S12(Off) 
!S22(Off) 
!S2P File: Measurements: S11, S21, S12, S22:
# Hz S  RI   R 50
6600000000 0.017315956 -0.17459336 0.014887732 -0.0052117333 7.071068e-011 7.071068e-011 7.071068e-011 7.071068e-011
6608400000 -0.12390909 0.1662163 0.00677128 0.010007849 7.071068e-011 7.071068e-011 7.071068e-011 7.071068e-011
6616800000 0.30663988 0.092146337 -0.0083368495 0.0048623616 7.071068e-011 7.071068e-011 7.071068e-011 7.071068e-011
6625200000 0.024256585 -0.27300802 -0.0029840947 -0.0089966608 7.071068e-011 7.071068e-011 7.071068e-011 7.071068e-011
6633600000 -0.16610429 0.16099837 0.0092125349 -0.0015765779 7.071068e-011 7.071068e-011 7.071068e-011 7.071068e-011
6642000000 0.2900148 0.1144263 -0.00069584261 0.0094536748 7.071068e-011 7.071068e-011 7.071068e-011 7.071068e-011
6650400000 0.040267788 -0.25268894 -0.01111244 -0.0028091685 7.071068e-011 7.071068e-011 7.071068e-011 7.071068e-011
6658800000 -0.14936092 0.13295291 0.0046233884 -0.01209471 7.071068e-011 7.071068e-011 7.071068e-011 7.071068e-011
6667200000 0.22776185 0.10383996 0.013078981 0.0077489414 7.071068e-011 7.071068e-011 7.071068e-011 7.071068e-011
6675600000 0.044840422 -0.15263872 -0.010057129 0.014887659 7.071068e-011 7.071068e-011 7.071068e-011 7.071068e-011
6684000000 -0.045455169 0.083851062 -0.015849795 -0.011871002 7.071068e-011 7.071068e-011 7.071068e-011 7.071068e-011
6692400000 0.10531302 0.048622526 0.013298709 -0.016263157 7.071068e-011 7.071068e-011 7.071068e-011 7.071068e-011
6700800000 0.086123742 0.01727324 0.01605189 0.014012537 7.071068e-011 7.071068e-011 7.071068e-011 7.071068e-011
6709200000 0.078025833 -0.040022619 -0.014432986 0.014404121 7.071068e-011 7.071068e-011 7.071068e-011 7.071068e-011
6717600000 -0.03140739 0.031570915 -0.01150391 -0.015621352 7.071068e-011 7.071068e-011 7.071068e-011 7.071068e-011
6726000000 0.15269369 0.11814312 0.016186418 -0.0083989138 7.071068e-011 7.071068e-011 7.071068e-011 7.071068e-011
6734400000 0.13211215 -0.13840388 0.0047749467 0.015927123 7.071068e-011 7.071068e-011 7.071068e-011 7.071068e-011
6742800000 -0.10808389 0.021379013 -0.015917184 0.00087461178 7.071068e-011 7.071068e-011 7.071068e-011 7.071068e-011
6751200000 0.16693515 0.15596294 0.0025828059 -0.015605261 7.071068e-011 7.071068e-011 7.071068e-011 7.071068e-011
6759600000 0.15626465 -0.16847177 0.013621067 0.0062332931 7.071068e-011 7.071068e-011 7.071068e-011 7.071068e-011
6768000000 -0.14673416 -0.01247385 -0.01021646 0.011032553 7.071068e-011 7.071068e-011 7.071068e-011 7.071068e-011
6776400000 0.12809858 0.18206935 -0.0087237079 -0.013020294 7.071068e-011 7.071068e-011 7.071068e-011 7.071068e-011
6784800000 0.1570674 -0.14175914 0.014317795 -0.0047730152 7.071068e-011 7.071068e-011 7.071068e-011 7.071068e-011
6793200000 -0.1464006 -0.015040477 0.00039232816 0.015501403 7.071068e-011 7.071068e-011 7.071068e-011 7.071068e-011
6801600000 0.094419539 0.20578539 -0.015903853 -0.0036361727 7.071068e-011 7.071068e-011 7.071068e-011 7.071068e-011
6810000000 0.17743146 -0.089896254 0.0081332549 -0.014768113 7.071068e-011 7.071068e-011 7.071068e-011 7.071068e-011
6818400000 -0.10271043 -0.018244265 0.01253382 0.012794399 7.071068e-011 7.071068e-011 7.071068e-011 7.071068e-011
6826800000 0.079933137 0.18789019 -0.015664604 0.0096467678 7.071068e-011 7.071068e-011 7.071068e-011 7.071068e-011
6835200000 0.18583395 -0.043963529 -0.0049366914 -0.017756162 7.071068e-011 7.071068e-011 7.071068e-011 7.071068e-011
6843600000 -0.042295266 -0.033509068 0.020171525 -0.00016085702 7.071068e-011 7.071068e-011 7.071068e-011 7.071068e-011
6852000000 0.068160184 0.13003801 -0.0042496575 0.020386541 7.071068e-011 7.071068e-011 7.071068e-011 7.071068e-011
6860400000 0.14851759 -0.016264379 -0.018691408 -0.0093781091 7.071068e-011 7.071068e-011 7.071068e-011 7.071068e-011
6868800000 0.0062357169 -0.030355977 0.014400242 -0.016173758 7.071068e-011 7.071068e-011 7.071068e-011 7.071068e-011
6877200000 0.05058879 0.072420523 0.012744333 0.018074634 7.071068e-011 7.071068e-011 7.071068e-011 7.071068e-011
6885600000 0.091929309 0.0088971592 -0.020464312 0.0077230977 7.071068e-011 7.071068e-011 7.071068e-011 7.071068e-011
6894000000 0.047786444 -0.001831845 -0.002198529 -0.022040458 7.071068e-011 7.071068e-011 7.071068e-011 7.071068e-011
6902400000 0.038347475 0.0191989 0.021978911 0.0034717936 7.071068e-011 7.071068e-011 7.071068e-011 7.071068e-011
6910800000 0.030864015 0.036161721 -0.0090585509 0.020107228 7.071068e-011 7.071068e-011 7.071068e-011 7.071068e-011
6919200000 0.076525286 0.051612757 -0.016734881 -0.013895162 7.071068e-011 7.071068e-011 7.071068e-011 7.071068e-011
6927600000 0.053775098 -0.011684685 0.017538769 -0.012429919 7.071068e-011 7.071068e-011 7.071068e-011 7.071068e-011
6936000000 -0.0031878506 0.057545461 0.0068167448 0.019703656 7.071068e-011 7.071068e-011 7.071068e-011 7.071068e-011
6944400000 0.10789663 0.093376406 -0.020879522 0.00053082779 7.071068e-011 7.071068e-011 7.071068e-011 7.071068e-011
6952800000 0.090373144 -0.043253258 0.0051502478 -0.01986625 7.071068e-011 7.071068e-011 7.071068e-011 7.071068e-011
6961200000 -0.029128723 0.047287844 0.016978396 0.010589063 7.071068e-011 7.071068e-011 7.071068e-011 7.071068e-011
6969600000 0.11774936 0.11076418 -0.015092033 0.012953586 7.071068e-011 7.071068e-011 7.071068e-011 7.071068e-011
6978000000 0.11020923 -0.066477023 -0.0076442198 -0.017754635 7.071068e-011 7.071068e-011 7.071068e-011 7.071068e-011
6986400000 -0.063868016 0.022925777 0.018823553 -0.001419315 7.071068e-011 7.071068e-011 7.071068e-011 7.071068e-011
6994800000 0.094122522 0.1379686 -0.004582291 0.018723473 7.071068e-011 7.071068e-011 7.071068e-011 7.071068e-011
7003200000 0.11747227 -0.051483501 -0.016127739 -0.0098779369 7.071068e-011 7.071068e-011 7.071068e-011 7.071068e-011
7011600000 -0.071259737 0.020958161 0.014820606 -0.01159011 7.071068e-011 7.071068e-011 7.071068e-011 7.071068e-011
7020000000 0.077690341 0.16489699 0.0066630864 0.017796239 7.071068e-011 7.071068e-011 7.071068e-011 7.071068e-011
7028400000 0.13994019 -0.021248788 -0.018626709 0.00058873888 7.071068e-011 7.071068e-011 7.071068e-011 7.071068e-011
7036800000 -0.050736193 0.019379109 0.0057897908 -0.018279633 7.071068e-011 7.071068e-011 7.071068e-011 7.071068e-011
7045200000 0.078498706 0.17307685 0.015675958 0.011060003 7.071068e-011 7.071068e-011 7.071068e-011 7.071068e-011
7053600000 0.17307734 0.006254978 -0.0155888 0.010836516 7.071068e-011 7.071068e-011 7.071068e-011 7.071068e-011
7062000000 -0.0025225375 -0.012900986 -0.0052064359 -0.01898787 7.071068e-011 7.071068e-011 7.071068e-011 7.071068e-011
7070400000 0.068026133 0.14014554 0.019844059 0.00059265533 7.071068e-011 7.071068e-011 7.071068e-011 7.071068e-011
7078800000 0.17138039 0.016349554 -0.0072248857 0.018184442 7.071068e-011 7.071068e-011 7.071068e-011 7.071068e-011
7087200000 0.038992796 -0.032548968 -0.015422908 -0.013075169 7.071068e-011 7.071068e-011 7.071068e-011 7.071068e-011
7095600000 0.051869672 0.087206639 0.017189603 -0.010819499 7.071068e-011 7.071068e-011 7.071068e-011 7.071068e-011
7104000000 0.14877936 0.01762213 0.0044899597 0.019754909 7.071068e-011 7.071068e-011 7.071068e-011 7.071068e-011
7112400000 0.056910809 -0.046537392 -0.020470668 -0.0023895958 7.071068e-011 7.071068e-011 7.071068e-011 7.071068e-011
7120800000 0.030852836 0.028258078 0.0085539529 -0.01898893 7.071068e-011 7.071068e-011 7.071068e-011 7.071068e-011
7129200000 0.088946342 0.018990662 0.014945974 0.01394363 7.071068e-011 7.071068e-011 7.071068e-011 7.071068e-011
7137600000 0.047591291 -0.037920058 -0.018524241 0.0095203165 7.071068e-011 7.071068e-011 7.071068e-011 7.071068e-011
7146000000 -0.00013144278 0.0095259659 -0.0032708237 -0.02074435 7.071068e-011 7.071068e-011 7.071068e-011 7.071068e-011
7154400000 0.028024008 0.04196576 0.020515317 0.0035549426 7.071068e-011 7.071068e-011 7.071068e-011 7.071068e-011
7162800000 0.046334773 0.017203745 -0.010139911 0.017889667 7.071068e-011 7.071068e-011 7.071068e-011 7.071068e-011
7171200000 0.0034389566 0.017792786 -0.013743258 -0.015569988 7.071068e-011 7.071068e-011 7.071068e-011 7.071068e-011
7179600000 0.014723592 0.070107967 0.018980853 -0.0078553744 7.071068e-011 7.071068e-011 7.071068e-011 7.071068e-011
7188000000 0.066325858 0.059938122 0.00083874271 0.020800993 7.071068e-011 7.071068e-011 7.071068e-011 7.071068e-011
7196400000 0.04398834 0.010294829 -0.01997244 -0.0058521596 7.071068e-011 7.071068e-011 7.071068e-011 7.071068e-011
7204800000 0.010032319 0.062425178 0.012182118 -0.016303554 7.071068e-011 7.071068e-011 7.071068e-011 7.071068e-011
7213200000 0.078943327 0.071642675 0.011286148 0.017188691 7.071068e-011 7.071068e-011 7.071068e-011 7.071068e-011
7221600000 0.071934409 -0.0026206507 -0.020119799 0.0050579729 7.071068e-011 7.071068e-011 7.071068e-011 7.071068e-011
7230000000 -0.00079389935 0.028555987 0.0019685701 -0.020506164 7.071068e-011 7.071068e-011 7.071068e-011 7.071068e-011
7238400000 0.064778097 0.078691028 0.018637601 0.0091823721 7.071068e-011 7.071068e-011 7.071068e-011 7.071068e-011
7246800000 0.081167452 -0.0093293022 -0.014843731 0.014613779 7.071068e-011 7.071068e-011 7.071068e-011 7.071068e-011
7255200000 -0.012847535 -5.3736934e-005 -0.0083897347 -0.018789716 7.071068e-011 7.071068e-011 7.071068e-011 7.071068e-011
7263600000 0.026717555 0.083982743 0.020763861 -0.0016018614 7.071068e-011 7.071068e-011 7.071068e-011 7.071068e-011
7272000000 0.078718752 0.0082088076 -0.0052954066 0.019951524 7.071068e-011 7.071068e-011 7.071068e-011 7.071068e-011
7280400000 -0.023431811 -0.0064235334 -0.016818905 -0.011888828 7.071068e-011 7.071068e-011 7.071068e-011 7.071068e-011
7288800000 -0.0090709543 0.10315219 0.017267246 -0.011443451 7.071068e-011 7.071068e-011 7.071068e-011 7.071068e-011
7297200000 0.084902644 0.059962846 0.0048678424 0.020206723 7.071068e-011 7.071068e-011 7.071068e-011 7.071068e-011
7305600000 0.0088292286 0.0044431211 -0.020451318 -0.0025615504 7.071068e-011 7.071068e-011 7.071068e-011 7.071068e-011
7314000000 -0.0040233559 0.10606796 0.0094797071 -0.018769098 7.071068e-011 7.071068e-011 7.071068e-011 7.071068e-011
7322400000 0.10855121 0.085784122 0.014221081 0.015044132 7.071068e-011 7.071068e-011 7.071068e-011 7.071068e-011
7330800000 0.060619231 -0.011665275 -0.019414229 0.0076794717 7.071068e-011 7.071068e-011 7.071068e-011 7.071068e-011
7339200000 0.0039422554 0.060524348 -0.00063390622 -0.021242522 7.071068e-011 7.071068e-011 7.071068e-011 7.071068e-011
7347600000 0.099052452 0.072330967 0.019997513 0.0065163607 7.071068e-011 7.071068e-011 7.071068e-011 7.071068e-011
7356000000 0.076202095 -0.033613227 -0.01314401 0.016200406 7.071068e-011 7.071068e-011 7.071068e-011 7.071068e-011
7364400000 -0.010156131 0.012276155 -0.010805923 -0.018196471 7.071068e-011 7.071068e-011 7.071068e-011 7.071068e-011
7372800000 0.054528192 0.054740317 0.020577766 -0.0039102868 7.071068e-011 7.071068e-011 7.071068e-011 7.071068e-011
7381200000 0.053021193 -0.030727813 -0.0039997683 0.020751707 7.071068e-011 7.071068e-011 7.071068e-011 7.071068e-011
7389600000 -0.040741153 0.00037825826 -0.018215822 -0.010916601 7.071068e-011 7.071068e-011 7.071068e-011 7.071068e-011
7398000000 0.005239456 0.072009787 0.016570747 -0.012984963 7.071068e-011 7.071068e-011 7.071068e-011 7.071068e-011
7406400000 0.033150017 0.015065765 0.0063295062 0.020207185 7.071068e-011 7.071068e-011 7.071068e-011 7.071068e-011
7414800000 -0.037973348 0.02707742 -0.021341329 -0.0010706618 7.071068e-011 7.071068e-011 7.071068e-011 7.071068e-011
7423200000 -0.0018387439 0.10362173 0.0083914185 -0.019552356 7.071068e-011 7.071068e-011 7.071068e-011 7.071068e-011
7431600000 0.055615634 0.060689595 0.015236625 0.014938068 7.071068e-011 7.071068e-011 7.071068e-011 7.071068e-011
7440000000 0.013384398 0.038382895 -0.019335359 0.009223274 7.071068e-011 7.071068e-011 7.071068e-011 7.071068e-011
7448400000 0.02407928 0.085472077 -0.0017095197 -0.021114195 7.071068e-011 7.071068e-011 7.071068e-011 7.071068e-011
7456800000 0.077360265 0.05548637 0.020392574 0.0059696184 7.071068e-011 7.071068e-011 7.071068e-011 7.071068e-011
7465200000 0.046280369 0.013902446 -0.012782938 0.017046597 7.071068e-011 7.071068e-011 7.071068e-011 7.071068e-011
7473600000 0.02846341 0.036838841 -0.011392141 -0.01779592 7.071068e-011 7.071068e-011 7.071068e-011 7.071068e-011
7482000000 0.05833108 0.033338331 0.020642238 -0.0040484937 7.071068e-011 7.071068e-011 7.071068e-011 7.071068e-011
7490400000 0.043679956 -0.010861778 -0.003557859 0.020813638 7.071068e-011 7.071068e-011 7.071068e-011 7.071068e-011
7498800000 -0.00075725926 -0.0015388642 -0.018022118 -0.010660462 7.071068e-011 7.071068e-011 7.071068e-011 7.071068e-011
7507200000 0.00045511482 0.030861279 0.016378663 -0.013027294 7.071068e-011 7.071068e-011 7.071068e-011 7.071068e-011
7515600000 0.020606739 0.01551693 0.0062858406 0.019842831 7.071068e-011 7.071068e-011 7.071068e-011 7.071068e-011
7524000000 -0.020886114 0.0030588768 -0.020648621 -0.0013128172 7.071068e-011 7.071068e-011 7.071068e-011 7.071068e-011
7532400000 -0.034285095 0.059979502 0.0087670293 -0.018685225 7.071068e-011 7.071068e-011 7.071068e-011 7.071068e-011
7540800000 0.022734446 0.07336878 0.014360758 0.014743446 7.071068e-011 7.071068e-011 7.071068e-011 7.071068e-011
7549200000 0.019597832 0.022318307 -0.018575789 0.0077456669 7.071068e-011 7.071068e-011 7.071068e-011 7.071068e-011
7557600000 -0.018427329 0.060925327 -0.00033183297 -0.020242983 7.071068e-011 7.071068e-011 7.071068e-011 7.071068e-011
7566000000 0.047765259 0.083595 0.018818859 0.0069935289 7.071068e-011 7.071068e-011 7.071068e-011 7.071068e-011
7574400000 0.061013367 0.0079694102 -0.013540298 0.01481419 7.071068e-011 7.071068e-011 7.071068e-011 7.071068e-011
7582800000 -0.0098336311 0.015183423 -0.0088338992 -0.018026577 7.071068e-011 7.071068e-011 7.071068e-011 7.071068e-011
7591200000 0.036454789 0.06441173 0.019746177 -0.0017453636 7.071068e-011 7.071068e-011 7.071068e-011 7.071068e-011
7599600000 0.059343431 -0.014951559 -0.005757723 0.018641528 7.071068e-011 7.071068e-011 7.071068e-011 7.071068e-011
7608000000 -0.030956784 -0.020714834 -0.015431278 -0.012664959 7.071068e-011 7.071068e-011 7.071068e-011 7.071068e-011
7616400000 -0.015095622 0.056751885 0.017220398 -0.0099701686 7.071068e-011 7.071068e-011 7.071068e-011 7.071068e-011
7624800000 0.031525951 0.0051714028 0.0026451277 0.019555543 7.071068e-011 7.071068e-011 7.071068e-011 7.071068e-011
7633200000 -0.052552704 -0.0062854984 -0.019102551 -0.0047065085 7.071068e-011 7.071068e-011 7.071068e-011 7.071068e-011
7641600000 -0.038435768 0.086702026 0.01143364 -0.015829626 7.071068e-011 7.071068e-011 7.071068e-011 7.071068e-011
7650000000 0.037698332 0.053316139 0.010430609 0.016612396 7.071068e-011 7.071068e-011 7.071068e-011 7.071068e-011
7658400000 -0.02070378 0.011600091 -0.019532068 0.0037017029 7.071068e-011 7.071068e-011 7.071068e-011 7.071068e-011
7666800000 -0.022965824 0.09570083 0.0035076388 -0.019245315 7.071068e-011 7.071068e-011 7.071068e-011 7.071068e-011
7675200000 0.069596305 0.071837857 0.016117882 0.010792484 7.071068e-011 7.071068e-011 7.071068e-011 7.071068e-011
7683600000 0.03208562 -0.0041371752 -0.016283963 0.011217342 7.071068e-011 7.071068e-011 7.071068e-011 7.071068e-011
7692000000 -0.0052959225 0.046821721 -0.0045087459 -0.019144047 7.071068e-011 7.071068e-011 7.071068e-011 7.071068e-011
7700400000 0.065648995 0.043869998 0.019436684 0.0028830336 7.071068e-011 7.071068e-011 7.071068e-011 7.071068e-011
7708800000 0.035778023 -0.039671488 -0.010036415 0.016905893 7.071068e-011 7.071068e-011 7.071068e-011 7.071068e-011
7717200000 -0.033650782 0.00055976876 -0.011976611 -0.015666103 7.071068e-011 7.071068e-011 7.071068e-011 7.071068e-011
7725600000 0.016693478 0.033872455 0.018992407 -0.0050549908 7.071068e-011 7.071068e-011 7.071068e-011 7.071068e-011
7734000000 0.014183336 -0.035528161 -0.0021942542 0.01974093 7.071068e-011 7.071068e-011 7.071068e-011 7.071068e-011
7742400000 -0.070717864 -0.012426308 -0.017265709 -0.009214852 7.071068e-011 7.071068e-011 7.071068e-011 7.071068e-011
7750800000 -0.040701941 0.062453367 0.015241894 -0.012501252 7.071068e-011 7.071068e-011 7.071068e-011 7.071068e-011
7759200000 0.0015566448 0.025362438 0.0059728762 0.018892922 7.071068e-011 7.071068e-011 7.071068e-011 7.071068e-011
7767600000 -0.053244311 0.019450804 -0.019758239 -0.0015185609 7.071068e-011 7.071068e-011 7.071068e-011 7.071068e-011
7776000000 -0.03786068 0.090853713 0.0087857945 -0.01758666 7.071068e-011 7.071068e-011 7.071068e-011 7.071068e-011
7784400000 0.031433422 0.068182185 0.013057034 0.014792737 7.071068e-011 7.071068e-011 7.071068e-011 7.071068e-011
7792800000 0.0014068065 0.024741121 -0.018472428 0.0064780698 7.071068e-011 7.071068e-011 7.071068e-011 7.071068e-011
7801200000 -0.0077092075 0.070110977 0.0011491551 -0.019831065 7.071068e-011 7.071068e-011 7.071068e-011 7.071068e-011
7809600000 0.053083431 0.05855472 0.018014088 0.0082522873 7.071068e-011 7.071068e-011 7.071068e-011 7.071068e-011
7818000000 0.03541914 -0.0043313494 -0.014433782 0.013282104 7.071068e-011 7.071068e-011 7.071068e-011 7.071068e-011
7826400000 -0.0055629765 0.02074492 -0.0069404864 -0.018458264 7.071068e-011 7.071068e-011 7.071068e-011 7.071068e-011
7834800000 0.032477248 0.031608466 0.019708877 0.00050078204 7.071068e-011 7.071068e-011 7.071068e-011 7.071068e-011
7843200000 0.025334833 -0.019616978 -0.0079068691 0.018125474 7.071068e-011 7.071068e-011 7.071068e-011 7.071068e-011
7851600000 -0.02675952 -0.0047283689 -0.013822522 -0.014218882 7.071068e-011 7.071068e-011 7.071068e-011 7.071068e-011
7860000000 -0.0042467406 0.030782524 0.018279156 -0.0075213406 7.071068e-011 7.071068e-011 7.071068e-011 7.071068e-011
7868400000 0.010416107 -0.003429069 -0.00011167248 0.019712178 7.071068e-011 7.071068e-011 7.071068e-011 7.071068e-011
7876800000 -0.036156926 -0.0038897651 -0.018446727 -0.0075222221 7.071068e-011 7.071068e-011 7.071068e-011 7.071068e-011
7885200000 -0.030618198 0.043431271 0.013698332 -0.014282686 7.071068e-011 7.071068e-011 7.071068e-011 7.071068e-011
7893600000 0.0088257231 0.036230076 0.0079310983 0.017869867 7.071068e-011 7.071068e-011 7.071068e-011 7.071068e-011
7902000000 -0.008199946 0.0093181878 -0.019644381 0.00034806409 7.071068e-011 7.071068e-011 7.071068e-011 7.071068e-011
7910400000 -0.021411959 0.038960837 0.0069722612 -0.018475585 7.071068e-011 7.071068e-011 7.071068e-011 7.071068e-011
7918800000 0.017018814 0.049029265 0.014297506 0.013237435 7.071068e-011 7.071068e-011 7.071068e-011 7.071068e-011
7927200000 0.028651731 0.0074418271 -0.017672557 0.0081215017 7.071068e-011 7.071068e-011 7.071068e-011 7.071068e-011
7935600000 -0.0079784775 0.0057183369 -0.00078356062 -0.019311896 7.071068e-011 7.071068e-011 7.071068e-011 7.071068e-011
7944000000 0.010868164 0.033186432 0.018120298 0.006727492 7.071068e-011 7.071068e-011 7.071068e-011 7.071068e-011
7952400000 0.037540331 -0.005528687 -0.013146845 0.014181563 7.071068e-011 7.071068e-011 7.071068e-011 7.071068e-011
7960800000 -0.01494694 -0.033431131 -0.0082115773 -0.017471328 7.071068e-011 7.071068e-011 7.071068e-011 7.071068e-011
7969200000 -0.029296501 0.020719204 0.018998608 -0.00084213068 7.071068e-011 7.071068e-011 7.071068e-011 7.071068e-011
7977600000 0.019965079 0.0069633159 -0.0065911892 0.017860856 7.071068e-011 7.071068e-011 7.071068e-011 7.071068e-011
7986000000 -0.024061387 -0.039766844 -0.014029514 -0.012852673 7.071068e-011 7.071068e-011 7.071068e-011 7.071068e-011
7994400000 -0.06543605 0.02465732 0.017148221 -0.0080797784 7.071068e-011 7.071068e-011 7.071068e-011 7.071068e-011
