!Keysight Technologies,N5235B,MY61252044,A.15.00.15
!Date: Friday, January 20, 2023 23:51:05
!Correction: S11(Off) 
!S21(Off) 
!S12(Off) 
!S22(Off) 
!S2P File: Measurements: S11, S21, S12, S22:
# Hz S  RI   R 50
6600000000 0.018964579 -0.17537233 0.015448632 -0.0030382208 7.071068e-011 7.071068e-011 7.071068e-011 7.071068e-011
6608408408.4084 -0.12491121 0.16513513 0.005292228 0.010836144 7.071068e-011 7.071068e-011 7.071068e-011 7.071068e-011
6616816816.8168 0.30571926 0.093245506 -0.0089121182 0.0036796862 7.071068e-011 7.071068e-011 7.071068e-011 7.071068e-011
6625225225.2252 0.025270827 -0.2729671 -0.0017681923 -0.0093046678 7.071068e-011 7.071068e-011 7.071068e-011 7.071068e-011
6633633633.6336 -0.16603516 0.16082774 0.0093374597 -0.00037458265 7.071068e-011 7.071068e-011 7.071068e-011 7.071068e-011
6642042042.042 0.28953969 0.11368285 -0.0018684868 0.0093162898 7.071068e-011 7.071068e-011 7.071068e-011 7.071068e-011
6650450450.4505 0.039736576 -0.25198898 -0.010718468 -0.0041065901 7.071068e-011 7.071068e-011 7.071068e-011 7.071068e-011
6658858858.8589 -0.14862505 0.13386428 0.0059956126 -0.011487267 7.071068e-011 7.071068e-011 7.071068e-011 7.071068e-011
6667267267.2673 0.22818317 0.10163 0.012189902 0.0091848429 7.071068e-011 7.071068e-011 7.071068e-011 7.071068e-011
6675675675.6757 0.04328109 -0.15100528 -0.011553328 0.013807991 7.071068e-011 7.071068e-011 7.071068e-011 7.071068e-011
6684084084.0841 -0.044457775 0.083857134 -0.014578858 -0.013370801 7.071068e-011 7.071068e-011 7.071068e-011 7.071068e-011
6692492492.4925 0.10562455 0.047574867 0.014835874 -0.014896787 7.071068e-011 7.071068e-011 7.071068e-011 7.071068e-011
6700900900.9009 0.08598385 0.018447941 0.014741451 0.015428969 7.071068e-011 7.071068e-011 7.071068e-011 7.071068e-011
6709309309.3093 0.077411063 -0.041877974 -0.015565695 0.013083298 7.071068e-011 7.071068e-011 7.071068e-011 7.071068e-011
6717717717.7177 -0.031259473 0.034089435 -0.010115083 -0.016488729 7.071068e-011 7.071068e-011 7.071068e-011 7.071068e-011
6726126126.1261 0.15478556 0.11651737 0.016804397 -0.0070599006 7.071068e-011 7.071068e-011 7.071068e-011 7.071068e-011
6734534534.5345 0.1290126 -0.14045909 0.003531859 0.016232274 7.071068e-011 7.071068e-011 7.071068e-011 7.071068e-011
6742942942.9429 -0.10790151 0.026133316 -0.015904596 -0.00030076533 7.071068e-011 7.071068e-011 7.071068e-011 7.071068e-011
6751351351.3514 0.17102414 0.15285988 0.0036395714 -0.015359635 7.071068e-011 7.071068e-011 7.071068e-011 7.071068e-011
6759759759.7598 0.15114021 -0.17122744 0.013166895 0.0070848139 7.071068e-011 7.071068e-011 7.071068e-011 7.071068e-011
6768168168.1682 -0.14683861 -0.0060955645 -0.010867519 0.010389082 7.071068e-011 7.071068e-011 7.071068e-011 7.071068e-011
6776576576.5766 0.13346423 0.17913908 -0.0079798726 -0.013479661 7.071068e-011 7.071068e-011 7.071068e-011 7.071068e-011
6784984984.985 0.15164457 -0.14578328 0.01455834 -0.0039927876 7.071068e-011 7.071068e-011 7.071068e-011 7.071068e-011
6793393393.3934 -0.14725634 -0.0071700006 -0.00037093507 0.015514405 7.071068e-011 7.071068e-011 7.071068e-011 7.071068e-011
6801801801.8018 0.10094268 0.2027829 -0.015704496 -0.0043184604 7.071068e-011 7.071068e-011 7.071068e-011 7.071068e-011
6810210210.2102 0.17278676 -0.094462186 0.0086939391 -0.014413365 7.071068e-011 7.071068e-011 7.071068e-011 7.071068e-011
6818618618.6186 -0.10509212 -0.010842979 0.012119061 0.013248616 7.071068e-011 7.071068e-011 7.071068e-011 7.071068e-011
6827027027.027 0.087321877 0.18547256 -0.015967632 0.0091789532 7.071068e-011 7.071068e-011 7.071068e-011 7.071068e-011
6835435435.4354 0.18165956 -0.048356522 -0.0044499231 -0.017894695 7.071068e-011 7.071068e-011 7.071068e-011 7.071068e-011
6843843843.8438 -0.045181014 -0.028379226 0.020161586 0.00028047041 7.071068e-011 7.071068e-011 7.071068e-011 7.071068e-011
6852252252.2523 0.074378222 0.1292025 -0.004614884 0.020283947 7.071068e-011 7.071068e-011 7.071068e-011 7.071068e-011
6860660660.6607 0.14518315 -0.019983422 -0.018581739 -0.0096317846 7.071068e-011 7.071068e-011 7.071068e-011 7.071068e-011
6869069069.0691 0.004350014 -0.027211158 0.014537882 -0.016060086 7.071068e-011 7.071068e-011 7.071068e-011 7.071068e-011
6877477477.4775 0.05384583 0.072462969 0.012645426 0.018105274 7.071068e-011 7.071068e-011 7.071068e-011 7.071068e-011
6885885885.8859 0.090354197 0.0070370734 -0.020451494 0.0076720621 7.071068e-011 7.071068e-011 7.071068e-011 7.071068e-011
6894294294.2943 0.047334131 -0.0010204561 -0.0022714974 -0.022008415 7.071068e-011 7.071068e-011 7.071068e-011 7.071068e-011
6902702702.7027 0.038229764 0.019306643 0.021973373 0.0032783907 7.071068e-011 7.071068e-011 7.071068e-011 7.071068e-011
6911111111.1111 0.030925641 0.037621748 -0.008803064 0.020188928 7.071068e-011 7.071068e-011 7.071068e-011 7.071068e-011
6919519519.5195 0.07823956 0.050035872 -0.016911833 -0.013642299 7.071068e-011 7.071068e-011 7.071068e-011 7.071068e-011
6927927927.9279 0.050900988 -0.012401097 0.017253956 -0.012742354 7.071068e-011 7.071068e-011 7.071068e-011 7.071068e-011
6936336336.3363 -0.0022505501 0.062023994 0.0072399983 0.019475047 7.071068e-011 7.071068e-011 7.071068e-011 7.071068e-011
6944744744.7447 0.11228338 0.089513339 -0.020828512 0.0011130054 7.071068e-011 7.071068e-011 7.071068e-011 7.071068e-011
6953153153.1532 0.084536679 -0.045471411 0.0045144162 -0.019976731 7.071068e-011 7.071068e-011 7.071068e-011 7.071068e-011
6961561561.5616 -0.028383104 0.054171152 0.01731085 0.0099700438 7.071068e-011 7.071068e-011 7.071068e-011 7.071068e-011
6969969969.97 0.1244202 0.10604998 -0.014525366 0.013517468 7.071068e-011 7.071068e-011 7.071068e-011 7.071068e-011
6978378378.3784 0.10194863 -0.07066188 -0.0083509041 -0.017372817 7.071068e-011 7.071068e-011 7.071068e-011 7.071068e-011
6986786786.7868 -0.064068072 0.032427393 0.018722622 -0.002253108 7.071068e-011 7.071068e-011 7.071068e-011 7.071068e-011
6995195195.1952 0.10270275 0.13403247 -0.003580323 0.018901279 7.071068e-011 7.071068e-011 7.071068e-011 7.071068e-011
7003603603.6036 0.10914831 -0.057706207 -0.016580721 -0.0089249751 7.071068e-011 7.071068e-011 7.071068e-011 7.071068e-011
7012012012.012 -0.072621033 0.032167871 0.014130219 -0.012443619 7.071068e-011 7.071068e-011 7.071068e-011 7.071068e-011
7020420420.4204 0.087739117 0.16149497 0.007763898 0.017327804 7.071068e-011 7.071068e-011 7.071068e-011 7.071068e-011
7028828828.8288 0.13281463 -0.02878885 -0.018518988 0.0018015309 7.071068e-011 7.071068e-011 7.071068e-011 7.071068e-011
7037237237.2372 -0.053860337 0.030397067 0.004445069 -0.018626502 7.071068e-011 7.071068e-011 7.071068e-011 7.071068e-011
7045645645.6456 0.089761227 0.17090164 0.016426602 0.0098188929 7.071068e-011 7.071068e-011 7.071068e-011 7.071068e-011
7054054054.0541 0.16769895 -0.0028464249 -0.014685816 0.0120174 7.071068e-011 7.071068e-011 7.071068e-011 7.071068e-011
7062462462.4625 -0.007952149 -0.0042178673 -0.0068033007 -0.018475272 7.071068e-011 7.071068e-011 7.071068e-011 7.071068e-011
7070870870.8709 0.078027099 0.14033422 0.019765519 -0.001167294 7.071068e-011 7.071068e-011 7.071068e-011 7.071068e-011
7079279279.2793 0.16838449 0.0075702872 -0.0055726822 0.01877996 7.071068e-011 7.071068e-011 7.071068e-011 7.071068e-011
7087687687.6877 0.032698743 -0.027100118 -0.016620884 -0.011506056 7.071068e-011 7.071068e-011 7.071068e-011 7.071068e-011
7096096096.0961 0.059338879 0.089157782 0.01595426 -0.012453347 7.071068e-011 7.071068e-011 7.071068e-011 7.071068e-011
7104504504.5045 0.14774184 0.010556933 0.0065042651 0.019139279 7.071068e-011 7.071068e-011 7.071068e-011 7.071068e-011
7112912912.9129 0.051004205 -0.044696745 -0.020631449 -0.00015419287 7.071068e-011 7.071068e-011 7.071068e-011 7.071068e-011
7121321321.3213 0.034300853 0.031781383 0.0063323001 -0.019823255 7.071068e-011 7.071068e-011 7.071068e-011 7.071068e-011
7129729729.7297 0.089215733 0.014579308 0.016424045 0.012095917 7.071068e-011 7.071068e-011 7.071068e-011 7.071068e-011
7138138138.1381 0.043524008 -0.037768945 -0.017193295 0.011670707 7.071068e-011 7.071068e-011 7.071068e-011 7.071068e-011
7146546546.5465 -0.00053143391 0.013519862 -0.0058169551 -0.02012122 7.071068e-011 7.071068e-011 7.071068e-011 7.071068e-011
7154954954.955 0.030566357 0.041343324 0.020793859 0.00088614598 7.071068e-011 7.071068e-011 7.071068e-011 7.071068e-011
7163363363.3634 0.044996064 0.015831297 -0.0076815067 0.019080343 7.071068e-011 7.071068e-011 7.071068e-011 7.071068e-011
7171771771.7718 0.0012599151 0.020187369 -0.015722128 -0.013496437 7.071068e-011 7.071068e-011 7.071068e-011 7.071068e-011
7180180180.1802 0.018364189 0.07249108 0.017629825 -0.010363442 7.071068e-011 7.071068e-011 7.071068e-011 7.071068e-011
7188588588.5886 0.067750312 0.056251489 0.0038530843 0.02044536 7.071068e-011 7.071068e-011 7.071068e-011 7.071068e-011
7196996996.997 0.039995592 0.01010351 -0.020593928 -0.0027714837 7.071068e-011 7.071068e-011 7.071068e-011 7.071068e-011
7205405405.4054 0.012232544 0.067002818 0.009568003 -0.017976623 7.071068e-011 7.071068e-011 7.071068e-011 7.071068e-011
7213813813.8138 0.083117388 0.067327179 0.013818214 0.015201968 7.071068e-011 7.071068e-011 7.071068e-011 7.071068e-011
7222222222.2222 0.066344477 -0.005437322 -0.018991355 0.0081902416 7.071068e-011 7.071068e-011 7.071068e-011 7.071068e-011
7230630630.6306 -0.0013100627 0.034961194 -0.0014082845 -0.020485759 7.071068e-011 7.071068e-011 7.071068e-011 7.071068e-011
7239039039.039 0.07136704 0.075655743 0.019936491 0.0058761309 7.071068e-011 7.071068e-011 7.071068e-011 7.071068e-011
7247447447.4474 0.075384222 -0.014696704 -0.012034088 0.016955378 7.071068e-011 7.071068e-011 7.071068e-011 7.071068e-011
7255855855.8559 -0.01654488 0.0071640052 -0.01156976 -0.017025227 7.071068e-011 7.071068e-011 7.071068e-011 7.071068e-011
7264264264.2643 0.034677591 0.084068581 0.020119106 -0.0053162458 7.071068e-011 7.071068e-011 7.071068e-011 7.071068e-011
7272672672.6727 0.074475117 0.00082837115 -0.0015462609 0.020526756 7.071068e-011 7.071068e-011 7.071068e-011 7.071068e-011
7281081081.0811 -0.029721752 0.0006472168 -0.018708296 -0.0084738778 7.071068e-011 7.071068e-011 7.071068e-011 7.071068e-011
7289489489.4895 -0.00022310909 0.10752425 0.014714655 -0.014589974 7.071068e-011 7.071068e-011 7.071068e-011 7.071068e-011
7297897897.8979 0.084987335 0.050884157 0.0087745208 0.018834606 7.071068e-011 7.071068e-011 7.071068e-011 7.071068e-011
7306306306.3063 0.0012729268 0.0087625571 -0.02057361 0.0015503132 7.071068e-011 7.071068e-011 7.071068e-011 7.071068e-011
7314714714.7147 0.0039342185 0.11265366 0.0054248967 -0.020277804 7.071068e-011 7.071068e-011 7.071068e-011 7.071068e-011
7323123123.1231 0.11261652 0.075567879 0.01698418 0.011753826 7.071068e-011 7.071068e-011 7.071068e-011 7.071068e-011
7331531531.5315 0.051443834 -0.011853948 -0.017337751 0.011686787 7.071068e-011 7.071068e-011 7.071068e-011 7.071068e-011
7339939939.9399 0.0078233676 0.068456471 -0.0052874279 -0.020554112 7.071068e-011 7.071068e-011 7.071068e-011 7.071068e-011
7348348348.3483 0.10535058 0.063829653 0.020913865 0.0019543832 7.071068e-011 7.071068e-011 7.071068e-011 7.071068e-011
7356756756.7568 0.066354029 -0.036930945 -0.0092223305 0.018771928 7.071068e-011 7.071068e-011 7.071068e-011 7.071068e-011
7365165165.1652 -0.010261629 0.020659668 -0.014714752 -0.015211454 7.071068e-011 7.071068e-011 7.071068e-011 7.071068e-011
7373573573.5736 0.061365966 0.049939819 0.019021455 -0.0085387081 7.071068e-011 7.071068e-011 7.071068e-011 7.071068e-011
7381981981.982 0.044111013 -0.03527128 0.0010416739 0.02111477 7.071068e-011 7.071068e-011 7.071068e-011 7.071068e-011
7390390390.3904 -0.043058082 0.0094913626 -0.020319415 -0.0061863172 7.071068e-011 7.071068e-011 7.071068e-011 7.071068e-011
7398798798.7988 0.012802551 0.071259871 0.012910689 -0.016676363 7.071068e-011 7.071068e-011 7.071068e-011 7.071068e-011
7407207207.2072 0.028028935 0.0099723581 0.011163543 0.017989742 7.071068e-011 7.071068e-011 7.071068e-011 7.071068e-011
7415615615.6156 -0.040853672 0.035214894 -0.020873439 0.004360104 7.071068e-011 7.071068e-011 7.071068e-011 7.071068e-011
7424024024.024 0.006605343 0.10499147 0.0030840836 -0.021026088 7.071068e-011 7.071068e-011 7.071068e-011 7.071068e-011
7432432432.4324 0.054758947 0.054276314 0.018656371 0.010435397 7.071068e-011 7.071068e-011 7.071068e-011 7.071068e-011
7440840840.8408 0.0099126268 0.042246524 -0.016149174 0.01402806 7.071068e-011 7.071068e-011 7.071068e-011 7.071068e-011
7449249249.2492 0.030144615 0.087046877 -0.0072998572 -0.019873494 7.071068e-011 7.071068e-011 7.071068e-011 7.071068e-011
7457657657.6577 0.077940352 0.049094673 0.021250423 0.00019722153 7.071068e-011 7.071068e-011 7.071068e-011 7.071068e-011
7466066066.0661 0.041866209 0.014036135 -0.0075409124 0.019920066 7.071068e-011 7.071068e-011 7.071068e-011 7.071068e-011
7474474474.4745 0.030448124 0.039217945 -0.01591374 -0.013847755 7.071068e-011 7.071068e-011 7.071068e-011 7.071068e-011
7482882882.8829 0.059793785 0.02918019 0.018636463 -0.0097712977 7.071068e-011 7.071068e-011 7.071068e-011 7.071068e-011
7491291291.2913 0.039009422 -0.013334931 0.0026180516 0.020922944 7.071068e-011 7.071068e-011 7.071068e-011 7.071068e-011
7499699699.6997 -0.0033193543 0.0022988708 -0.020346083 -0.0049502663 7.071068e-011 7.071068e-011 7.071068e-011 7.071068e-011
7508108108.1081 0.0031830191 0.031945284 0.011769138 -0.017293924 7.071068e-011 7.071068e-011 7.071068e-011 7.071068e-011
7516516516.5165 0.019420188 0.012052618 0.011963163 0.016999986 7.071068e-011 7.071068e-011 7.071068e-011 7.071068e-011
7524924924.9249 -0.026296932 0.0065241666 -0.02002847 0.0050422871 7.071068e-011 7.071068e-011 7.071068e-011 7.071068e-011
7533333333.3333 -0.029913956 0.065897562 0.0025708699 -0.020485653 7.071068e-011 7.071068e-011 7.071068e-011 7.071068e-011
7541741741.7417 0.027782092 0.069007725 0.018227121 0.0095092179 7.071068e-011 7.071068e-011 7.071068e-011 7.071068e-011
7550150150.1502 0.013183861 0.020588053 -0.015230349 0.013187389 7.071068e-011 7.071068e-011 7.071068e-011 7.071068e-011
7558558558.5586 -0.0153972 0.068282291 -0.0068150433 -0.019040437 7.071068e-011 7.071068e-011 7.071068e-011 7.071068e-011
7566966966.967 0.055488683 0.078220479 0.019986631 0.00052084011 7.071068e-011 7.071068e-011 7.071068e-011 7.071068e-011
7575375375.3754 0.053740546 0.0010328477 -0.0079424949 0.018433904 7.071068e-011 7.071068e-011 7.071068e-011 7.071068e-011
7583783783.7838 -0.011865109 0.023810826 -0.014361094 -0.014100045 7.071068e-011 7.071068e-011 7.071068e-011 7.071068e-011
7592192192.1922 0.045291483 0.060696658 0.018014478 -0.0082725622 7.071068e-011 7.071068e-011 7.071068e-011 7.071068e-011
7600600600.6006 0.051919892 -0.024189895 0.00083172892 0.019475335 7.071068e-011 7.071068e-011 7.071068e-011 7.071068e-011
7609009009.009 -0.037893821 -0.011004382 -0.018856755 -0.0065748524 7.071068e-011 7.071068e-011 7.071068e-011 7.071068e-011
7617417417.4174 -0.0054076626 0.058134932 0.01264949 -0.015283551 7.071068e-011 7.071068e-011 7.071068e-011 7.071068e-011
7625825825.8258 0.02651942 -0.0038795595 0.0093835723 0.017408544 7.071068e-011 7.071068e-011 7.071068e-011 7.071068e-011
7634234234.2342 -0.060491201 0.0037733298 -0.019540854 0.00240225 7.071068e-011 7.071068e-011 7.071068e-011 7.071068e-011
7642642642.6426 -0.026836876 0.091589607 0.0050257542 -0.018876579 7.071068e-011 7.071068e-011 7.071068e-011 7.071068e-011
7651051051.0511 0.037584577 0.042723358 0.015716074 0.011730788 7.071068e-011 7.071068e-011 7.071068e-011 7.071068e-011
7659459459.4595 -0.02960363 0.017981997 -0.016791042 0.010619532 7.071068e-011 7.071068e-011 7.071068e-011 7.071068e-011
7667867867.8679 -0.011771045 0.10229881 -0.0038466142 -0.019117279 7.071068e-011 7.071068e-011 7.071068e-011 7.071068e-011
7676276276.2763 0.07379429 0.059254196 0.019072479 0.0040016444 7.071068e-011 7.071068e-011 7.071068e-011 7.071068e-011
7684684684.6847 0.021664005 -0.0039807716 -0.010800844 0.016580651 7.071068e-011 7.071068e-011 7.071068e-011 7.071068e-011
7693093093.0931 0.00051387108 0.054171421 -0.011434693 -0.015981628 7.071068e-011 7.071068e-011 7.071068e-011 7.071068e-011
7701501501.5015 0.070943296 0.032791175 0.019023914 -0.0047908691 7.071068e-011 7.071068e-011 7.071068e-011 7.071068e-011
7709909909.9099 0.023583468 -0.042481508 -0.0026494309 0.019496985 7.071068e-011 7.071068e-011 7.071068e-011 7.071068e-011
7718318318.3183 -0.03324943 0.010618029 -0.017183367 -0.0096258214 7.071068e-011 7.071068e-011 7.071068e-011 7.071068e-011
7726726726.7267 0.024222415 0.027947938 0.015464345 -0.012199938 7.071068e-011 7.071068e-011 7.071068e-011 7.071068e-011
7735135135.1351 0.0030573001 -0.041156404 0.0058961464 0.018957822 7.071068e-011 7.071068e-011 7.071068e-011 7.071068e-011
7743543543.5435 -0.074939221 -0.00047542827 -0.019519098 -0.0014970666 7.071068e-011 7.071068e-011 7.071068e-011 7.071068e-011
7751951951.952 -0.030649444 0.064346895 0.008758286 -0.017660029 7.071068e-011 7.071068e-011 7.071068e-011 7.071068e-011
7760360360.3604 -0.0024933512 0.017662538 0.013217969 0.014679667 7.071068e-011 7.071068e-011 7.071068e-011 7.071068e-011
7768768768.7688 -0.058174774 0.02823434 -0.018593205 0.0068316492 7.071068e-011 7.071068e-011 7.071068e-011 7.071068e-011
7777177177.1772 -0.027476162 0.095494233 0.0006287545 -0.01970876 7.071068e-011 7.071068e-011 7.071068e-011 7.071068e-011
7785585585.5856 0.033888608 0.058230955 0.018104838 0.007846863 7.071068e-011 7.071068e-011 7.071068e-011 7.071068e-011
7793993993.994 -0.0053834952 0.027677963 -0.013926467 0.013659699 7.071068e-011 7.071068e-011 7.071068e-011 7.071068e-011
7802402402.4024 -0.00061199535 0.074755579 -0.0075352825 -0.018378859 7.071068e-011 7.071068e-011 7.071068e-011 7.071068e-011
7810810810.8108 0.057928029 0.049107488 0.019767577 -0.00041612462 7.071068e-011 7.071068e-011 7.071068e-011 7.071068e-011
7819219219.2192 0.026248686 -0.0064469418 -0.0071728532 0.018311642 7.071068e-011 7.071068e-011 7.071068e-011 7.071068e-011
7827627627.6276 -0.0037304428 0.026632046 -0.014372973 -0.013481121 7.071068e-011 7.071068e-011 7.071068e-011 7.071068e-011
7836036036.036 0.037374303 0.025909238 0.017854461 -0.008308229 7.071068e-011 7.071068e-011 7.071068e-011 7.071068e-011
7844444444.4444 0.016709376 -0.023723766 0.0010785745 0.019713284 7.071068e-011 7.071068e-011 7.071068e-011 7.071068e-011
7852852852.8529 -0.028287144 0.0028222082 -0.018772531 -0.0063891811 7.071068e-011 7.071068e-011 7.071068e-011 7.071068e-011
7861261261.2613 0.0015401844 0.029566735 0.012792974 -0.015018678 7.071068e-011 7.071068e-011 7.071068e-011 7.071068e-011
7869669669.6697 0.0055868113 -0.009108088 0.0089737251 0.017567903 7.071068e-011 7.071068e-011 7.071068e-011 7.071068e-011
7878078078.0781 -0.040293775 0.0032473649 -0.019803345 0.0019226465 7.071068e-011 7.071068e-011 7.071068e-011 7.071068e-011
7886486486.4865 -0.024583291 0.046868645 0.0054168906 -0.018999424 7.071068e-011 7.071068e-011 7.071068e-011 7.071068e-011
7894894894.8949 0.010921127 0.030455424 0.015376362 0.012015996 7.071068e-011 7.071068e-011 7.071068e-011 7.071068e-011
7903303303.3033 -0.013356447 0.011033518 -0.017104354 0.0096565206 7.071068e-011 7.071068e-011 7.071068e-011 7.071068e-011
7911711711.7117 -0.017923536 0.043812472 -0.0027293523 -0.019482311 7.071068e-011 7.071068e-011 7.071068e-011 7.071068e-011
7920120120.1201 0.022997288 0.044993371 0.018876681 0.0047627692 7.071068e-011 7.071068e-011 7.071068e-011 7.071068e-011
7928528528.5285 0.023757147 0.0020165921 -0.011483801 0.015695695 7.071068e-011 7.071068e-011 7.071068e-011 7.071068e-011
7936936936.9369 -0.0099286409 0.010996851 -0.010120533 -0.01639715 7.071068e-011 7.071068e-011 7.071068e-011 7.071068e-011
7945345345.3453 0.017650759 0.032140724 0.019021377 -0.0030405042 7.071068e-011 7.071068e-011 7.071068e-011 7.071068e-011
