!Keysight Technologies,N5235B,MY61252044,A.15.00.15
!Date: Friday, January 20, 2023 19:08:35
!Correction: S11(Off) 
!S21(Off) 
!S12(Off) 
!S22(Off) 
!S2P File: Measurements: S11, S21, S12, S22:
# Hz S  RI   R 50
6600000000 0.01708618 -0.17446132 0.014902656 -0.0052117174 7.071068e-011 7.071068e-011 7.071068e-011 7.071068e-011
6608400000 -0.12369592 0.16644251 0.0067760218 0.0100117 7.071068e-011 7.071068e-011 7.071068e-011 7.071068e-011
6616800000 0.30676168 0.091852814 -0.0083350074 0.0048772087 7.071068e-011 7.071068e-011 7.071068e-011 7.071068e-011
6625200000 0.023912858 -0.27299383 -0.0029851287 -0.0090010073 7.071068e-011 7.071068e-011 7.071068e-011 7.071068e-011
6633600000 -0.16591765 0.16130333 0.0092161074 -0.001576091 7.071068e-011 7.071068e-011 7.071068e-011 7.071068e-011
6642000000 0.29020208 0.11415053 -0.00069140119 0.0094506266 7.071068e-011 7.071068e-011 7.071068e-011 7.071068e-011
6650400000 0.039927453 -0.25273407 -0.011113062 -0.002805304 7.071068e-011 7.071068e-011 7.071068e-011 7.071068e-011
6658800000 -0.14924397 0.13323335 0.0046247155 -0.012099374 7.071068e-011 7.071068e-011 7.071068e-011 7.071068e-011
6667200000 0.22791944 0.10363316 0.013084109 0.0077431919 7.071068e-011 7.071068e-011 7.071068e-011 7.071068e-011
6675600000 0.044637624 -0.15271287 -0.010054689 0.014894095 7.071068e-011 7.071068e-011 7.071068e-011 7.071068e-011
6684000000 -0.045446299 0.084031485 -0.015858786 -0.011869811 7.071068e-011 7.071068e-011 7.071068e-011 7.071068e-011
6692400000 0.10543604 0.048560426 0.013290681 -0.016266583 7.071068e-011 7.071068e-011 7.071068e-011 7.071068e-011
6700800000 0.086095847 0.017180692 0.016065586 0.014016573 7.071068e-011 7.071068e-011 7.071068e-011 7.071068e-011
6709200000 0.077923991 -0.039985947 -0.01443174 0.014417523 7.071068e-011 7.071068e-011 7.071068e-011 7.071068e-011
6717600000 -0.031345841 0.031704094 -0.011509468 -0.015623424 7.071068e-011 7.071068e-011 7.071068e-011 7.071068e-011
6726000000 0.15281166 0.11801573 0.01618392 -0.0084217889 7.071068e-011 7.071068e-011 7.071068e-011 7.071068e-011
6734400000 0.13191175 -0.13848636 0.0047933832 0.015931576 7.071068e-011 7.071068e-011 7.071068e-011 7.071068e-011
6742800000 -0.10806701 0.021617342 -0.015924159 0.00089119759 7.071068e-011 7.071068e-011 7.071068e-011 7.071068e-011
6751200000 0.16715346 0.15584531 0.0025836739 -0.015609035 7.071068e-011 7.071068e-011 7.071068e-011 7.071068e-011
6759600000 0.15604672 -0.16860695 0.013622664 0.0062313383 7.071068e-011 7.071068e-011 7.071068e-011 7.071068e-011
6768000000 -0.14676405 -0.012198065 -0.010210432 0.011038284 7.071068e-011 7.071068e-011 7.071068e-011 7.071068e-011
6776400000 0.12837142 0.181989 -0.0087195598 -0.013012212 7.071068e-011 7.071068e-011 7.071068e-011 7.071068e-011
6784800000 0.15687656 -0.14192769 0.014320109 -0.0047733141 7.071068e-011 7.071068e-011 7.071068e-011 7.071068e-011
6793200000 -0.14647782 -0.014774712 0.00040379848 0.015502094 7.071068e-011 7.071068e-011 7.071068e-011 7.071068e-011
6801600000 0.094659008 0.20574181 -0.015897842 -0.0036321394 7.071068e-011 7.071068e-011 7.071068e-011 7.071068e-011
6810000000 0.1772767 -0.090094388 0.0081211142 -0.014783236 7.071068e-011 7.071068e-011 7.071068e-011 7.071068e-011
6818400000 -0.10281036 -0.018032245 0.012547993 0.012777264 7.071068e-011 7.071068e-011 7.071068e-011 7.071068e-011
6826800000 0.080129467 0.18789972 -0.015665866 0.009651986 7.071068e-011 7.071068e-011 7.071068e-011 7.071068e-011
6835200000 0.18573901 -0.044144474 -0.0049516088 -0.017754855 7.071068e-011 7.071068e-011 7.071068e-011 7.071068e-011
6843600000 -0.042421367 -0.033361908 0.020173529 -0.00017133898 7.071068e-011 7.071068e-011 7.071068e-011 7.071068e-011
6852000000 0.068300657 0.13007328 -0.0042374097 0.020389527 7.071068e-011 7.071068e-011 7.071068e-011 7.071068e-011
6860400000 0.14848992 -0.016399426 -0.018705623 -0.0093655698 7.071068e-011 7.071068e-011 7.071068e-011 7.071068e-011
6868800000 0.0061443858 -0.030288944 0.014396325 -0.016190408 7.071068e-011 7.071068e-011 7.071068e-011 7.071068e-011
6877200000 0.050663725 0.072469868 0.012756631 0.018073877 7.071068e-011 7.071068e-011 7.071068e-011 7.071068e-011
6885600000 0.09194576 0.0088289827 -0.020452376 0.0077433833 7.071068e-011 7.071068e-011 7.071068e-011 7.071068e-011
6894000000 0.047746584 -0.0018392435 -0.0022175484 -0.022043332 7.071068e-011 7.071068e-011 7.071068e-011 7.071068e-011
6902400000 0.038342189 0.019249994 0.021983726 0.003447545 7.071068e-011 7.071068e-011 7.071068e-011 7.071068e-011
6910800000 0.030905524 0.036168847 -0.0090546096 0.02012445 7.071068e-011 7.071068e-011 7.071068e-011 7.071068e-011
6919200000 0.076534376 0.051569022 -0.016744837 -0.013897634 7.071068e-011 7.071068e-011 7.071068e-011 7.071068e-011
6927600000 0.05371267 -0.011677616 0.017533764 -0.012443529 7.071068e-011 7.071068e-011 7.071068e-011 7.071068e-011
6936000000 -0.0031581956 0.057621606 0.0068265931 0.019709831 7.071068e-011 7.071068e-011 7.071068e-011 7.071068e-011
6944400000 0.10795879 0.093299821 -0.020885153 0.00054345775 7.071068e-011 7.071068e-011 7.071068e-011 7.071068e-011
6952800000 0.090249322 -0.043293212 0.0051277638 -0.01987621 7.071068e-011 7.071068e-011 7.071068e-011 7.071068e-011
6961200000 -0.029115755 0.047432922 0.016994659 0.010582502 7.071068e-011 7.071068e-011 7.071068e-011 7.071068e-011
6969600000 0.11786285 0.11069117 -0.015081729 0.012969627 7.071068e-011 7.071068e-011 7.071068e-011 7.071068e-011
6978000000 0.1100781 -0.06654118 -0.0076579559 -0.017755533 7.071068e-011 7.071068e-011 7.071068e-011 7.071068e-011
6986400000 -0.063885793 0.023080744 0.018832963 -0.0014336595 7.071068e-011 7.071068e-011 7.071068e-011 7.071068e-011
6994800000 0.09427236 0.13792254 -0.0045638494 0.018736823 7.071068e-011 7.071068e-011 7.071068e-011 7.071068e-011
7003200000 0.11735568 -0.05160106 -0.016139681 -0.0098714037 7.071068e-011 7.071068e-011 7.071068e-011 7.071068e-011
7011600000 -0.071319081 0.021135546 0.014829799 -0.01159605 7.071068e-011 7.071068e-011 7.071068e-011 7.071068e-011
7020000000 0.077843554 0.16486552 0.0066769626 0.017795218 7.071068e-011 7.071068e-011 7.071068e-011 7.071068e-011
7028400000 0.1398177 -0.021376787 -0.018631637 0.00060861796 7.071068e-011 7.071068e-011 7.071068e-011 7.071068e-011
7036800000 -0.050813273 0.01953309 0.0057718325 -0.018289192 7.071068e-011 7.071068e-011 7.071068e-011 7.071068e-011
7045200000 0.078663796 0.17307179 0.01569164 0.011056647 7.071068e-011 7.071068e-011 7.071068e-011 7.071068e-011
7053600000 0.17300664 0.0061149993 -0.015591336 0.010845671 7.071068e-011 7.071068e-011 7.071068e-011 7.071068e-011
7062000000 -0.0026526474 -0.012775084 -0.005224694 -0.018986238 7.071068e-011 7.071068e-011 7.071068e-011 7.071068e-011
7070400000 0.068149887 0.14019251 0.019850751 0.00056867138 7.071068e-011 7.071068e-011 7.071068e-011 7.071068e-011
7078800000 0.17136478 0.016216787 -0.0072124586 0.018184602 7.071068e-011 7.071068e-011 7.071068e-011 7.071068e-011
7087200000 0.038880795 -0.032473039 -0.015430027 -0.013079763 7.071068e-011 7.071068e-011 7.071068e-011 7.071068e-011
7095600000 0.051967893 0.087269045 0.01718501 -0.010831893 7.071068e-011 7.071068e-011 7.071068e-011 7.071068e-011
7104000000 0.1487961 0.017526323 0.0045105279 0.019756934 7.071068e-011 7.071068e-011 7.071068e-011 7.071068e-011
7112400000 0.056821212 -0.046506952 -0.020472726 -0.0023674499 7.071068e-011 7.071068e-011 7.071068e-011 7.071068e-011
7120800000 0.030881729 0.028325779 0.0085486174 -0.018999839 7.071068e-011 7.071068e-011 7.071068e-011 7.071068e-011
7129200000 0.088992402 0.018934408 0.014954562 0.01393763 7.071068e-011 7.071068e-011 7.071068e-011 7.071068e-011
7137600000 0.047541093 -0.037945915 -0.018519977 0.009521544 7.071068e-011 7.071068e-011 7.071068e-011 7.071068e-011
7146000000 -0.00013470071 0.0095843403 -0.0032789432 -0.02074603 7.071068e-011 7.071068e-011 7.071068e-011 7.071068e-011
7154400000 0.028067829 0.04196341 0.020528421 0.0035375752 7.071068e-011 7.071068e-011 7.071068e-011 7.071068e-011
7162800000 0.04631811 0.017161021 -0.010116765 0.017900744 7.071068e-011 7.071068e-011 7.071068e-011 7.071068e-011
7171200000 0.0034005947 0.017837375 -0.013750553 -0.015565341 7.071068e-011 7.071068e-011 7.071068e-011 7.071068e-011
7179600000 0.01477369 0.070139736 0.018982049 -0.0078759938 7.071068e-011 7.071068e-011 7.071068e-011 7.071068e-011
7188000000 0.066360608 0.059895705 0.0008581896 0.020805275 7.071068e-011 7.071068e-011 7.071068e-011 7.071068e-011
7196400000 0.043905415 0.010306056 -0.019981971 -0.0058326009 7.071068e-011 7.071068e-011 7.071068e-011 7.071068e-011
7204800000 0.010054535 0.062490929 0.012176792 -0.016318677 7.071068e-011 7.071068e-011 7.071068e-011 7.071068e-011
7213200000 0.078989059 0.071604744 0.011296592 0.017180648 7.071068e-011 7.071068e-011 7.071068e-011 7.071068e-011
7221600000 0.071862221 -0.0026466032 -0.020122835 0.0050681792 7.071068e-011 7.071068e-011 7.071068e-011 7.071068e-011
7230000000 -0.00081161683 0.02865476 0.0019510961 -0.020506924 7.071068e-011 7.071068e-011 7.071068e-011 7.071068e-011
7238400000 0.064843863 0.078684062 0.018653478 0.0091616791 7.071068e-011 7.071068e-011 7.071068e-011 7.071068e-011
7246800000 0.081108458 -0.0093781436 -0.014839286 0.014626307 7.071068e-011 7.071068e-011 7.071068e-011 7.071068e-011
7255200000 -0.012893626 3.6641406e-005 -0.0084034009 -0.018781502 7.071068e-011 7.071068e-011 7.071068e-011 7.071068e-011
7263600000 0.026809601 0.084002219 0.02076689 -0.0016167023 7.071068e-011 7.071068e-011 7.071068e-011 7.071068e-011
7272000000 0.078680322 0.0081065716 -0.005276761 0.019953853 7.071068e-011 7.071068e-011 7.071068e-011 7.071068e-011
7280400000 -0.023504421 -0.0063559799 -0.01683466 -0.01188501 7.071068e-011 7.071068e-011 7.071068e-011 7.071068e-011
7288800000 -0.0089754052 0.10319558 0.017254857 -0.011459325 7.071068e-011 7.071068e-011 7.071068e-011 7.071068e-011
7297200000 0.084906593 0.059874017 0.0048761582 0.02020089 7.071068e-011 7.071068e-011 7.071068e-011 7.071068e-011
7305600000 0.0087445881 0.0044762567 -0.020470122 -0.0025478834 7.071068e-011 7.071068e-011 7.071068e-011 7.071068e-011
7314000000 -0.0039706109 0.10614595 0.0094658518 -0.018783685 7.071068e-011 7.071068e-011 7.071068e-011 7.071068e-011
7322400000 0.10858635 0.085692503 0.0142317 0.015039379 7.071068e-011 7.071068e-011 7.071068e-011 7.071068e-011
7330800000 0.060528759 -0.011648514 -0.01940902 0.0076929196 7.071068e-011 7.071068e-011 7.071068e-011 7.071068e-011
7339200000 0.003976163 0.060633846 -0.00064947305 -0.021245651 7.071068e-011 7.071068e-011 7.071068e-011 7.071068e-011
7347600000 0.099114992 0.072270922 0.020008467 0.0065040495 7.071068e-011 7.071068e-011 7.071068e-011 7.071068e-011
7356000000 0.076132357 -0.033640087 -0.013137535 0.01621617 7.071068e-011 7.071068e-011 7.071068e-011 7.071068e-011
7364400000 -0.010165704 0.012367163 -0.010820058 -0.018197091 7.071068e-011 7.071068e-011 7.071068e-011 7.071068e-011
7372800000 0.054608885 0.05472016 0.02058515 -0.0039131907 7.071068e-011 7.071068e-011 7.071068e-011 7.071068e-011
7381200000 0.052978892 -0.030787693 -0.0039836015 0.0207568 7.071068e-011 7.071068e-011 7.071068e-011 7.071068e-011
7389600000 -0.040783238 0.00045672277 -0.01823646 -0.010907799 7.071068e-011 7.071068e-011 7.071068e-011 7.071068e-011
7398000000 0.0053288266 0.07200519 0.016550843 -0.013000953 7.071068e-011 7.071068e-011 7.071068e-011 7.071068e-011
7406400000 0.033102002 0.015007295 0.0063551799 0.020213319 7.071068e-011 7.071068e-011 7.071068e-011 7.071068e-011
7414800000 -0.038028512 0.027139049 -0.021330746 -0.0010547441 7.071068e-011 7.071068e-011 7.071068e-011 7.071068e-011
7423200000 -0.0017842909 0.10364733 0.0083707795 -0.019570675 7.071068e-011 7.071068e-011 7.071068e-011 7.071068e-011
7431600000 0.055596352 0.060633179 0.0152587 0.014930344 7.071068e-011 7.071068e-011 7.071068e-011 7.071068e-011
7440000000 0.013339184 0.03842007 -0.019338457 0.0092499498 7.071068e-011 7.071068e-011 7.071068e-011 7.071068e-011
7448400000 0.024106754 0.0855252 -0.001730005 -0.021121703 7.071068e-011 7.071068e-011 7.071068e-011 7.071068e-011
7456800000 0.077372037 0.055439111 0.020397685 0.0059594908 7.071068e-011 7.071068e-011 7.071068e-011 7.071068e-011
7465200000 0.046228416 0.013909806 -0.012774331 0.01705841 7.071068e-011 7.071068e-011 7.071068e-011 7.071068e-011
7473600000 0.028470686 0.036890689 -0.011412951 -0.017785087 7.071068e-011 7.071068e-011 7.071068e-011 7.071068e-011
7482000000 0.058379244 0.033323344 0.020639541 -0.0040668943 7.071068e-011 7.071068e-011 7.071068e-011 7.071068e-011
7490400000 0.043639474 -0.010876524 -0.0035470231 0.020807808 7.071068e-011 7.071068e-011 7.071068e-011 7.071068e-011
7498800000 -0.00076846307 -0.0015034622 -0.018036332 -0.010658417 7.071068e-011 7.071068e-011 7.071068e-011 7.071068e-011
7507200000 0.00048794126 0.03086959 0.016366383 -0.013053837 7.071068e-011 7.071068e-011 7.071068e-011 7.071068e-011
7515600000 0.020612326 0.015463717 0.0063043144 0.019834891 7.071068e-011 7.071068e-011 7.071068e-011 7.071068e-011
7524000000 -0.020940119 0.0030798574 -0.020659998 -0.0012896794 7.071068e-011 7.071068e-011 7.071068e-011 7.071068e-011
7532400000 -0.034245845 0.060032733 0.0087498724 -0.018692736 7.071068e-011 7.071068e-011 7.071068e-011 7.071068e-011
7540800000 0.022752635 0.073341675 0.014384224 0.014738602 7.071068e-011 7.071068e-011 7.071068e-011 7.071068e-011
7549200000 0.019534726 0.022314845 -0.018579615 0.007756311 7.071068e-011 7.071068e-011 7.071068e-011 7.071068e-011
7557600000 -0.018427351 0.061003663 -0.0003576669 -0.020248095 7.071068e-011 7.071068e-011 7.071068e-011 7.071068e-011
7566000000 0.047806423 0.083580114 0.018828854 0.0069798068 7.071068e-011 7.071068e-011 7.071068e-011 7.071068e-011
7574400000 0.060958099 0.0079393312 -0.013532434 0.014828133 7.071068e-011 7.071068e-011 7.071068e-011 7.071068e-011
7582800000 -0.0098623428 0.015265759 -0.0088523785 -0.018022558 7.071068e-011 7.071068e-011 7.071068e-011 7.071068e-011
7591200000 0.036534436 0.064412266 0.0197502 -0.0017575348 7.071068e-011 7.071068e-011 7.071068e-011 7.071068e-011
7599600000 0.059299812 -0.015014742 -0.0057383003 0.01865864 7.071068e-011 7.071068e-011 7.071068e-011 7.071068e-011
7608000000 -0.030992901 -0.020643666 -0.015454805 -0.012654503 7.071068e-011 7.071068e-011 7.071068e-011 7.071068e-011
7616400000 -0.015019304 0.05676588 0.017220266 -0.0099835275 7.071068e-011 7.071068e-011 7.071068e-011 7.071068e-011
7624800000 0.031496014 0.0050914199 0.0026544386 0.019551015 7.071068e-011 7.071068e-011 7.071068e-011 7.071068e-011
7633200000 -0.052629665 -0.0062412056 -0.019111613 -0.0046932837 7.071068e-011 7.071068e-011 7.071068e-011 7.071068e-011
7641600000 -0.03836992 0.086757496 0.011428499 -0.015846437 7.071068e-011 7.071068e-011 7.071068e-011 7.071068e-011
7650000000 0.037709005 0.053238798 0.010450962 0.016601237 7.071068e-011 7.071068e-011 7.071068e-011 7.071068e-011
7658400000 -0.020805471 0.011631463 -0.019540569 0.0037280626 7.071068e-011 7.071068e-011 7.071068e-011 7.071068e-011
7666800000 -0.022912728 0.095768303 0.0034938981 -0.019257849 7.071068e-011 7.071068e-011 7.071068e-011 7.071068e-011
7675200000 0.069622807 0.071773469 0.016131928 0.010787555 7.071068e-011 7.071068e-011 7.071068e-011 7.071068e-011
7683600000 0.032009985 -0.0041298373 -0.016278759 0.011238107 7.071068e-011 7.071068e-011 7.071068e-011 7.071068e-011
7692000000 -0.0052707312 0.046898082 -0.0045230133 -0.019150952 7.071068e-011 7.071068e-011 7.071068e-011 7.071068e-011
7700400000 0.065712281 0.043842684 0.019443829 0.0028597915 7.071068e-011 7.071068e-011 7.071068e-011 7.071068e-011
7708800000 0.035710305 -0.039709464 -0.010029674 0.016915357 7.071068e-011 7.071068e-011 7.071068e-011 7.071068e-011
7717200000 -0.033658918 0.00064051524 -0.011991176 -0.01565046 7.071068e-011 7.071068e-011 7.071068e-011 7.071068e-011
7725600000 0.016783442 0.033849157 0.019003101 -0.0050737341 7.071068e-011 7.071068e-011 7.071068e-011 7.071068e-011
7734000000 0.014132575 -0.035606943 -0.0021724317 0.019742956 7.071068e-011 7.071068e-011 7.071068e-011 7.071068e-011
7742400000 -0.07074739 -0.012351232 -0.017275449 -0.0092017241 7.071068e-011 7.071068e-011 7.071068e-011 7.071068e-011
7750800000 -0.040637616 0.062451363 0.015234849 -0.012517207 7.071068e-011 7.071068e-011 7.071068e-011 7.071068e-011
7759200000 0.0015350436 0.025306458 0.0059943399 0.018887753 7.071068e-011 7.071068e-011 7.071068e-011 7.071068e-011
7767600000 -0.053313788 0.01948731 -0.01976621 -0.0015084373 7.071068e-011 7.071068e-011 7.071068e-011 7.071068e-011
7776000000 -0.037822463 0.090907343 0.0087784715 -0.017602591 7.071068e-011 7.071068e-011 7.071068e-011 7.071068e-011
7784400000 0.031437781 0.068130292 0.013070802 0.014779085 7.071068e-011 7.071068e-011 7.071068e-011 7.071068e-011
7792800000 0.0013259531 0.024754237 -0.018473005 0.0065047732 7.071068e-011 7.071068e-011 7.071068e-011 7.071068e-011
7801200000 -0.0076914998 0.0701873 0.0011300439 -0.019841719 7.071068e-011 7.071068e-011 7.071068e-011 7.071068e-011
7809600000 0.053105462 0.058525302 0.018031998 0.0082429675 7.071068e-011 7.071068e-011 7.071068e-011 7.071068e-011
7818000000 0.035355154 -0.0043386575 -0.014422885 0.013292779 7.071068e-011 7.071068e-011 7.071068e-011 7.071068e-011
7826400000 -0.0055719521 0.020813262 -0.0069580944 -0.018462712 7.071068e-011 7.071068e-011 7.071068e-011 7.071068e-011
7834800000 0.0325289 0.03159916 0.01970686 0.0004789521 7.071068e-011 7.071068e-011 7.071068e-011 7.071068e-011
7843200000 0.025293415 -0.019655632 -0.00788387 0.018137619 7.071068e-011 7.071068e-011 7.071068e-011 7.071068e-011
7851600000 -0.026788376 -0.0046710861 -0.013830101 -0.01419644 7.071068e-011 7.071068e-011 7.071068e-011 7.071068e-011
7860000000 -0.0041825492 0.030780975 0.018280052 -0.0075409631 7.071068e-011 7.071068e-011 7.071068e-011 7.071068e-011
7868400000 0.010390445 -0.0034777496 -8.7628308e-005 0.019719457 7.071068e-011 7.071068e-011 7.071068e-011 7.071068e-011
7876800000 -0.036201857 -0.0038556787 -0.018455528 -0.0075118602 7.071068e-011 7.071068e-011 7.071068e-011 7.071068e-011
7885200000 -0.030585431 0.043459192 0.013680544 -0.014309268 7.071068e-011 7.071068e-011 7.071068e-011 7.071068e-011
7893600000 0.00882133 0.036196999 0.0079573505 0.017862635 7.071068e-011 7.071068e-011 7.071068e-011 7.071068e-011
7902000000 -0.008257716 0.0093086045 -0.019635644 0.00035613973 7.071068e-011 7.071068e-011 7.071068e-011 7.071068e-011
7910400000 -0.021404127 0.039011326 0.0069724745 -0.01847899 7.071068e-011 7.071068e-011 7.071068e-011 7.071068e-011
7918800000 0.017063299 0.049010303 0.014310212 0.013231478 7.071068e-011 7.071068e-011 7.071068e-011 7.071068e-011
7927200000 0.02860811 0.0074232467 -0.017657019 0.0081466455 7.071068e-011 7.071068e-011 7.071068e-011 7.071068e-011
7935600000 -0.0079939459 0.0057654902 -0.00081771618 -0.019317552 7.071068e-011 7.071068e-011 7.071068e-011 7.071068e-011
7944000000 0.010913525 0.033201508 0.018131893 0.0067206579 7.071068e-011 7.071068e-011 7.071068e-011 7.071068e-011
7952400000 0.037528086 -0.0055661551 -0.013144992 0.014196476 7.071068e-011 7.071068e-011 7.071068e-011 7.071068e-011
7960800000 -0.014995109 -0.033405896 -0.0082247136 -0.017473573 7.071068e-011 7.071068e-011 7.071068e-011 7.071068e-011
7969200000 -0.029242838 0.020773936 0.018999182 -0.00087291986 7.071068e-011 7.071068e-011 7.071068e-011 7.071068e-011
7977600000 0.020002171 0.0069036409 -0.0065692072 0.017874245 7.071068e-011 7.071068e-011 7.071068e-011 7.071068e-011
7986000000 -0.024144432 -0.039761011 -0.014039329 -0.012845468 7.071068e-011 7.071068e-011 7.071068e-011 7.071068e-011
7994400000 -0.065410435 0.024717271 0.017149379 -0.0080934754 7.071068e-011 7.071068e-011 7.071068e-011 7.071068e-011
