!Keysight Technologies,N5235B,MY61252044,A.15.00.15
!Date: Friday, January 20, 2023 23:07:50
!Correction: S11(Off) 
!S21(Off) 
!S12(Off) 
!S22(Off) 
!S2P File: Measurements: S11, S21, S12, S22:
# Hz S  RI   R 50
6600000000 0.018397257 -0.17513837 0.015461334 -0.003038785 7.071068e-011 7.071068e-011 7.071068e-011 7.071068e-011
6608408408.4084 -0.1244056 0.16570772 0.0053044823 0.010838645 7.071068e-011 7.071068e-011 7.071068e-011 7.071068e-011
6616816816.8168 0.30603758 0.092490055 -0.0089118201 0.0036897578 7.071068e-011 7.071068e-011 7.071068e-011 7.071068e-011
6625225225.2252 0.024392894 -0.27292806 -0.0017786927 -0.0093051037 7.071068e-011 7.071068e-011 7.071068e-011 7.071068e-011
6633633633.6336 -0.16557437 0.16159768 0.0093360683 -0.00038739332 7.071068e-011 7.071068e-011 7.071068e-011 7.071068e-011
6642042042.042 0.29000193 0.11297709 -0.0018577395 0.0093179028 7.071068e-011 7.071068e-011 7.071068e-011 7.071068e-011
6650450450.4505 0.038934775 -0.25207043 -0.010721223 -0.004094515 7.071068e-011 7.071068e-011 7.071068e-011 7.071068e-011
6658858858.8589 -0.14831601 0.13454811 0.0059796479 -0.011490483 7.071068e-011 7.071068e-011 7.071068e-011 7.071068e-011
6667267267.2673 0.22858854 0.10112823 0.012195118 0.0091727069 7.071068e-011 7.071068e-011 7.071068e-011 7.071068e-011
6675675675.6757 0.042757791 -0.15111244 -0.011540604 0.013815925 7.071068e-011 7.071068e-011 7.071068e-011 7.071068e-011
6684084084.0841 -0.044364758 0.084251672 -0.014588308 -0.013358609 7.071068e-011 7.071068e-011 7.071068e-011 7.071068e-011
6692492492.4925 0.10585793 0.04745074 0.014825229 -0.014909201 7.071068e-011 7.071068e-011 7.071068e-011 7.071068e-011
6700900900.9009 0.085928522 0.018281192 0.014756377 0.015418265 7.071068e-011 7.071068e-011 7.071068e-011 7.071068e-011
6709309309.3093 0.07718499 -0.04183976 -0.015559084 0.013100208 7.071068e-011 7.071068e-011 7.071068e-011 7.071068e-011
6717717717.7177 -0.031135378 0.034399405 -0.010137016 -0.01648302 7.071068e-011 7.071068e-011 7.071068e-011 7.071068e-011
6726126126.1261 0.15509488 0.1162268 0.01680289 -0.0070804902 7.071068e-011 7.071068e-011 7.071068e-011 7.071068e-011
6734534534.5345 0.12854122 -0.14064482 0.0035529202 0.016232334 7.071068e-011 7.071068e-011 7.071068e-011 7.071068e-011
6742942942.9429 -0.1078442 0.026713427 -0.015908858 -0.00028027859 7.071068e-011 7.071068e-011 7.071068e-011 7.071068e-011
6751351351.3514 0.17154309 0.15254019 0.0036198017 -0.015367568 7.071068e-011 7.071068e-011 7.071068e-011 7.071068e-011
6759759759.7598 0.15062054 -0.17156927 0.013179447 0.0070700594 7.071068e-011 7.071068e-011 7.071068e-011 7.071068e-011
6768168168.1682 -0.1469065 -0.0054388898 -0.010856457 0.010406099 7.071068e-011 7.071068e-011 7.071068e-011 7.071068e-011
6776576576.5766 0.13407932 0.17889242 -0.0079994295 -0.013472905 7.071068e-011 7.071068e-011 7.071068e-011 7.071068e-011
6784984984.985 0.15115573 -0.14620659 0.01455678 -0.0040123062 7.071068e-011 7.071068e-011 7.071068e-011 7.071068e-011
6793393393.3934 -0.14740111 -0.0065489435 -0.00034976864 0.01551828 7.071068e-011 7.071068e-011 7.071068e-011 7.071068e-011
6801801801.8018 0.10154711 0.20264745 -0.015712067 -0.0042984081 7.071068e-011 7.071068e-011 7.071068e-011 7.071068e-011
6810210210.2102 0.17241634 -0.094930708 0.0086760335 -0.014426658 7.071068e-011 7.071068e-011 7.071068e-011 7.071068e-011
6818618618.6186 -0.1053187 -0.010323139 0.012138586 0.013234395 7.071068e-011 7.071068e-011 7.071068e-011 7.071068e-011
6827027027.027 0.087843858 0.18545388 -0.015958173 0.0092018768 7.071068e-011 7.071068e-011 7.071068e-011 7.071068e-011
6835435435.4354 0.18145555 -0.04877669 -0.0044751898 -0.01789093 7.071068e-011 7.071068e-011 7.071068e-011 7.071068e-011
6843843843.8438 -0.04543113 -0.028022148 0.020163862 0.00025346095 7.071068e-011 7.071068e-011 7.071068e-011 7.071068e-011
6852252252.2523 0.074751049 0.12924901 -0.0045870254 0.020291151 7.071068e-011 7.071068e-011 7.071068e-011 7.071068e-011
6860660660.6607 0.14509414 -0.020275893 -0.018595941 -0.0096086552 7.071068e-011 7.071068e-011 7.071068e-011 7.071068e-011
6869069069.0691 0.0041554598 -0.027029412 0.014517257 -0.016080923 7.071068e-011 7.071068e-011 7.071068e-011 7.071068e-011
6877477477.4775 0.054041535 0.072550036 0.012673244 0.018089283 7.071068e-011 7.071068e-011 7.071068e-011 7.071068e-011
6885885885.8859 0.090364709 0.0068969857 -0.020445807 0.0076970528 7.071068e-011 7.071068e-011 7.071068e-011 7.071068e-011
6894294294.2943 0.047237966 -0.0010116488 -0.0023021123 -0.022008454 7.071068e-011 7.071068e-011 7.071068e-011 7.071068e-011
6902702702.7027 0.038227774 0.019381765 0.021980604 0.0032444366 7.071068e-011 7.071068e-011 7.071068e-011 7.071068e-011
6911111111.1111 0.031005677 0.037654892 -0.0087820524 0.020202583 7.071068e-011 7.071068e-011 7.071068e-011 7.071068e-011
6919519519.5195 0.078275114 0.049918257 -0.016936151 -0.013618849 7.071068e-011 7.071068e-011 7.071068e-011 7.071068e-011
6927927927.9279 0.050734919 -0.01238828 0.01723676 -0.012770865 7.071068e-011 7.071068e-011 7.071068e-011 7.071068e-011
6936336336.3363 -0.0021556558 0.06221712 0.0072648949 0.019470867 7.071068e-011 7.071068e-011 7.071068e-011 7.071068e-011
6944744744.7447 0.112448 0.089334965 -0.020831756 0.0011452328 7.071068e-011 7.071068e-011 7.071068e-011 7.071068e-011
6953153153.1532 0.084260106 -0.04554509 0.0044845911 -0.019987008 7.071068e-011 7.071068e-011 7.071068e-011 7.071068e-011
6961561561.5616 -0.028313536 0.054489009 0.017328585 0.0099480245 7.071068e-011 7.071068e-011 7.071068e-011 7.071068e-011
6969969969.97 0.12468264 0.10584632 -0.014505995 0.01354245 7.071068e-011 7.071068e-011 7.071068e-011 7.071068e-011
6978378378.3784 0.10162714 -0.070823431 -0.0083790217 -0.01736298 7.071068e-011 7.071068e-011 7.071068e-011 7.071068e-011
6986786786.7868 -0.064066917 0.032820009 0.018721653 -0.002279355 7.071068e-011 7.071068e-011 7.071068e-011 7.071068e-011
6995195195.1952 0.10304379 0.13385041 -0.0035510366 0.01890978 7.071068e-011 7.071068e-011 7.071068e-011 7.071068e-011
7003603603.6036 0.10882485 -0.057945371 -0.016597506 -0.0089006014 7.071068e-011 7.071068e-011 7.071068e-011 7.071068e-011
7012012012.012 -0.072688811 0.03258162 0.014113885 -0.01246642 7.071068e-011 7.071068e-011 7.071068e-011 7.071068e-011
7020420420.4204 0.088125959 0.16137429 0.0077934545 0.017318631 7.071068e-011 7.071068e-011 7.071068e-011 7.071068e-011
7028828828.8288 0.13253607 -0.029092621 -0.018519569 0.0018300633 7.071068e-011 7.071068e-011 7.071068e-011 7.071068e-011
7037237237.2372 -0.054004937 0.030794524 0.0044160169 -0.018637372 7.071068e-011 7.071068e-011 7.071068e-011 7.071068e-011
7045645645.6456 0.090138085 0.17086895 0.016443919 0.0097940452 7.071068e-011 7.071068e-011 7.071068e-011 7.071068e-011
7054054054.0541 0.16751638 -0.0031726081 -0.014670302 0.012040637 7.071068e-011 7.071068e-011 7.071068e-011 7.071068e-011
7062462462.4625 -0.008174154 -0.0039061743 -0.0068351524 -0.018465621 7.071068e-011 7.071068e-011 7.071068e-011 7.071068e-011
7070870870.8709 0.078364775 0.14038968 0.019765625 -0.0011991661 7.071068e-011 7.071068e-011 7.071068e-011 7.071068e-011
7079279279.2793 0.1683014 0.0072743543 -0.0055450243 0.018791668 7.071068e-011 7.071068e-011 7.071068e-011 7.071068e-011
7087687687.6877 0.032459944 -0.02690951 -0.016641943 -0.011480319 7.071068e-011 7.071068e-011 7.071068e-011 7.071068e-011
7096096096.0961 0.059581984 0.089286461 0.015934575 -0.012480241 7.071068e-011 7.071068e-011 7.071068e-011 7.071068e-011
7104504504.5045 0.1477612 0.010321556 0.0065356921 0.019132199 7.071068e-011 7.071068e-011 7.071068e-011 7.071068e-011
7112912912.9129 0.050804485 -0.044620886 -0.020638738 -0.00012342463 7.071068e-011 7.071068e-011 7.071068e-011 7.071068e-011
7121321321.3213 0.034423962 0.031931832 0.0063020643 -0.019837569 7.071068e-011 7.071068e-011 7.071068e-011 7.071068e-011
7129729729.7297 0.089310549 0.014441294 0.016445063 0.012070501 7.071068e-011 7.071068e-011 7.071068e-011 7.071068e-011
7138138138.1381 0.04337706 -0.037798844 -0.017177867 0.011698603 7.071068e-011 7.071068e-011 7.071068e-011 7.071068e-011
7146546546.5465 -0.00051762967 0.013657771 -0.0058505321 -0.020113641 7.071068e-011 7.071068e-011 7.071068e-011 7.071068e-011
7154954954.955 0.030677918 0.041306432 0.020797629 0.00084779056 7.071068e-011 7.071068e-011 7.071068e-011 7.071068e-011
7163363363.3634 0.044933088 0.015730118 -0.0076556262 0.019095313 7.071068e-011 7.071068e-011 7.071068e-011 7.071068e-011
7171771771.7718 0.0011770691 0.020280141 -0.015748326 -0.013471985 7.071068e-011 7.071068e-011 7.071068e-011 7.071068e-011
7180180180.1802 0.018474435 0.072545171 0.01761296 -0.010395763 7.071068e-011 7.071068e-011 7.071068e-011 7.071068e-011
7188588588.5886 0.067772701 0.05612671 0.003883221 0.020443037 7.071068e-011 7.071068e-011 7.071068e-011 7.071068e-011
7196996996.997 0.039847594 0.010124655 -0.02060426 -0.0027360022 7.071068e-011 7.071068e-011 7.071068e-011 7.071068e-011
7205405405.4054 0.012309039 0.067146868 0.009537111 -0.017997149 7.071068e-011 7.071068e-011 7.071068e-011 7.071068e-011
7213813813.8138 0.083218798 0.067208067 0.013844254 0.015185615 7.071068e-011 7.071068e-011 7.071068e-011 7.071068e-011
7222222222.2222 0.06618268 -0.0054876939 -0.018980682 0.0082243001 7.071068e-011 7.071068e-011 7.071068e-011 7.071068e-011
7230630630.6306 -0.0013041284 0.03515216 -0.0014450277 -0.020487342 7.071068e-011 7.071068e-011 7.071068e-011 7.071068e-011
7239039039.039 0.071542829 0.075581312 0.019947885 0.005844573 7.071068e-011 7.071068e-011 7.071068e-011 7.071068e-011
7247447447.4474 0.075233936 -0.014818961 -0.01200589 0.016978709 7.071068e-011 7.071068e-011 7.071068e-011 7.071068e-011
7255855855.8559 -0.016607713 0.0073650004 -0.011598517 -0.017008789 7.071068e-011 7.071068e-011 7.071068e-011 7.071068e-011
7264264264.2643 0.03489504 0.084059544 0.020113962 -0.005351339 7.071068e-011 7.071068e-011 7.071068e-011 7.071068e-011
7272672672.6727 0.074371018 0.00063203613 -0.0015111588 0.020533999 7.071068e-011 7.071068e-011 7.071068e-011 7.071068e-011
7281081081.0811 -0.029871305 0.0008230313 -0.018723359 -0.0084472541 7.071068e-011 7.071068e-011 7.071068e-011 7.071068e-011
7289489489.4895 -3.0653862e-006 0.10760275 0.014689943 -0.014617269 7.071068e-011 7.071068e-011 7.071068e-011 7.071068e-011
7297897897.8979 0.084962428 0.050648298 0.0088079404 0.01881836 7.071068e-011 7.071068e-011 7.071068e-011 7.071068e-011
7306306306.3063 0.0010596545 0.0088706929 -0.020572942 0.0015831044 7.071068e-011 7.071068e-011 7.071068e-011 7.071068e-011
7314714714.7147 0.0041051214 0.11280546 0.0053901765 -0.020287592 7.071068e-011 7.071068e-011 7.071068e-011 7.071068e-011
7323123123.1231 0.11267626 0.075349525 0.017005652 0.011725363 7.071068e-011 7.071068e-011 7.071068e-011 7.071068e-011
7331531531.5315 0.051203728 -0.011826804 -0.017319914 0.011714135 7.071068e-011 7.071068e-011 7.071068e-011 7.071068e-011
7339939939.9399 0.0079302872 0.068662547 -0.005325472 -0.020544831 7.071068e-011 7.071068e-011 7.071068e-011 7.071068e-011
7348348348.3483 0.10548016 0.063654862 0.020917345 0.001919045 7.071068e-011 7.071068e-011 7.071068e-011 7.071068e-011
7356756756.7568 0.066140078 -0.036982983 -0.0091931494 0.018786781 7.071068e-011 7.071068e-011 7.071068e-011 7.071068e-011
7365165165.1652 -0.010228149 0.020883258 -0.014744207 -0.015183455 7.071068e-011 7.071068e-011 7.071068e-011 7.071068e-011
7373573573.5736 0.061545137 0.049826697 0.019005304 -0.0085707987 7.071068e-011 7.071068e-011 7.071068e-011 7.071068e-011
7381981981.982 0.043949489 -0.035382703 0.0010775991 0.021111989 7.071068e-011 7.071068e-011 7.071068e-011 7.071068e-011
7390390390.3904 -0.043096744 0.0096823163 -0.020329561 -0.0061476794 7.071068e-011 7.071068e-011 7.071068e-011 7.071068e-011
7398798798.7988 0.012989 0.071218722 0.012881858 -0.016699644 7.071068e-011 7.071068e-011 7.071068e-011 7.071068e-011
7407207207.2072 0.02791968 0.0098290732 0.011194177 0.017972663 7.071068e-011 7.071068e-011 7.071068e-011 7.071068e-011
7415615615.6156 -0.040940545 0.035360817 -0.020867091 0.0044002314 7.071068e-011 7.071068e-011 7.071068e-011 7.071068e-011
7424024024.024 0.0067589288 0.10501269 0.0030481745 -0.021035898 7.071068e-011 7.071068e-011 7.071068e-011 7.071068e-011
7432432432.4324 0.054715306 0.054138172 0.01867703 0.010405594 7.071068e-011 7.071068e-011 7.071068e-011 7.071068e-011
7440840840.8408 0.0097990725 0.042340614 -0.016126566 0.014060202 7.071068e-011 7.071068e-011 7.071068e-011 7.071068e-011
7449249249.2492 0.030250493 0.08711642 -0.0073348405 -0.019862536 7.071068e-011 7.071068e-011 7.071068e-011 7.071068e-011
7457657657.6577 0.077954762 0.048988294 0.02125147 0.00015915868 7.071068e-011 7.071068e-011 7.071068e-011 7.071068e-011
7466066066.0661 0.041752864 0.014069009 -0.0075078355 0.019934885 7.071068e-011 7.071068e-011 7.071068e-011 7.071068e-011
7474474474.4745 0.030503083 0.039312638 -0.015939072 -0.013821898 7.071068e-011 7.071068e-011 7.071068e-011 7.071068e-011
7482882882.8829 0.059862144 0.029118268 0.018620828 -0.0098076388 7.071068e-011 7.071068e-011 7.071068e-011 7.071068e-011
7491291291.2913 0.038924932 -0.013375038 0.0026527971 0.020920351 7.071068e-011 7.071068e-011 7.071068e-011 7.071068e-011
7499699699.6997 -0.003336709 0.0023934587 -0.020356834 -0.004914857 7.071068e-011 7.071068e-011 7.071068e-011 7.071068e-011
7508108108.1081 0.003280604 0.031948473 0.011738948 -0.017317729 7.071068e-011 7.071068e-011 7.071068e-011 7.071068e-011
7516516516.5165 0.019393744 0.011950486 0.011995523 0.016982308 7.071068e-011 7.071068e-011 7.071068e-011 7.071068e-011
7524924924.9249 -0.026392164 0.0065861382 -0.020021925 0.0050789532 7.071068e-011 7.071068e-011 7.071068e-011 7.071068e-011
7533333333.3333 -0.029826084 0.065976053 0.0025357504 -0.02049217 7.071068e-011 7.071068e-011 7.071068e-011 7.071068e-011
7541741741.7417 0.027827086 0.068887509 0.018246783 0.0094786873 7.071068e-011 7.071068e-011 7.071068e-011 7.071068e-011
7550150150.1502 0.013033308 0.020587668 -0.01520834 0.013217414 7.071068e-011 7.071068e-011 7.071068e-011 7.071068e-011
7558558558.5586 -0.015352697 0.068428054 -0.0068474929 -0.019031029 7.071068e-011 7.071068e-011 7.071068e-011 7.071068e-011
7566966966.967 0.055604301 0.078121081 0.019989822 0.00048383349 7.071068e-011 7.071068e-011 7.071068e-011 7.071068e-011
7575375375.3754 0.053589206 0.00096543779 -0.0079110879 0.018450312 7.071068e-011 7.071068e-011 7.071068e-011 7.071068e-011
7583783783.7838 -0.01188055 0.023993151 -0.014386624 -0.014077208 7.071068e-011 7.071068e-011 7.071068e-011 7.071068e-011
7592192192.1922 0.0454593 0.060635567 0.017998371 -0.0083065275 7.071068e-011 7.071068e-011 7.071068e-011 7.071068e-011
7600600600.6006 0.051792707 -0.024318228 0.00086741243 0.01947334 7.071068e-011 7.071068e-011 7.071068e-011 7.071068e-011
7609009009.009 -0.037962645 -0.010822535 -0.018865788 -0.0065433984 7.071068e-011 7.071068e-011 7.071068e-011 7.071068e-011
7617417417.4174 -0.0052116914 0.058130536 0.012620186 -0.015306989 7.071068e-011 7.071068e-011 7.071068e-011 7.071068e-011
7625825825.8258 0.026430378 -0.0040556756 0.00941703 0.017391637 7.071068e-011 7.071068e-011 7.071068e-011 7.071068e-011
7634234234.2342 -0.06062194 0.0039313138 -0.019540774 0.0024341743 7.071068e-011 7.071068e-011 7.071068e-011 7.071068e-011
7642642642.6426 -0.026648385 0.091648467 0.0049916049 -0.018890681 7.071068e-011 7.071068e-011 7.071068e-011 7.071068e-011
7651051051.0511 0.037554637 0.042529635 0.01573924 0.011703447 7.071068e-011 7.071068e-011 7.071068e-011 7.071068e-011
7659459459.4595 -0.029784018 0.018092724 -0.016774442 0.010648012 7.071068e-011 7.071068e-011 7.071068e-011 7.071068e-011
7667867867.8679 -0.011613334 0.10242034 -0.0038854866 -0.019109707 7.071068e-011 7.071068e-011 7.071068e-011 7.071068e-011
7676276276.2763 0.073828422 0.059068274 0.019082462 0.0039665927 7.071068e-011 7.071068e-011 7.071068e-011 7.071068e-011
7684684684.6847 0.021468682 -0.0039352207 -0.010775949 0.016601797 7.071068e-011 7.071068e-011 7.071068e-011 7.071068e-011
7693093093.0931 0.00061812991 0.054338403 -0.011469429 -0.015962111 7.071068e-011 7.071068e-011 7.071068e-011 7.071068e-011
7701501501.5015 0.071045466 0.032641817 0.019017799 -0.0048256931 7.071068e-011 7.071068e-011 7.071068e-011 7.071068e-011
7709909909.9099 0.023401085 -0.042505927 -0.0026162844 0.019504132 7.071068e-011 7.071068e-011 7.071068e-011 7.071068e-011
7718318318.3183 -0.033206917 0.010806435 -0.017206423 -0.0095931115 7.071068e-011 7.071068e-011 7.071068e-011 7.071068e-011
7726726726.7267 0.02437567 0.027845845 0.015445378 -0.01222947 7.071068e-011 7.071068e-011 7.071068e-011 7.071068e-011
7735135135.1351 0.0029064803 -0.041258048 0.0059291045 0.018951939 7.071068e-011 7.071068e-011 7.071068e-011 7.071068e-011
7743543543.5435 -0.074987054 -0.0002984553 -0.019527519 -0.0014595453 7.071068e-011 7.071068e-011 7.071068e-011 7.071068e-011
7751951951.952 -0.030476516 0.064325452 0.0087280655 -0.01768199 7.071068e-011 7.071068e-011 7.071068e-011 7.071068e-011
7760360360.3604 -0.0025794876 0.017510738 0.013246714 0.014657732 7.071068e-011 7.071068e-011 7.071068e-011 7.071068e-011
7768768768.7688 -0.058287259 0.028354893 -0.018583281 0.0068680127 7.071068e-011 7.071068e-011 7.071068e-011 7.071068e-011
7777177177.1772 -0.027336136 0.095553525 0.00059373502 -0.019716201 7.071068e-011 7.071068e-011 7.071068e-011 7.071068e-011
7785585585.5856 0.033874892 0.058083005 0.018123263 0.0078163575 7.071068e-011 7.071068e-011 7.071068e-011 7.071068e-011
7793993993.994 -0.0055272034 0.027748402 -0.01390448 0.013689375 7.071068e-011 7.071068e-011 7.071068e-011 7.071068e-011
7802402402.4024 -0.00051079824 0.074865244 -0.0075704763 -0.018369133 7.071068e-011 7.071068e-011 7.071068e-011 7.071068e-011
7810810810.8108 0.057979338 0.048984122 0.019770145 -0.00045059805 7.071068e-011 7.071068e-011 7.071068e-011 7.071068e-011
7819219219.2192 0.026105549 -0.0064397859 -0.0071404134 0.01833014 7.071068e-011 7.071068e-011 7.071068e-011 7.071068e-011
7827627627.6276 -0.0036821088 0.026770439 -0.01440317 -0.013457091 7.071068e-011 7.071068e-011 7.071068e-011 7.071068e-011
7836036036.036 0.037473299 0.025832567 0.017843103 -0.0083403541 7.071068e-011 7.071068e-011 7.071068e-011 7.071068e-011
7844444444.4444 0.016599702 -0.023776537 0.0011164675 0.01971595 7.071068e-011 7.071068e-011 7.071068e-011 7.071068e-011
7852852852.8529 -0.028294686 0.0029511077 -0.018789772 -0.0063533224 7.071068e-011 7.071068e-011 7.071068e-011 7.071068e-011
7861261261.2613 0.0016577664 0.029533055 0.012769361 -0.015042817 7.071068e-011 7.071068e-011 7.071068e-011 7.071068e-011
7869669669.6697 0.0055160527 -0.009206187 0.0090104183 0.017555293 7.071068e-011 7.071068e-011 7.071068e-011 7.071068e-011
7878078078.0781 -0.040364623 0.0033464206 -0.01980325 0.0019610932 7.071068e-011 7.071068e-011 7.071068e-011 7.071068e-011
7886486486.4865 -0.024481229 0.046910074 0.0053854692 -0.019014264 7.071068e-011 7.071068e-011 7.071068e-011 7.071068e-011
7894894894.8949 0.010924603 0.03034479 0.015402919 0.011987743 7.071068e-011 7.071068e-011 7.071068e-011 7.071068e-011
7903303303.3033 -0.013468388 0.011063696 -0.01708746 0.0096914768 7.071068e-011 7.071068e-011 7.071068e-011 7.071068e-011
7911711711.7117 -0.017878165 0.043911994 -0.0027629954 -0.019484108 7.071068e-011 7.071068e-011 7.071068e-011 7.071068e-011
7920120120.1201 0.023069842 0.044926152 0.018893315 0.0047263638 7.071068e-011 7.071068e-011 7.071068e-011 7.071068e-011
7928528528.5285 0.023657966 0.0019726709 -0.011456058 0.015722733 7.071068e-011 7.071068e-011 7.071068e-011 7.071068e-011
7936936936.9369 -0.0099496888 0.011117346 -0.010151577 -0.016385037 7.071068e-011 7.071068e-011 7.071068e-011 7.071068e-011
7945345345.3453 0.01776989 0.032126073 0.019018605 -0.0030834712 7.071068e-011 7.071068e-011 7.071068e-011 7.071068e-011
