!Keysight Technologies,N5235B,MY61252044,A.15.00.15
!Date: Friday, January 20, 2023 23:49:40
!Correction: S11(Off) 
!S21(Off) 
!S12(Off) 
!S22(Off) 
!S2P File: Measurements: S11, S21, S12, S22:
# Hz S  RI   R 50
6600000000 0.018894946 -0.17546874 0.015470249 -0.0030610831 7.071068e-011 7.071068e-011 7.071068e-011 7.071068e-011
6608408408.4084 -0.1248403 0.16528638 0.0053177103 0.010846091 7.071068e-011 7.071068e-011 7.071068e-011 7.071068e-011
6616816816.8168 0.30576235 0.093088366 -0.0089212824 0.0036976952 7.071068e-011 7.071068e-011 7.071068e-011 7.071068e-011
6625225225.2252 0.025151156 -0.27291474 -0.0017832037 -0.0093189767 7.071068e-011 7.071068e-011 7.071068e-011 7.071068e-011
6633633633.6336 -0.16596341 0.16087429 0.0093521075 -0.00039077841 7.071068e-011 7.071068e-011 7.071068e-011 7.071068e-011
6642042042.042 0.28957474 0.11363982 -0.0018562553 0.0093341498 7.071068e-011 7.071068e-011 7.071068e-011 7.071068e-011
6650450450.4505 0.039679103 -0.25205642 -0.010740338 -0.0040966924 7.071068e-011 7.071068e-011 7.071068e-011 7.071068e-011
6658858858.8589 -0.14863652 0.13399194 0.005984731 -0.011512445 7.071068e-011 7.071068e-011 7.071068e-011 7.071068e-011
6667267267.2673 0.22829545 0.10151044 0.012217206 0.0091833891 7.071068e-011 7.071068e-011 7.071068e-011 7.071068e-011
6675675675.6757 0.043122459 -0.15097842 -0.01155628 0.013843822 7.071068e-011 7.071068e-011 7.071068e-011 7.071068e-011
6684084084.0841 -0.044319659 0.08387401 -0.014624651 -0.013375456 7.071068e-011 7.071068e-011 7.071068e-011 7.071068e-011
6692492492.4925 0.10550673 0.047588427 0.014840432 -0.014949528 7.071068e-011 7.071068e-011 7.071068e-011 7.071068e-011
6700900900.9009 0.086143851 0.018391684 0.014793563 0.01542591 7.071068e-011 7.071068e-011 7.071068e-011 7.071068e-011
6709309309.3093 0.077248365 -0.041851357 -0.015566224 0.013127367 7.071068e-011 7.071068e-011 7.071068e-011 7.071068e-011
6717717717.7177 -0.031119162 0.034105029 -0.010152588 -0.016495187 7.071068e-011 7.071068e-011 7.071068e-011 7.071068e-011
6726126126.1261 0.15472108 0.1164886 0.016819462 -0.0070942165 7.071068e-011 7.071068e-011 7.071068e-011 7.071068e-011
6734534534.5345 0.12907596 -0.14047974 0.0035583682 0.016253097 7.071068e-011 7.071068e-011 7.071068e-011 7.071068e-011
6742942942.9429 -0.10799991 0.026154948 -0.015935067 -0.0002781066 7.071068e-011 7.071068e-011 7.071068e-011 7.071068e-011
6751351351.3514 0.17117874 0.1528966 0.0036217698 -0.015392437 7.071068e-011 7.071068e-011 7.071068e-011 7.071068e-011
6759759759.7598 0.15104194 -0.17137401 0.013201808 0.0070780409 7.071068e-011 7.071068e-011 7.071068e-011 7.071068e-011
6768168168.1682 -0.14682855 -0.0059221927 -0.010869173 0.010423787 7.071068e-011 7.071068e-011 7.071068e-011 7.071068e-011
6776576576.5766 0.13354237 0.1790082 -0.0080151819 -0.013489398 7.071068e-011 7.071068e-011 7.071068e-011 7.071068e-011
6784984984.985 0.15156095 -0.14573351 0.014576178 -0.0040219137 7.071068e-011 7.071068e-011 7.071068e-011 7.071068e-011
6793393393.3934 -0.14721289 -0.0071928743 -0.00034768772 0.015540445 7.071068e-011 7.071068e-011 7.071068e-011 7.071068e-011
6801801801.8018 0.10093457 0.20284241 -0.015737241 -0.0043021655 7.071068e-011 7.071068e-011 7.071068e-011 7.071068e-011
6810210210.2102 0.1728462 -0.094572507 0.008688774 -0.014449785 7.071068e-011 7.071068e-011 7.071068e-011 7.071068e-011
6818618618.6186 -0.10522527 -0.01075909 0.012156495 0.013254323 7.071068e-011 7.071068e-011 7.071068e-011 7.071068e-011
6827027027.027 0.087499246 0.18547308 -0.015981393 0.0092214532 7.071068e-011 7.071068e-011 7.071068e-011 7.071068e-011
6835435435.4354 0.18153721 -0.048457105 -0.0044863825 -0.017919958 7.071068e-011 7.071068e-011 7.071068e-011 7.071068e-011
6843843843.8438 -0.0451046 -0.02825599 0.02019868 0.00024782753 7.071068e-011 7.071068e-011 7.071068e-011 7.071068e-011
6852252252.2523 0.074334241 0.12908542 -0.0045829942 0.020326551 7.071068e-011 7.071068e-011 7.071068e-011 7.071068e-011
6860660660.6607 0.1452391 -0.019876052 -0.0186269 -0.0096155107 7.071068e-011 7.071068e-011 7.071068e-011 7.071068e-011
6869069069.0691 0.0042998204 -0.027346903 0.014533016 -0.016104294 7.071068e-011 7.071068e-011 7.071068e-011 7.071068e-011
6877477477.4775 0.053866506 0.072630093 0.012694982 0.018113518 7.071068e-011 7.071068e-011 7.071068e-011 7.071068e-011
6885885885.8859 0.09039709 0.0068716123 -0.020475507 0.0077122278 7.071068e-011 7.071068e-011 7.071068e-011 7.071068e-011
6894294294.2943 0.047246624 -0.00089516386 -0.0023097605 -0.022044402 7.071068e-011 7.071068e-011 7.071068e-011 7.071068e-011
6902702702.7027 0.038352977 0.019212052 0.022018876 0.0032449574 7.071068e-011 7.071068e-011 7.071068e-011 7.071068e-011
6911111111.1111 0.03078511 0.037694182 -0.0087844934 0.020238861 7.071068e-011 7.071068e-011 7.071068e-011 7.071068e-011
6919519519.5195 0.078411117 0.049992155 -0.016966386 -0.013628371 7.071068e-011 7.071068e-011 7.071068e-011 7.071068e-011
6927927927.9279 0.050723087 -0.012414582 0.017255209 -0.01279296 7.071068e-011 7.071068e-011 7.071068e-011 7.071068e-011
6936336336.3363 -0.0020926062 0.062098265 0.0072826114 0.019490851 7.071068e-011 7.071068e-011 7.071068e-011 7.071068e-011
6944744744.7447 0.11219267 0.089414097 -0.020857738 0.001148254 7.071068e-011 7.071068e-011 7.071068e-011 7.071068e-011
6953153153.1532 0.084596142 -0.045373403 0.0044915192 -0.020015817 7.071068e-011 7.071068e-011 7.071068e-011 7.071068e-011
6961561561.5616 -0.028416086 0.054069366 0.017357374 0.0099620055 7.071068e-011 7.071068e-011 7.071068e-011 7.071068e-011
6969969969.97 0.12445693 0.10617186 -0.01452964 0.013567816 7.071068e-011 7.071068e-011 7.071068e-011 7.071068e-011
6978378378.3784 0.10196856 -0.070822001 -0.0084030218 -0.017386677 7.071068e-011 7.071068e-011 7.071068e-011 7.071068e-011
6986786786.7868 -0.064154521 0.032587752 0.018749619 -0.0022931099 7.071068e-011 7.071068e-011 7.071068e-011 7.071068e-011
6995195195.1952 0.10285885 0.13392898 -0.0035505709 0.018936789 7.071068e-011 7.071068e-011 7.071068e-011 7.071068e-011
7003603603.6036 0.1089865 -0.057698205 -0.016623709 -0.0089051221 7.071068e-011 7.071068e-011 7.071068e-011 7.071068e-011
7012012012.012 -0.072490782 0.032217447 0.014132289 -0.012484495 7.071068e-011 7.071068e-011 7.071068e-011 7.071068e-011
7020420420.4204 0.087660812 0.16143942 0.007804682 0.017344024 7.071068e-011 7.071068e-011 7.071068e-011 7.071068e-011
7028828828.8288 0.1328892 -0.028736576 -0.0185489 0.0018350906 7.071068e-011 7.071068e-011 7.071068e-011 7.071068e-011
7037237237.2372 -0.053942803 0.030324249 0.0044247913 -0.018669575 7.071068e-011 7.071068e-011 7.071068e-011 7.071068e-011
7045645645.6456 0.089831941 0.17102563 0.016476668 0.0098048057 7.071068e-011 7.071068e-011 7.071068e-011 7.071068e-011
7054054054.0541 0.16770929 -0.0030133997 -0.014688111 0.01206872 7.071068e-011 7.071068e-011 7.071068e-011 7.071068e-011
7062462462.4625 -0.0080453577 -0.0040690419 -0.0068511614 -0.018491298 7.071068e-011 7.071068e-011 7.071068e-011 7.071068e-011
7070870870.8709 0.078178898 0.14024875 0.01979238 -0.0012099753 7.071068e-011 7.071068e-011 7.071068e-011 7.071068e-011
7079279279.2793 0.16824293 0.0075817546 -0.005543815 0.018817293 7.071068e-011 7.071068e-011 7.071068e-011 7.071068e-011
7087687687.6877 0.032832656 -0.02709046 -0.016666453 -0.011490657 7.071068e-011 7.071068e-011 7.071068e-011 7.071068e-011
7096096096.0961 0.059223205 0.089134961 0.015956486 -0.01250117 7.071068e-011 7.071068e-011 7.071068e-011 7.071068e-011
7104504504.5045 0.14787126 0.010599364 0.0065489137 0.019158725 7.071068e-011 7.071068e-011 7.071068e-011 7.071068e-011
7112912912.9129 0.050896 -0.044805385 -0.020666342 -0.00011888162 7.071068e-011 7.071068e-011 7.071068e-011 7.071068e-011
7121321321.3213 0.034356486 0.031930801 0.006306652 -0.019871032 7.071068e-011 7.071068e-011 7.071068e-011 7.071068e-011
7129729729.7297 0.089239277 0.014418444 0.016475679 0.012083936 7.071068e-011 7.071068e-011 7.071068e-011 7.071068e-011
7138138138.1381 0.043442369 -0.037638813 -0.017200986 0.011725175 7.071068e-011 7.071068e-011 7.071068e-011 7.071068e-011
7146546546.5465 -0.00041641379 0.013423555 -0.0058707604 -0.020138359 7.071068e-011 7.071068e-011 7.071068e-011 7.071068e-011
7154954954.955 0.030430043 0.041411761 0.020826314 0.0008409142 7.071068e-011 7.071068e-011 7.071068e-011 7.071068e-011
7163363363.3634 0.045157112 0.015792158 -0.0076567386 0.019121232 7.071068e-011 7.071068e-011 7.071068e-011 7.071068e-011
7171771771.7718 0.0010910318 0.020173263 -0.015770247 -0.013484601 7.071068e-011 7.071068e-011 7.071068e-011 7.071068e-011
7180180180.1802 0.01852433 0.072569288 0.017639212 -0.010410064 7.071068e-011 7.071068e-011 7.071068e-011 7.071068e-011
7188588588.5886 0.067656815 0.056126148 0.0038922096 0.020478578 7.071068e-011 7.071068e-011 7.071068e-011 7.071068e-011
7196996996.997 0.040044237 0.010241393 -0.020639751 -0.002731476 7.071068e-011 7.071068e-011 7.071068e-011 7.071068e-011
7205405405.4054 0.012243783 0.066872232 0.0095459577 -0.018028758 7.071068e-011 7.071068e-011 7.071068e-011 7.071068e-011
7213813813.8138 0.083077833 0.067452326 0.013874315 0.015198603 7.071068e-011 7.071068e-011 7.071068e-011 7.071068e-011
7222222222.2222 0.066442065 -0.0055631343 -0.019002933 0.0082482798 7.071068e-011 7.071068e-011 7.071068e-011 7.071068e-011
7230630630.6306 -0.0014531292 0.03505969 -0.0014524848 -0.020512942 7.071068e-011 7.071068e-011 7.071068e-011 7.071068e-011
7239039039.039 0.071552828 0.075617999 0.019974303 0.0058462135 7.071068e-011 7.071068e-011 7.071068e-011 7.071068e-011
7247447447.4474 0.075205728 -0.014738617 -0.012019919 0.017002931 7.071068e-011 7.071068e-011 7.071068e-011 7.071068e-011
7255855855.8559 -0.016407913 0.0072625526 -0.011614469 -0.017036604 7.071068e-011 7.071068e-011 7.071068e-011 7.071068e-011
7264264264.2643 0.034598257 0.083951384 0.020147139 -0.0053686085 7.071068e-011 7.071068e-011 7.071068e-011 7.071068e-011
7272672672.6727 0.074521542 0.00095472974 -0.0015043811 0.020568686 7.071068e-011 7.071068e-011 7.071068e-011 7.071068e-011
7281081081.0811 -0.029734878 0.00050962041 -0.018756997 -0.0084511545 7.071068e-011 7.071068e-011 7.071068e-011 7.071068e-011
7289489489.4895 -0.0002531379 0.10767711 0.014698115 -0.014648482 7.071068e-011 7.071068e-011 7.071068e-011 7.071068e-011
7297897897.8979 0.085098386 0.050737336 0.0088285254 0.01883886 7.071068e-011 7.071068e-011 7.071068e-011 7.071068e-011
7306306306.3063 0.0011108123 0.0088436212 -0.020594107 0.0015914009 7.071068e-011 7.071068e-011 7.071068e-011 7.071068e-011
7314714714.7147 0.0041196709 0.11264832 0.0053901393 -0.020313889 7.071068e-011 7.071068e-011 7.071068e-011 7.071068e-011
7323123123.1231 0.11246951 0.075492464 0.017030779 0.011740655 7.071068e-011 7.071068e-011 7.071068e-011 7.071068e-011
7331531531.5315 0.051550109 -0.011755849 -0.017349187 0.011733138 7.071068e-011 7.071068e-011 7.071068e-011 7.071068e-011
7339939939.9399 0.0077454038 0.068333246 -0.0053421138 -0.02058121 7.071068e-011 7.071068e-011 7.071068e-011 7.071068e-011
7348348348.3483 0.10540789 0.063961722 0.02095513 0.0019101164 7.071068e-011 7.071068e-011 7.071068e-011 7.071068e-011
7356756756.7568 0.06634938 -0.037105329 -0.0091948789 0.018821971 7.071068e-011 7.071068e-011 7.071068e-011 7.071068e-011
7365165165.1652 -0.010331819 0.020822132 -0.0147739 -0.015194808 7.071068e-011 7.071068e-011 7.071068e-011 7.071068e-011
7373573573.5736 0.061505951 0.049816981 0.019023012 -0.0085920328 7.071068e-011 7.071068e-011 7.071068e-011 7.071068e-011
7381981981.982 0.04393911 -0.035233818 0.001082551 0.021139175 7.071068e-011 7.071068e-011 7.071068e-011 7.071068e-011
7390390390.3904 -0.042892952 0.0095246276 -0.020360135 -0.0061543682 7.071068e-011 7.071068e-011 7.071068e-011 7.071068e-011
7398798798.7988 0.012671753 0.071186639 0.012899816 -0.016727988 7.071068e-011 7.071068e-011 7.071068e-011 7.071068e-011
7407207207.2072 0.028142612 0.010078455 0.011217785 0.018000696 7.071068e-011 7.071068e-011 7.071068e-011 7.071068e-011
7415615615.6156 -0.040932562 0.035079714 -0.020901328 0.0044137603 7.071068e-011 7.071068e-011 7.071068e-011 7.071068e-011
7424024024.024 0.0066479044 0.10516103 0.003041453 -0.021069858 7.071068e-011 7.071068e-011 7.071068e-011 7.071068e-011
7432432432.4324 0.054803312 0.054101914 0.018711042 0.010408224 7.071068e-011 7.071068e-011 7.071068e-011 7.071068e-011
7440840840.8408 0.0098055499 0.042382848 -0.016141372 0.014089377 7.071068e-011 7.071068e-011 7.071068e-011 7.071068e-011
7449249249.2492 0.030301481 0.086965226 -0.00735453 -0.019885339 7.071068e-011 7.071068e-011 7.071068e-011 7.071068e-011
7457657657.6577 0.077773444 0.049097631 0.021278568 0.00014793537 7.071068e-011 7.071068e-011 7.071068e-011 7.071068e-011
7466066066.0661 0.042020079 0.014075737 -0.0075130099 0.019961432 7.071068e-011 7.071068e-011 7.071068e-011 7.071068e-011
7474474474.4745 0.030308494 0.039127834 -0.015966717 -0.013836415 7.071068e-011 7.071068e-011 7.071068e-011 7.071068e-011
7482882882.8829 0.059903432 0.029308258 0.01864562 -0.0098289512 7.071068e-011 7.071068e-011 7.071068e-011 7.071068e-011
7491291291.2913 0.038953431 -0.013503509 0.0026612056 0.02095611 7.071068e-011 7.071068e-011 7.071068e-011 7.071068e-011
7499699699.6997 -0.0033358159 0.0024712726 -0.020393312 -0.0049113207 7.071068e-011 7.071068e-011 7.071068e-011 7.071068e-011
7508108108.1081 0.003266576 0.031803194 0.011744539 -0.017351842 7.071068e-011 7.071068e-011 7.071068e-011 7.071068e-011
7516516516.5165 0.019296968 0.012141046 0.012022857 0.016997855 7.071068e-011 7.071068e-011 7.071068e-011 7.071068e-011
7524924924.9249 -0.026150703 0.0064897076 -0.020045476 0.0050951992 7.071068e-011 7.071068e-011 7.071068e-011 7.071068e-011
7533333333.3333 -0.03006324 0.065888852 0.0025213633 -0.020520616 7.071068e-011 7.071068e-011 7.071068e-011 7.071068e-011
7541741741.7417 0.027944855 0.069072917 0.018272897 0.0094817746 7.071068e-011 7.071068e-011 7.071068e-011 7.071068e-011
7550150150.1502 0.013053967 0.020458106 -0.015225569 0.013235413 7.071068e-011 7.071068e-011 7.071068e-011 7.071068e-011
7558558558.5586 -0.015318057 0.068452984 -0.0068707904 -0.019054148 7.071068e-011 7.071068e-011 7.071068e-011 7.071068e-011
7566966966.967 0.055500265 0.078044966 0.02002348 0.00048054886 7.071068e-011 7.071068e-011 7.071068e-011 7.071068e-011
7575375375.3754 0.053671431 0.0011697287 -0.0079158144 0.018483231 7.071068e-011 7.071068e-011 7.071068e-011 7.071068e-011
7583783783.7838 -0.011757204 0.023716737 -0.014423882 -0.014084842 7.071068e-011 7.071068e-011 7.071068e-011 7.071068e-011
7592192192.1922 0.04516815 0.060747553 0.018022018 -0.0083305389 7.071068e-011 7.071068e-011 7.071068e-011 7.071068e-011
7600600600.6006 0.052066047 -0.024203915 0.00088306598 0.01950076 7.071068e-011 7.071068e-011 7.071068e-011 7.071068e-011
7609009009.009 -0.038047295 -0.011048856 -0.018895574 -0.0065342141 7.071068e-011 7.071068e-011 7.071068e-011 7.071068e-011
7617417417.4174 -0.0052691232 0.058250442 0.012630984 -0.015332433 7.071068e-011 7.071068e-011 7.071068e-011 7.071068e-011
7625825825.8258 0.026444405 -0.0040453435 0.0094309999 0.017410947 7.071068e-011 7.071068e-011 7.071068e-011 7.071068e-011
7634234234.2342 -0.060496923 0.0039554392 -0.019566817 0.0024453509 7.071068e-011 7.071068e-011 7.071068e-011 7.071068e-011
7642642642.6426 -0.02675714 0.091442242 0.0049945572 -0.018923314 7.071068e-011 7.071068e-011 7.071068e-011 7.071068e-011
7651051051.0511 0.037472822 0.042828634 0.015773878 0.011716835 7.071068e-011 7.071068e-011 7.071068e-011 7.071068e-011
7659459459.4595 -0.029470373 0.017919883 -0.016793065 0.010685235 7.071068e-011 7.071068e-011 7.071068e-011 7.071068e-011
7667867867.8679 -0.011908446 0.10232281 -0.0039095506 -0.019136071 7.071068e-011 7.071068e-011 7.071068e-011 7.071068e-011
7676276276.2763 0.073949717 0.059278253 0.019107938 0.0039553251 7.071068e-011 7.071068e-011 7.071068e-011 7.071068e-011
7684684684.6847 0.02152798 -0.004084284 -0.010774273 0.016626995 7.071068e-011 7.071068e-011 7.071068e-011 7.071068e-011
7693093093.0931 0.00059530296 0.054329421 -0.011485585 -0.015976524 7.071068e-011 7.071068e-011 7.071068e-011 7.071068e-011
7701501501.5015 0.07094755 0.032612007 0.019042093 -0.0048349849 7.071068e-011 7.071068e-011 7.071068e-011 7.071068e-011
7709909909.9099 0.02350479 -0.042329576 -0.0026137352 0.019537287 7.071068e-011 7.071068e-011 7.071068e-011 7.071068e-011
7718318318.3183 -0.033129308 0.010510405 -0.017242331 -0.009605797 7.071068e-011 7.071068e-011 7.071068e-011 7.071068e-011
7726726726.7267 0.02408221 0.028015852 0.015463687 -0.012264603 7.071068e-011 7.071068e-011 7.071068e-011 7.071068e-011
7735135135.1351 0.0032122263 -0.041184202 0.0059604147 0.018977696 7.071068e-011 7.071068e-011 7.071068e-011 7.071068e-011
7743543543.5435 -0.075111099 -0.00049845071 -0.019554146 -0.0014456337 7.071068e-011 7.071068e-011 7.071068e-011 7.071068e-011
7751951951.952 -0.030498266 0.06444788 0.0087196743 -0.017707594 7.071068e-011 7.071068e-011 7.071068e-011 7.071068e-011
7760360360.3604 -0.0025793195 0.017509099 0.013269548 0.014662651 7.071068e-011 7.071068e-011 7.071068e-011 7.071068e-011
7768768768.7688 -0.058168139 0.028408296 -0.018599737 0.0068784859 7.071068e-011 7.071068e-011 7.071068e-011 7.071068e-011
7777177177.1772 -0.027403722 0.095345996 0.00058736524 -0.019742195 7.071068e-011 7.071068e-011 7.071068e-011 7.071068e-011
7785585585.5856 0.033780072 0.058340307 0.018155534 0.007821057 7.071068e-011 7.071068e-011 7.071068e-011 7.071068e-011
7793993993.994 -0.0052395365 0.027613858 -0.01392606 0.013719185 7.071068e-011 7.071068e-011 7.071068e-011 7.071068e-011
7802402402.4024 -0.00077320082 0.074778743 -0.007601459 -0.018397501 7.071068e-011 7.071068e-011 7.071068e-011 7.071068e-011
7810810810.8108 0.058106784 0.049145546 0.01980189 -0.00047541002 7.071068e-011 7.071068e-011 7.071068e-011 7.071068e-011
7819219219.2192 0.026099248 -0.0065524918 -0.0071300501 0.018361412 7.071068e-011 7.071068e-011 7.071068e-011 7.071068e-011
7827627627.6276 -0.0036422973 0.026792062 -0.014430532 -0.01345834 7.071068e-011 7.071068e-011 7.071068e-011 7.071068e-011
7836036036.036 0.037364297 0.025734389 0.017851848 -0.0083643561 7.071068e-011 7.071068e-011 7.071068e-011 7.071068e-011
7844444444.4444 0.016648265 -0.023571642 0.0011245856 0.019735022 7.071068e-011 7.071068e-011 7.071068e-011 7.071068e-011
7852852852.8529 -0.028178332 0.0027081524 -0.018815259 -0.006356101 7.071068e-011 7.071068e-011 7.071068e-011 7.071068e-011
7861261261.2613 0.0013991387 0.029638465 0.012781837 -0.015073989 7.071068e-011 7.071068e-011 7.071068e-011 7.071068e-011
7869669669.6697 0.0057523428 -0.0091293277 0.0090366807 0.017580366 7.071068e-011 7.071068e-011 7.071068e-011 7.071068e-011
7878078078.0781 -0.040463943 0.0032094456 -0.019834677 0.0019830794 7.071068e-011 7.071068e-011 7.071068e-011 7.071068e-011
7886486486.4865 -0.024436688 0.046982076 0.0053710476 -0.019049119 7.071068e-011 7.071068e-011 7.071068e-011 7.071068e-011
7894894894.8949 0.010842243 0.030294301 0.015433986 0.011987136 7.071068e-011 7.071068e-011 7.071068e-011 7.071068e-011
7903303303.3033 -0.013352764 0.011206402 -0.017095083 0.0097181881 7.071068e-011 7.071068e-011 7.071068e-011 7.071068e-011
7911711711.7117 -0.017862862 0.043660413 -0.0027790261 -0.019501055 7.071068e-011 7.071068e-011 7.071068e-011 7.071068e-011
7920120120.1201 0.022890326 0.045117967 0.018916102 0.0047245626 7.071068e-011 7.071068e-011 7.071068e-011 7.071068e-011
7928528528.5285 0.023903769 0.0019335874 -0.011462074 0.015748775 7.071068e-011 7.071068e-011 7.071068e-011 7.071068e-011
7936936936.9369 -0.010104572 0.011020711 -0.010173689 -0.016405979 7.071068e-011 7.071068e-011 7.071068e-011 7.071068e-011
7945345345.3453 0.017827356 0.032192931 0.01904902 -0.0031006327 7.071068e-011 7.071068e-011 7.071068e-011 7.071068e-011
