!Keysight Technologies,N5235B,MY61252044,A.15.00.15
!Date: Friday, January 20, 2023 23:09:19
!Correction: S11(Off) 
!S21(Off) 
!S12(Off) 
!S22(Off) 
!S2P File: Measurements: S11, S21, S12, S22:
# Hz S  RI   R 50
6600000000 0.018331336 -0.17535204 0.015451309 -0.003191516 7.071068e-011 7.071068e-011 7.071068e-011 7.071068e-011
6608408408.4084 -0.1243291 0.16584294 0.0054146508 0.01079985 7.071068e-011 7.071068e-011 7.071068e-011 7.071068e-011
6616816816.8168 0.30600581 0.092398219 -0.0088849422 0.0037794609 7.071068e-011 7.071068e-011 7.071068e-011 7.071068e-011
6625225225.2252 0.024406953 -0.272836 -0.0018703038 -0.0092992652 7.071068e-011 7.071068e-011 7.071068e-011 7.071068e-011
6633633633.6336 -0.16558623 0.1614935 0.0093443589 -0.00047848537 7.071068e-011 7.071068e-011 7.071068e-011 7.071068e-011
6642042042.042 0.28998315 0.11310533 -0.0017672228 0.0093469974 7.071068e-011 7.071068e-011 7.071068e-011 7.071068e-011
6650450450.4505 0.038964126 -0.25219584 -0.010771191 -0.0039946567 7.071068e-011 7.071068e-011 7.071068e-011 7.071068e-011
6658858858.8589 -0.14837942 0.13468236 0.0058769132 -0.011559412 7.071068e-011 7.071068e-011 7.071068e-011 7.071068e-011
6667267267.2673 0.22868942 0.10102428 0.012295622 0.009062849 7.071068e-011 7.071068e-011 7.071068e-011 7.071068e-011
6675675675.6757 0.042594265 -0.15102424 -0.011425367 0.013942949 7.071068e-011 7.071068e-011 7.071068e-011 7.071068e-011
6684084084.0841 -0.044126749 0.084150702 -0.014741201 -0.013238145 7.071068e-011 7.071068e-011 7.071068e-011 7.071068e-011
6692492492.4925 0.10557451 0.047621701 0.014687009 -0.015083863 7.071068e-011 7.071068e-011 7.071068e-011 7.071068e-011
6700900900.9009 0.086195037 0.018081954 0.014923328 0.015280518 7.071068e-011 7.071068e-011 7.071068e-011 7.071068e-011
6709309309.3093 0.076966144 -0.041655671 -0.015442554 0.0132606 7.071068e-011 7.071068e-011 7.071068e-011 7.071068e-011
6717717717.7177 -0.030943641 0.034271579 -0.010305774 -0.01639617 7.071068e-011 7.071068e-011 7.071068e-011 7.071068e-011
6726126126.1261 0.15491365 0.11630697 0.016749019 -0.0072495043 7.071068e-011 7.071068e-011 7.071068e-011 7.071068e-011
6734534534.5345 0.12873799 -0.14065997 0.0037079845 0.016216999 7.071068e-011 7.071068e-011 7.071068e-011 7.071068e-011
6742942942.9429 -0.10804044 0.026674908 -0.01593376 -0.00012438872 7.071068e-011 7.071068e-011 7.071068e-011 7.071068e-011
6751351351.3514 0.17171623 0.15263504 0.0034674942 -0.015422509 7.071068e-011 7.071068e-011 7.071068e-011 7.071068e-011
6759759759.7598 0.15049246 -0.17170264 0.013263008 0.0069462303 7.071068e-011 7.071068e-011 7.071068e-011 7.071068e-011
6768168168.1682 -0.14681932 -0.0052738381 -0.010761795 0.010524427 7.071068e-011 7.071068e-011 7.071068e-011 7.071068e-011
6776576576.5766 0.13403074 0.17871739 -0.0081434529 -0.013400526 7.071068e-011 7.071068e-011 7.071068e-011 7.071068e-011
6784984984.985 0.15116982 -0.14601123 0.014529184 -0.0041565555 7.071068e-011 7.071068e-011 7.071068e-011 7.071068e-011
6793393393.3934 -0.14737751 -0.0067511848 -0.00019991257 0.015535295 7.071068e-011 7.071068e-011 7.071068e-011 7.071068e-011
6801801801.8018 0.10146396 0.2028435 -0.015771408 -0.0041457061 7.071068e-011 7.071068e-011 7.071068e-011 7.071068e-011
6810210210.2102 0.17253858 -0.095073439 0.008544988 -0.014526567 7.071068e-011 7.071068e-011 7.071068e-011 7.071068e-011
6818618618.6186 -0.1054735 -0.010229468 0.012279931 0.013127984 7.071068e-011 7.071068e-011 7.071068e-011 7.071068e-011
6827027027.027 0.088015333 0.18542629 -0.015880454 0.0093735168 7.071068e-011 7.071068e-011 7.071068e-011 7.071068e-011
6835435435.4354 0.18125793 -0.048818212 -0.0046595833 -0.017862581 7.071068e-011 7.071068e-011 7.071068e-011 7.071068e-011
6843843843.8438 -0.045219123 -0.027905215 0.020184487 5.0651237e-005 7.071068e-011 7.071068e-011 7.071068e-011 7.071068e-011
6852252252.2523 0.074533544 0.12909117 -0.0043842699 0.020352133 7.071068e-011 7.071068e-011 7.071068e-011 7.071068e-011
6860660660.6607 0.14529109 -0.020061851 -0.018705044 -0.0094262082 7.071068e-011 7.071068e-011 7.071068e-011 7.071068e-011
6869069069.0691 0.0040113013 -0.027256934 0.014374932 -0.01623035 7.071068e-011 7.071068e-011 7.071068e-011 7.071068e-011
6877477477.4775 0.054125883 0.07279817 0.01286186 0.017982885 7.071068e-011 7.071068e-011 7.071068e-011 7.071068e-011
6885885885.8859 0.090364061 0.0066762152 -0.020388888 0.0079125287 7.071068e-011 7.071068e-011 7.071068e-011 7.071068e-011
6894294294.2943 0.047159407 -0.00079151121 -0.0025222059 -0.022012437 7.071068e-011 7.071068e-011 7.071068e-011 7.071068e-011
6902702702.7027 0.038395654 0.019186795 0.022038177 0.003024423 7.071068e-011 7.071068e-011 7.071068e-011 7.071068e-011
6911111111.1111 0.030778553 0.03783853 -0.0085742073 0.020313561 7.071068e-011 7.071068e-011 7.071068e-011 7.071068e-011
6919519519.5195 0.078525044 0.049792115 -0.017086536 -0.013449525 7.071068e-011 7.071068e-011 7.071068e-011 7.071068e-011
6927927927.9279 0.050474733 -0.01231702 0.017120181 -0.012946895 7.071068e-011 7.071068e-011 7.071068e-011 7.071068e-011
6936336336.3363 -0.0019209227 0.062215231 0.0074660499 0.019405875 7.071068e-011 7.071068e-011 7.071068e-011 7.071068e-011
6944744744.7447 0.11224739 0.089269102 -0.020832974 0.0013533545 7.071068e-011 7.071068e-011 7.071068e-011 7.071068e-011
6953153153.1532 0.084413484 -0.045403104 0.0043002251 -0.020046281 7.071068e-011 7.071068e-011 7.071068e-011 7.071068e-011
6961561561.5616 -0.028416056 0.054284152 0.017446168 0.0097856289 7.071068e-011 7.071068e-011 7.071068e-011 7.071068e-011
6969969969.97 0.12473496 0.10608482 -0.01438133 0.013706789 7.071068e-011 7.071068e-011 7.071068e-011 7.071068e-011
6978378378.3784 0.10165508 -0.071063034 -0.0085649742 -0.01729265 7.071068e-011 7.071068e-011 7.071068e-011 7.071068e-011
6986786786.7868 -0.064149931 0.033042543 0.018709026 -0.0024829744 7.071068e-011 7.071068e-011 7.071068e-011 7.071068e-011
6995195195.1952 0.10318834 0.13368873 -0.0033596589 0.018954689 7.071068e-011 7.071068e-011 7.071068e-011 7.071068e-011
7003603603.6036 0.10865703 -0.057833966 -0.016693484 -0.0087377299 7.071068e-011 7.071068e-011 7.071068e-011 7.071068e-011
7012012012.012 -0.072499335 0.032541417 0.01399404 -0.012615994 7.071068e-011 7.071068e-011 7.071068e-011 7.071068e-011
7020420420.4204 0.087935813 0.16136456 0.0079653095 0.017253097 7.071068e-011 7.071068e-011 7.071068e-011 7.071068e-011
7028828828.8288 0.1327157 -0.029002752 -0.018516876 0.002012792 7.071068e-011 7.071068e-011 7.071068e-011 7.071068e-011
7037237237.2372 -0.05414575 0.030659264 0.0042283903 -0.018700745 7.071068e-011 7.071068e-011 7.071068e-011 7.071068e-011
7045645645.6456 0.090210527 0.17104624 0.016558144 0.0096332198 7.071068e-011 7.071068e-011 7.071068e-011 7.071068e-011
7054054054.0541 0.16753501 -0.0033616039 -0.014554534 0.012204036 7.071068e-011 7.071068e-011 7.071068e-011 7.071068e-011
7062462462.4625 -0.0082615754 -0.003712794 -0.0070334808 -0.018399104 7.071068e-011 7.071068e-011 7.071068e-011 7.071068e-011
7070870870.8709 0.078507192 0.14022963 0.0197585 -0.0014037008 7.071068e-011 7.071068e-011 7.071068e-011 7.071068e-011
7079279279.2793 0.16811951 0.0074006291 -0.0053564035 0.018850233 7.071068e-011 7.071068e-011 7.071068e-011 7.071068e-011
7087687687.6877 0.032689355 -0.026991306 -0.01676245 -0.011315767 7.071068e-011 7.071068e-011 7.071068e-011 7.071068e-011
7096096096.0961 0.05937187 0.089319438 0.015817896 -0.012646021 7.071068e-011 7.071068e-011 7.071068e-011 7.071068e-011
7104504504.5045 0.14795469 0.010369566 0.0067298538 0.019079067 7.071068e-011 7.071068e-011 7.071068e-011 7.071068e-011
7112912912.9129 0.050678525 -0.04472677 -0.020649368 9.0914808e-005 7.071068e-011 7.071068e-011 7.071068e-011 7.071068e-011
7121321321.3213 0.034491591 0.032096714 0.0060999729 -0.019913891 7.071068e-011 7.071068e-011 7.071068e-011 7.071068e-011
7129729729.7297 0.08932595 0.014252288 0.016577724 0.011907549 7.071068e-011 7.071068e-011 7.071068e-011 7.071068e-011
7138138138.1381 0.0432931 -0.037596919 -0.017061718 0.011888326 7.071068e-011 7.071068e-011 7.071068e-011 7.071068e-011
7146546546.5465 -0.00036551701 0.013470838 -0.0060648653 -0.020055756 7.071068e-011 7.071068e-011 7.071068e-011 7.071068e-011
7154954954.955 0.030472247 0.041470487 0.020806361 0.00063475169 7.071068e-011 7.071068e-011 7.071068e-011 7.071068e-011
7163363363.3634 0.045158625 0.015620589 -0.0074643223 0.019171668 7.071068e-011 7.071068e-011 7.071068e-011 7.071068e-011
7171771771.7718 0.00095068221 0.020326374 -0.015885672 -0.013318907 7.071068e-011 7.071068e-011 7.071068e-011 7.071068e-011
7180180180.1802 0.0186667 0.072572716 0.017518615 -0.010577884 7.071068e-011 7.071068e-011 7.071068e-011 7.071068e-011
7188588588.5886 0.067626044 0.056037489 0.0040936531 0.020416172 7.071068e-011 7.071068e-011 7.071068e-011 7.071068e-011
7196996996.997 0.039932925 0.010266036 -0.020643935 -0.0025184941 7.071068e-011 7.071068e-011 7.071068e-011 7.071068e-011
7205405405.4054 0.012304748 0.066972889 0.0093522975 -0.01810356 7.071068e-011 7.071068e-011 7.071068e-011 7.071068e-011
7213813813.8138 0.083149076 0.067404784 0.014005408 0.015044193 7.071068e-011 7.071068e-011 7.071068e-011 7.071068e-011
7222222222.2222 0.066329822 -0.0056731366 -0.01889413 0.0084283184 7.071068e-011 7.071068e-011 7.071068e-011 7.071068e-011
7230630630.6306 -0.0014895459 0.035304368 -0.0016546139 -0.020471169 7.071068e-011 7.071068e-011 7.071068e-011 7.071068e-011
7239039039.039 0.071753934 0.075501561 0.020006018 0.0056487955 7.071068e-011 7.071068e-011 7.071068e-011 7.071068e-011
7247447447.4474 0.075024538 -0.014798937 -0.011839428 0.017104119 7.071068e-011 7.071068e-011 7.071068e-011 7.071068e-011
7255855855.8559 -0.016424574 0.0074191736 -0.011775302 -0.016902154 7.071068e-011 7.071068e-011 7.071068e-011 7.071068e-011
7264264264.2643 0.034747802 0.083943471 0.020073798 -0.0055581816 7.071068e-011 7.071068e-011 7.071068e-011 7.071068e-011
7272672672.6727 0.074449703 0.00079417729 -0.0012968858 0.020559531 7.071068e-011 7.071068e-011 7.071068e-011 7.071068e-011
7281081081.0811 -0.029885542 0.00063531974 -0.018821646 -0.0082458593 7.071068e-011 7.071068e-011 7.071068e-011 7.071068e-011
7289489489.4895 -6.2642917e-005 0.10777923 0.014539829 -0.014770806 7.071068e-011 7.071068e-011 7.071068e-011 7.071068e-011
7297897897.8979 0.085084602 0.050490547 0.0090036327 0.018728077 7.071068e-011 7.071068e-011 7.071068e-011 7.071068e-011
7306306306.3063 0.00089829142 0.0089692352 -0.020553181 0.001798698 7.071068e-011 7.071068e-011 7.071068e-011 7.071068e-011
7314714714.7147 0.0042960891 0.11277787 0.0051895697 -0.020340811 7.071068e-011 7.071068e-011 7.071068e-011 7.071068e-011
7323123123.1231 0.11248913 0.075315215 0.017125815 0.011561341 7.071068e-011 7.071068e-011 7.071068e-011 7.071068e-011
7331531531.5315 0.051384106 -0.011718431 -0.017211216 0.011896399 7.071068e-011 7.071068e-011 7.071068e-011 7.071068e-011
7339939939.9399 0.0077893133 0.068522029 -0.0055386024 -0.020505955 7.071068e-011 7.071068e-011 7.071068e-011 7.071068e-011
7348348348.3483 0.10556822 0.06383843 0.020950295 0.0017010162 7.071068e-011 7.071068e-011 7.071068e-011 7.071068e-011
7356756756.7568 0.066131994 -0.037154187 -0.008991464 0.018893853 7.071068e-011 7.071068e-011 7.071068e-011 7.071068e-011
7365165165.1652 -0.010296697 0.02104165 -0.014907435 -0.01502946 7.071068e-011 7.071068e-011 7.071068e-011 7.071068e-011
7373573573.5736 0.061675765 0.049713604 0.018914344 -0.0087678805 7.071068e-011 7.071068e-011 7.071068e-011 7.071068e-011
7381981981.982 0.043775938 -0.035329703 0.0012968211 0.021101393 7.071068e-011 7.071068e-011 7.071068e-011 7.071068e-011
7390390390.3904 -0.042899128 0.0096867094 -0.020395003 -0.0059449947 7.071068e-011 7.071068e-011 7.071068e-011 7.071068e-011
7398798798.7988 0.012794609 0.071149103 0.012721486 -0.016832825 7.071068e-011 7.071068e-011 7.071068e-011 7.071068e-011
7407207207.2072 0.028080108 0.009944669 0.011389993 0.017865771 7.071068e-011 7.071068e-011 7.071068e-011 7.071068e-011
7415615615.6156 -0.041043021 0.035204343 -0.020831903 0.004619245 7.071068e-011 7.071068e-011 7.071068e-011 7.071068e-011
7424024024.024 0.0067966511 0.10518026 0.0028277289 -0.021076767 7.071068e-011 7.071068e-011 7.071068e-011 7.071068e-011
7432432432.4324 0.054748744 0.053976726 0.018793445 0.010205593 7.071068e-011 7.071068e-011 7.071068e-011 7.071068e-011
7440840840.8408 0.0096928505 0.042471163 -0.015976138 0.014235151 7.071068e-011 7.071068e-011 7.071068e-011 7.071068e-011
7449249249.2492 0.03040361 0.087036453 -0.007543724 -0.01978457 7.071068e-011 7.071068e-011 7.071068e-011 7.071068e-011
7457657657.6577 0.07776431 0.049011473 0.021252096 -6.412623e-005 7.071068e-011 7.071068e-011 7.071068e-011 7.071068e-011
7466066066.0661 0.041944146 0.014108429 -0.0072989021 0.020010713 7.071068e-011 7.071068e-011 7.071068e-011 7.071068e-011
7474474474.4745 0.030328827 0.039218668 -0.016084116 -0.01365934 7.071068e-011 7.071068e-011 7.071068e-011 7.071068e-011
7482882882.8829 0.059983995 0.029247303 0.018525304 -0.010000524 7.071068e-011 7.071068e-011 7.071068e-011 7.071068e-011
7491291291.2913 0.038859457 -0.013530362 0.0028731716 0.020903885 7.071068e-011 7.071068e-011 7.071068e-011 7.071068e-011
7499699699.6997 -0.0033374524 0.0025338356 -0.020417579 -0.0046971333 7.071068e-011 7.071068e-011 7.071068e-011 7.071068e-011
7508108108.1081 0.0033543482 0.031826265 0.011556892 -0.017446635 7.071068e-011 7.071068e-011 7.071068e-011 7.071068e-011
7516516516.5165 0.01926494 0.012025367 0.012178965 0.01685486 7.071068e-011 7.071068e-011 7.071068e-011 7.071068e-011
7524924924.9249 -0.026222441 0.0065634111 -0.019967545 0.0052943756 7.071068e-011 7.071068e-011 7.071068e-011 7.071068e-011
7533333333.3333 -0.030006822 0.065941378 0.0023167017 -0.020518165 7.071068e-011 7.071068e-011 7.071068e-011 7.071068e-011
7541741741.7417 0.028000992 0.068976536 0.018346157 0.0092852116 7.071068e-011 7.071068e-011 7.071068e-011 7.071068e-011
7550150150.1502 0.012894614 0.020463925 -0.015071359 0.013374306 7.071068e-011 7.071068e-011 7.071068e-011 7.071068e-011
7558558558.5586 -0.015269358 0.068574131 -0.0070460187 -0.018963991 7.071068e-011 7.071068e-011 7.071068e-011 7.071068e-011
7566966966.967 0.055574492 0.077981226 0.020004043 0.00027144543 7.071068e-011 7.071068e-011 7.071068e-011 7.071068e-011
7575375375.3754 0.053540654 0.0010832001 -0.007717547 0.018537784 7.071068e-011 7.071068e-011 7.071068e-011 7.071068e-011
7583783783.7838 -0.011779895 0.023912672 -0.014541545 -0.013926261 7.071068e-011 7.071068e-011 7.071068e-011 7.071068e-011
7592192192.1922 0.04532022 0.060669445 0.017911773 -0.0085073188 7.071068e-011 7.071068e-011 7.071068e-011 7.071068e-011
7600600600.6006 0.051949143 -0.024294673 0.0010775344 0.019466238 7.071068e-011 7.071068e-011 7.071068e-011 7.071068e-011
7609009009.009 -0.038097154 -0.010899068 -0.018934416 -0.0063389954 7.071068e-011 7.071068e-011 7.071068e-011 7.071068e-011
7617417417.4174 -0.0051080151 0.058252666 0.012452769 -0.015439995 7.071068e-011 7.071068e-011 7.071068e-011 7.071068e-011
7625825825.8258 0.026383281 -0.0042066383 0.0095952144 0.01729391 7.071068e-011 7.071068e-011 7.071068e-011 7.071068e-011
7634234234.2342 -0.060631074 0.0040911604 -0.019517371 0.0026356117 7.071068e-011 7.071068e-011 7.071068e-011 7.071068e-011
7642642642.6426 -0.026586434 0.091498099 0.0047953194 -0.018949514 7.071068e-011 7.071068e-011 7.071068e-011 7.071068e-011
7651051051.0511 0.037442304 0.042644817 0.015871041 0.011543925 7.071068e-011 7.071068e-011 7.071068e-011 7.071068e-011
7659459459.4595 -0.029657947 0.01802096 -0.01666162 0.010837051 7.071068e-011 7.071068e-011 7.071068e-011 7.071068e-011
7667867867.8679 -0.011744052 0.10242852 -0.0040972871 -0.019070093 7.071068e-011 7.071068e-011 7.071068e-011 7.071068e-011
7676276276.2763 0.073934533 0.059112359 0.019123416 0.0037585883 7.071068e-011 7.071068e-011 7.071068e-011 7.071068e-011
7684684684.6847 0.021398356 -0.0040368927 -0.010592769 0.016715446 7.071068e-011 7.071068e-011 7.071068e-011 7.071068e-011
7693093093.0931 0.00063788088 0.054471817 -0.011637617 -0.015837112 7.071068e-011 7.071068e-011 7.071068e-011 7.071068e-011
7701501501.5015 0.071083002 0.032500487 0.018965827 -0.0050228979 7.071068e-011 7.071068e-011 7.071068e-011 7.071068e-011
7709909909.9099 0.023320751 -0.042368624 -0.0024115252 0.019535787 7.071068e-011 7.071068e-011 7.071068e-011 7.071068e-011
7718318318.3183 -0.033074565 0.010699009 -0.017316023 -0.0094137117 7.071068e-011 7.071068e-011 7.071068e-011 7.071068e-011
7726726726.7267 0.02422525 0.027916761 0.01531805 -0.012404704 7.071068e-011 7.071068e-011 7.071068e-011 7.071068e-011
7735135135.1351 0.003059912 -0.041277993 0.006143488 0.018890284 7.071068e-011 7.071068e-011 7.071068e-011 7.071068e-011
7743543543.5435 -0.075116858 -0.00032957693 -0.019542973 -0.0012427017 7.071068e-011 7.071068e-011 7.071068e-011 7.071068e-011
7751951951.952 -0.030390875 0.064397991 0.0085305711 -0.017775195 7.071068e-011 7.071068e-011 7.071068e-011 7.071068e-011
7760360360.3604 -0.0026117787 0.017408213 0.013404636 0.014510634 7.071068e-011 7.071068e-011 7.071068e-011 7.071068e-011
7768768768.7688 -0.058326665 0.028460015 -0.01850245 0.0070674722 7.071068e-011 7.071068e-011 7.071068e-011 7.071068e-011
7777177177.1772 -0.027240824 0.095444411 0.00038296939 -0.019717311 7.071068e-011 7.071068e-011 7.071068e-011 7.071068e-011
7785585585.5856 0.033737913 0.058152065 0.018207481 0.0076254099 7.071068e-011 7.071068e-011 7.071068e-011 7.071068e-011
7793993993.994 -0.0053670532 0.027717851 -0.013759947 0.013844104 7.071068e-011 7.071068e-011 7.071068e-011 7.071068e-011
7802402402.4024 -0.00067327463 0.074856609 -0.0077769174 -0.018291896 7.071068e-011 7.071068e-011 7.071068e-011 7.071068e-011
7810810810.8108 0.058122549 0.049045149 0.019770015 -0.00067219744 7.071068e-011 7.071068e-011 7.071068e-011 7.071068e-011
7819219219.2192 0.02601077 -0.0065205432 -0.0069300854 0.018412396 7.071068e-011 7.071068e-011 7.071068e-011 7.071068e-011
7827627627.6276 -0.0036479603 0.026879067 -0.014549199 -0.013292438 7.071068e-011 7.071068e-011 7.071068e-011 7.071068e-011
7836036036.036 0.037492961 0.025721358 0.017744157 -0.008538384 7.071068e-011 7.071068e-011 7.071068e-011 7.071068e-011
7844444444.4444 0.016521923 -0.023683807 0.001334751 0.019696819 7.071068e-011 7.071068e-011 7.071068e-011 7.071068e-011
7852852852.8529 -0.028180109 0.0028862886 -0.018854102 -0.0061504198 7.071068e-011 7.071068e-011 7.071068e-011 7.071068e-011
7861261261.2613 0.0015219444 0.029552953 0.012606382 -0.015182862 7.071068e-011 7.071068e-011 7.071068e-011 7.071068e-011
7869669669.6697 0.0056519168 -0.0091846148 0.0092086568 0.017456688 7.071068e-011 7.071068e-011 7.071068e-011 7.071068e-011
7878078078.0781 -0.040475111 0.0032689455 -0.019784959 0.0021813386 7.071068e-011 7.071068e-011 7.071068e-011 7.071068e-011
7886486486.4865 -0.024406051 0.047013599 0.0051669362 -0.019076513 7.071068e-011 7.071068e-011 7.071068e-011 7.071068e-011
7894894894.8949 0.010904197 0.030227792 0.015539229 0.011808394 7.071068e-011 7.071068e-011 7.071068e-011 7.071068e-011
7903303303.3033 -0.013501252 0.011181899 -0.016974717 0.0098784221 7.071068e-011 7.071068e-011 7.071068e-011 7.071068e-011
7911711711.7117 -0.017798107 0.043808971 -0.0029833424 -0.019442949 7.071068e-011 7.071068e-011 7.071068e-011 7.071068e-011
7920120120.1201 0.022952519 0.044998784 0.018937461 0.0045115412 7.071068e-011 7.071068e-011 7.071068e-011 7.071068e-011
7928528528.5285 0.023785597 0.001952332 -0.011285855 0.015839884 7.071068e-011 7.071068e-011 7.071068e-011 7.071068e-011
7936936936.9369 -0.010074346 0.01108964 -0.010333871 -0.016270502 7.071068e-011 7.071068e-011 7.071068e-011 7.071068e-011
7945345345.3453 0.017867871 0.032199237 0.018981798 -0.0032998836 7.071068e-011 7.071068e-011 7.071068e-011 7.071068e-011
