!Keysight Technologies,N5235B,MY61252044,A.15.00.15
!Date: Friday, January 20, 2023 19:24:49
!Correction: S11(Off) 
!S21(Off) 
!S12(Off) 
!S22(Off) 
!S2P File: Measurements: S11, S21, S12, S22:
# Hz S  RI   R 50
6600000000 0.016656892 -0.17447516 0.014897232 -0.0052382722 7.071068e-011 7.071068e-011 7.071068e-011 7.071068e-011
6608400000 -0.12337799 0.16690692 0.0067869551 0.010000863 7.071068e-011 7.071068e-011 7.071068e-011 7.071068e-011
6616800000 0.30704623 0.091309085 -0.0083272103 0.0048790425 7.071068e-011 7.071068e-011 7.071068e-011 7.071068e-011
6625200000 0.023272511 -0.27299184 -0.0029952554 -0.0089986604 7.071068e-011 7.071068e-011 7.071068e-011 7.071068e-011
6633600000 -0.16559848 0.16185793 0.0092059411 -0.0015919502 7.071068e-011 7.071068e-011 7.071068e-011 7.071068e-011
6642000000 0.29051578 0.11363171 -0.00067483063 0.0094601335 7.071068e-011 7.071068e-011 7.071068e-011 7.071068e-011
6650400000 0.039356392 -0.25277138 -0.011120074 -0.0027897391 7.071068e-011 7.071068e-011 7.071068e-011 7.071068e-011
6658800000 -0.14898437 0.13371977 0.0046102218 -0.012104983 7.071068e-011 7.071068e-011 7.071068e-011 7.071068e-011
6667200000 0.22818956 0.10324295 0.013093622 0.0077332449 7.071068e-011 7.071068e-011 7.071068e-011 7.071068e-011
6675600000 0.044245824 -0.15271862 -0.010037465 0.014900604 7.071068e-011 7.071068e-011 7.071068e-011 7.071068e-011
6684000000 -0.045291644 0.084261514 -0.015878819 -0.011848974 7.071068e-011 7.071068e-011 7.071068e-011 7.071068e-011
6692400000 0.10547087 0.048450373 0.013278185 -0.016283426 7.071068e-011 7.071068e-011 7.071068e-011 7.071068e-011
6700800000 0.086104833 0.017152004 0.016076228 0.013999537 7.071068e-011 7.071068e-011 7.071068e-011 7.071068e-011
6709200000 0.07780356 -0.040047821 -0.014419629 0.014438218 7.071068e-011 7.071068e-011 7.071068e-011 7.071068e-011
6717600000 -0.031350818 0.031935226 -0.011532531 -0.015607624 7.071068e-011 7.071068e-011 7.071068e-011 7.071068e-011
6726000000 0.15308912 0.11786003 0.016176581 -0.0084288092 7.071068e-011 7.071068e-011 7.071068e-011 7.071068e-011
6734400000 0.13159338 -0.13867627 0.0048043858 0.015930856 7.071068e-011 7.071068e-011 7.071068e-011 7.071068e-011
6742800000 -0.1080759 0.022032769 -0.015918734 0.00090235152 7.071068e-011 7.071068e-011 7.071068e-011 7.071068e-011
6751200000 0.16753186 0.15563194 0.0025595147 -0.015622083 7.071068e-011 7.071068e-011 7.071068e-011 7.071068e-011
6759600000 0.15569453 -0.16889262 0.013635333 0.0062135789 7.071068e-011 7.071068e-011 7.071068e-011 7.071068e-011
6768000000 -0.14685717 -0.011749128 -0.010203886 0.011051939 7.071068e-011 7.071068e-011 7.071068e-011 7.071068e-011
6776400000 0.12880141 0.18182553 -0.0087407464 -0.013006283 7.071068e-011 7.071068e-011 7.071068e-011 7.071068e-011
6784800000 0.15653653 -0.14224593 0.014313181 -0.0047957622 7.071068e-011 7.071068e-011 7.071068e-011 7.071068e-011
6793200000 -0.14660919 -0.014364502 0.00041919731 0.01550718 7.071068e-011 7.071068e-011 7.071068e-011 7.071068e-011
6801600000 0.095094308 0.20566799 -0.015915543 -0.0036154548 7.071068e-011 7.071068e-011 7.071068e-011 7.071068e-011
6810000000 0.17702708 -0.090439498 0.0081134429 -0.014782812 7.071068e-011 7.071068e-011 7.071068e-011 7.071068e-011
6818400000 -0.10298602 -0.017671812 0.012561955 0.012768548 7.071068e-011 7.071068e-011 7.071068e-011 7.071068e-011
6826800000 0.080510683 0.18789291 -0.015651032 0.0096802711 7.071068e-011 7.071068e-011 7.071068e-011 7.071068e-011
6835200000 0.18559173 -0.044454683 -0.004961886 -0.017758045 7.071068e-011 7.071068e-011 7.071068e-011 7.071068e-011
6843600000 -0.042579111 -0.033122655 0.020183781 -0.00018949911 7.071068e-011 7.071068e-011 7.071068e-011 7.071068e-011
6852000000 0.06857004 0.1300924 -0.0042193923 0.020398811 7.071068e-011 7.071068e-011 7.071068e-011 7.071068e-011
6860400000 0.14841333 -0.016581833 -0.018715121 -0.0093495864 7.071068e-011 7.071068e-011 7.071068e-011 7.071068e-011
6868800000 0.0060189599 -0.030150836 0.014382527 -0.016209662 7.071068e-011 7.071068e-011 7.071068e-011 7.071068e-011
6877200000 0.050799113 0.072506711 0.012773113 0.018063631 7.071068e-011 7.071068e-011 7.071068e-011 7.071068e-011
6885600000 0.091922469 0.0087516466 -0.020458154 0.0077560726 7.071068e-011 7.071068e-011 7.071068e-011 7.071068e-011
6894000000 0.047707573 -0.0018147714 -0.0022400809 -0.022044027 7.071068e-011 7.071068e-011 7.071068e-011 7.071068e-011
6902400000 0.038345806 0.01924897 0.021990372 0.0034306902 7.071068e-011 7.071068e-011 7.071068e-011 7.071068e-011
6910800000 0.030911526 0.036217239 -0.0090253567 0.020133806 7.071068e-011 7.071068e-011 7.071068e-011 7.071068e-011
6919200000 0.076601751 0.051495977 -0.016758928 -0.013874309 7.071068e-011 7.071068e-011 7.071068e-011 7.071068e-011
6927600000 0.05359216 -0.01171944 0.017526673 -0.012469138 7.071068e-011 7.071068e-011 7.071068e-011 7.071068e-011
6936000000 -0.0031249251 0.057757612 0.0068579144 0.019700678 7.071068e-011 7.071068e-011 7.071068e-011 7.071068e-011
6944400000 0.10811231 0.093191527 -0.02089107 0.00056941452 7.071068e-011 7.071068e-011 7.071068e-011 7.071068e-011
6952800000 0.090079054 -0.043392301 0.0051158043 -0.019881934 7.071068e-011 7.071068e-011 7.071068e-011 7.071068e-011
6961200000 -0.029102506 0.047641583 0.016999701 0.010565362 7.071068e-011 7.071068e-011 7.071068e-011 7.071068e-011
6969600000 0.11806827 0.11057753 -0.01507492 0.01298707 7.071068e-011 7.071068e-011 7.071068e-011 7.071068e-011
6978000000 0.10986938 -0.066714093 -0.0076710945 -0.017749947 7.071068e-011 7.071068e-011 7.071068e-011 7.071068e-011
6986400000 -0.063917458 0.023357308 0.01883498 -0.0014548994 7.071068e-011 7.071068e-011 7.071068e-011 7.071068e-011
6994800000 0.094537333 0.1378186 -0.0045506503 0.018747622 7.071068e-011 7.071068e-011 7.071068e-011 7.071068e-011
7003200000 0.11714965 -0.051797394 -0.016148994 -0.0098504201 7.071068e-011 7.071068e-011 7.071068e-011 7.071068e-011
7011600000 -0.07138326 0.02139923 0.014810073 -0.011616961 7.071068e-011 7.071068e-011 7.071068e-011 7.071068e-011
7020000000 0.078131162 0.16481595 0.0066933944 0.017793324 7.071068e-011 7.071068e-011 7.071068e-011 7.071068e-011
7028400000 0.13966948 -0.021615854 -0.018635185 0.00062808831 7.071068e-011 7.071068e-011 7.071068e-011 7.071068e-011
7036800000 -0.050955072 0.019801024 0.0057541947 -0.018296812 7.071068e-011 7.071068e-011 7.071068e-011 7.071068e-011
7045200000 0.078934401 0.17308952 0.01570956 0.011043472 7.071068e-011 7.071068e-011 7.071068e-011 7.071068e-011
7053600000 0.17292653 0.0058773127 -0.015574357 0.010864108 7.071068e-011 7.071068e-011 7.071068e-011 7.071068e-011
7062000000 -0.002816072 -0.012587557 -0.0052401922 -0.01898743 7.071068e-011 7.071068e-011 7.071068e-011 7.071068e-011
7070400000 0.068388686 0.14025636 0.019857967 0.00054442778 7.071068e-011 7.071068e-011 7.071068e-011 7.071068e-011
7078800000 0.17133765 0.016018271 -0.0071990397 0.01820137 7.071068e-011 7.071068e-011 7.071068e-011 7.071068e-011
7087200000 0.038722135 -0.032366943 -0.015445571 -0.013050799 7.071068e-011 7.071068e-011 7.071068e-011 7.071068e-011
7095600000 0.052112706 0.087378524 0.017179284 -0.010846587 7.071068e-011 7.071068e-011 7.071068e-011 7.071068e-011
7104000000 0.14883061 0.017373623 0.0045201755 0.019757856 7.071068e-011 7.071068e-011 7.071068e-011 7.071068e-011
7112400000 0.056708008 -0.046479136 -0.020488568 -0.0023493401 7.071068e-011 7.071068e-011 7.071068e-011 7.071068e-011
7120800000 0.030968014 0.028407974 0.0085240658 -0.019013675 7.071068e-011 7.071068e-011 7.071068e-011 7.071068e-011
7129200000 0.089050151 0.018847967 0.014973488 0.013923578 7.071068e-011 7.071068e-011 7.071068e-011 7.071068e-011
7137600000 0.047449842 -0.037984274 -0.018519361 0.0095461002 7.071068e-011 7.071068e-011 7.071068e-011 7.071068e-011
7146000000 -0.00012156508 0.0096422732 -0.0033073053 -0.020746926 7.071068e-011 7.071068e-011 7.071068e-011 7.071068e-011
7154400000 0.028120708 0.041947741 0.020529639 0.003515746 7.071068e-011 7.071068e-011 7.071068e-011 7.071068e-011
7162800000 0.046293095 0.017092422 -0.010107475 0.017910803 7.071068e-011 7.071068e-011 7.071068e-011 7.071068e-011
7171200000 0.0033419447 0.017872617 -0.013766474 -0.015553365 7.071068e-011 7.071068e-011 7.071068e-011 7.071068e-011
7179600000 0.014828634 0.070172399 0.018974863 -0.0078911297 7.071068e-011 7.071068e-011 7.071068e-011 7.071068e-011
7188000000 0.066382132 0.059818231 0.00087137643 0.020813243 7.071068e-011 7.071068e-011 7.071068e-011 7.071068e-011
7196400000 0.043836586 0.010282666 -0.019990327 -0.0058142385 7.071068e-011 7.071068e-011 7.071068e-011 7.071068e-011
7204800000 0.01010133 0.062586486 0.012148434 -0.016334331 7.071068e-011 7.071068e-011 7.071068e-011 7.071068e-011
7213200000 0.079070404 0.071539238 0.011319479 0.01717726 7.071068e-011 7.071068e-011 7.071068e-011 7.071068e-011
7221600000 0.071779095 -0.0027196361 -0.02012169 0.0050962851 7.071068e-011 7.071068e-011 7.071068e-011 7.071068e-011
7230000000 -0.00082560634 0.028758015 0.0019334441 -0.020517321 7.071068e-011 7.071068e-011 7.071068e-011 7.071068e-011
7238400000 0.06498722 0.078641847 0.018658392 0.0091522858 7.071068e-011 7.071068e-011 7.071068e-011 7.071068e-011
7246800000 0.081039496 -0.0094865346 -0.014821179 0.014649823 7.071068e-011 7.071068e-011 7.071068e-011 7.071068e-011
7255200000 -0.012956964 0.00013251539 -0.0084281554 -0.018776679 7.071068e-011 7.071068e-011 7.071068e-011 7.071068e-011
7263600000 0.026958648 0.084021077 0.020767245 -0.00163712 7.071068e-011 7.071068e-011 7.071068e-011 7.071068e-011
7272000000 0.078654587 0.0079709534 -0.0052605891 0.019961432 7.071068e-011 7.071068e-011 7.071068e-011 7.071068e-011
7280400000 -0.023624659 -0.0062645511 -0.016845707 -0.011868145 7.071068e-011 7.071068e-011 7.071068e-011 7.071068e-011
7288800000 -0.0088585224 0.1032729 0.017244695 -0.011484088 7.071068e-011 7.071068e-011 7.071068e-011 7.071068e-011
7297200000 0.084929973 0.059703182 0.0048966613 0.020201616 7.071068e-011 7.071068e-011 7.071068e-011 7.071068e-011
7305600000 0.0085827978 0.0045172358 -0.020468676 -0.0025279508 7.071068e-011 7.071068e-011 7.071068e-011 7.071068e-011
7314000000 -0.0038683787 0.10624785 0.0094531327 -0.018793562 7.071068e-011 7.071068e-011 7.071068e-011 7.071068e-011
7322400000 0.108666 0.085554138 0.014255266 0.015025242 7.071068e-011 7.071068e-011 7.071068e-011 7.071068e-011
7330800000 0.060359724 -0.011685624 -0.01940576 0.0077172355 7.071068e-011 7.071068e-011 7.071068e-011 7.071068e-011
7339200000 0.0040075965 0.060777821 -0.00067877746 -0.021250775 7.071068e-011 7.071068e-011 7.071068e-011 7.071068e-011
7347600000 0.099248953 0.07219249 0.020017631 0.0064811013 7.071068e-011 7.071068e-011 7.071068e-011 7.071068e-011
7356000000 0.07600604 -0.033713982 -0.013118343 0.016229291 7.071068e-011 7.071068e-011 7.071068e-011 7.071068e-011
7364400000 -0.010162273 0.012512898 -0.010842804 -0.018188821 7.071068e-011 7.071068e-011 7.071068e-011 7.071068e-011
7372800000 0.054755028 0.054664515 0.020576751 -0.0039487355 7.071068e-011 7.071068e-011 7.071068e-011 7.071068e-011
7381200000 0.052883469 -0.030897416 -0.0039604125 0.020761361 7.071068e-011 7.071068e-011 7.071068e-011 7.071068e-011
7389600000 -0.040812049 0.00056029251 -0.018244358 -0.010887553 7.071068e-011 7.071068e-011 7.071068e-011 7.071068e-011
7398000000 0.0054424549 0.071980774 0.016552327 -0.013012836 7.071068e-011 7.071068e-011 7.071068e-011 7.071068e-011
7406400000 0.033064239 0.014899698 0.0063752085 0.020208512 7.071068e-011 7.071068e-011 7.071068e-011 7.071068e-011
7414800000 -0.038095292 0.0272223 -0.021334691 -0.0010260432 7.071068e-011 7.071068e-011 7.071068e-011 7.071068e-011
7423200000 -0.0016744878 0.10368272 0.0083539309 -0.019576702 7.071068e-011 7.071068e-011 7.071068e-011 7.071068e-011
7431600000 0.055604175 0.060533192 0.015273472 0.014918556 7.071068e-011 7.071068e-011 7.071068e-011 7.071068e-011
7440000000 0.013252691 0.038453646 -0.01933058 0.0092586977 7.071068e-011 7.071068e-011 7.071068e-011 7.071068e-011
7448400000 0.024171103 0.085572369 -0.0017451517 -0.021123562 7.071068e-011 7.071068e-011 7.071068e-011 7.071068e-011
7456800000 0.077389456 0.055392746 0.020407291 0.0059345616 7.071068e-011 7.071068e-011 7.071068e-011 7.071068e-011
7465200000 0.046179213 0.013927202 -0.012748659 0.017082483 7.071068e-011 7.071068e-011 7.071068e-011 7.071068e-011
7473600000 0.028505849 0.036947627 -0.011431591 -0.017785432 7.071068e-011 7.071068e-011 7.071068e-011 7.071068e-011
7482000000 0.058428977 0.033292308 0.020649455 -0.0040885988 7.071068e-011 7.071068e-011 7.071068e-011 7.071068e-011
7490400000 0.043619446 -0.010916087 -0.0035204187 0.020826401 7.071068e-011 7.071068e-011 7.071068e-011 7.071068e-011
7498800000 -0.00078557298 -0.0014514177 -0.018048879 -0.010634675 7.071068e-011 7.071068e-011 7.071068e-011 7.071068e-011
7507200000 0.00055742246 0.030884257 0.016360097 -0.013065552 7.071068e-011 7.071068e-011 7.071068e-011 7.071068e-011
7515600000 0.020608282 0.015402335 0.0063305395 0.01984017 7.071068e-011 7.071068e-011 7.071068e-011 7.071068e-011
7524000000 -0.021009982 0.0030946105 -0.020661725 -0.0012763083 7.071068e-011 7.071068e-011 7.071068e-011 7.071068e-011
7532400000 -0.034206547 0.060092725 0.0087274611 -0.018713361 7.071068e-011 7.071068e-011 7.071068e-011 7.071068e-011
7540800000 0.02282848 0.073264927 0.014392956 0.014719022 7.071068e-011 7.071068e-011 7.071068e-011 7.071068e-011
7549200000 0.019450055 0.022253674 -0.018564921 0.0077880542 7.071068e-011 7.071068e-011 7.071068e-011 7.071068e-011
7557600000 -0.018425282 0.061104894 -0.00037078574 -0.020248823 7.071068e-011 7.071068e-011 7.071068e-011 7.071068e-011
7566000000 0.047905449 0.083529055 0.018841788 0.0069511519 7.071068e-011 7.071068e-011 7.071068e-011 7.071068e-011
7574400000 0.060889307 0.0078656748 -0.013518387 0.014845567 7.071068e-011 7.071068e-011 7.071068e-011 7.071068e-011
7582800000 -0.0099008726 0.015384966 -0.0088682706 -0.018019972 7.071068e-011 7.071068e-011 7.071068e-011 7.071068e-011
7591200000 0.036659904 0.064410545 0.019753253 -0.0017849666 7.071068e-011 7.071068e-011 7.071068e-011 7.071068e-011
7599600000 0.059259251 -0.015123763 -0.0057196063 0.018660825 7.071068e-011 7.071068e-011 7.071068e-011 7.071068e-011
7608000000 -0.03107265 -0.020560371 -0.015464986 -0.012635173 7.071068e-011 7.071068e-011 7.071068e-011 7.071068e-011
7616400000 -0.014887009 0.056815494 0.01720685 -0.01000609 7.071068e-011 7.071068e-011 7.071068e-011 7.071068e-011
7624800000 0.031493276 0.004953417 0.0026896733 0.019557288 7.071068e-011 7.071068e-011 7.071068e-011 7.071068e-011
7633200000 -0.05272774 -0.0061479909 -0.01911857 -0.0046672565 7.071068e-011 7.071068e-011 7.071068e-011 7.071068e-011
7641600000 -0.038262907 0.086825557 0.011406815 -0.015863234 7.071068e-011 7.071068e-011 7.071068e-011 7.071068e-011
7650000000 0.037729435 0.053111337 0.010470724 0.016594404 7.071068e-011 7.071068e-011 7.071068e-011 7.071068e-011
7658400000 -0.020921243 0.011680463 -0.019532192 0.0037435452 7.071068e-011 7.071068e-011 7.071068e-011 7.071068e-011
7666800000 -0.022819994 0.09587796 0.0034690483 -0.019258218 7.071068e-011 7.071068e-011 7.071068e-011 7.071068e-011
7675200000 0.06969317 0.071657851 0.016144359 0.010763136 7.071068e-011 7.071068e-011 7.071068e-011 7.071068e-011
7683600000 0.031881221 -0.0041424595 -0.016275721 0.011254406 7.071068e-011 7.071068e-011 7.071068e-011 7.071068e-011
7692000000 -0.0052393177 0.047027193 -0.0045488798 -0.01913791 7.071068e-011 7.071068e-011 7.071068e-011 7.071068e-011
7700400000 0.065800674 0.043756749 0.019444538 0.0028431842 7.071068e-011 7.071068e-011 7.071068e-011 7.071068e-011
7708800000 0.035603154 -0.039724492 -0.010002888 0.016927522 7.071068e-011 7.071068e-011 7.071068e-011 7.071068e-011
7717200000 -0.033640876 0.00076493429 -0.012011508 -0.015646363 7.071068e-011 7.071068e-011 7.071068e-011 7.071068e-011
7725600000 0.016897039 0.033808883 0.018997358 -0.0051003196 7.071068e-011 7.071068e-011 7.071068e-011 7.071068e-011
7734000000 0.014068634 -0.03568913 -0.0021600882 0.019753849 7.071068e-011 7.071068e-011 7.071068e-011 7.071068e-011
7742400000 -0.070803262 -0.01225801 -0.017285023 -0.0091774315 7.071068e-011 7.071068e-011 7.071068e-011 7.071068e-011
7750800000 -0.040521007 0.062485233 0.015222874 -0.012540501 7.071068e-011 7.071068e-011 7.071068e-011 7.071068e-011
7759200000 0.0015217282 0.02518555 0.0060217576 0.018885968 7.071068e-011 7.071068e-011 7.071068e-011 7.071068e-011
7767600000 -0.053409178 0.019539833 -0.019770889 -0.0014883194 7.071068e-011 7.071068e-011 7.071068e-011 7.071068e-011
7776000000 -0.03774393 0.090962894 0.0087586604 -0.017612811 7.071068e-011 7.071068e-011 7.071068e-011 7.071068e-011
7784400000 0.031458449 0.068033293 0.013091173 0.014768118 7.071068e-011 7.071068e-011 7.071068e-011 7.071068e-011
7792800000 0.0012367971 0.024774438 -0.018466452 0.0065246411 7.071068e-011 7.071068e-011 7.071068e-011 7.071068e-011
7801200000 -0.0076444629 0.070264965 0.0011072548 -0.01984589 7.071068e-011 7.071068e-011 7.071068e-011 7.071068e-011
7809600000 0.053168133 0.058465458 0.018036352 0.0082274368 7.071068e-011 7.071068e-011 7.071068e-011 7.071068e-011
7818000000 0.035287861 -0.0043597789 -0.014413744 0.01331076 7.071068e-011 7.071068e-011 7.071068e-011 7.071068e-011
7826400000 -0.0055462089 0.020904452 -0.0069756336 -0.018453244 7.071068e-011 7.071068e-011 7.071068e-011 7.071068e-011
7834800000 0.032598551 0.031567529 0.019720422 0.0004520177 7.071068e-011 7.071068e-011 7.071068e-011 7.071068e-011
7843200000 0.025262633 -0.019696739 -0.0078605516 0.018147355 7.071068e-011 7.071068e-011 7.071068e-011 7.071068e-011
7851600000 -0.026790645 -0.0046027629 -0.013853279 -0.014190787 7.071068e-011 7.071068e-011 7.071068e-011 7.071068e-011
7860000000 -0.0041071489 0.030770827 0.018268052 -0.0075603821 7.071068e-011 7.071068e-011 7.071068e-011 7.071068e-011
7868400000 0.010376137 -0.003547495 -7.5097247e-005 0.019721091 7.071068e-011 7.071068e-011 7.071068e-011 7.071068e-011
7876800000 -0.036251046 -0.0038102143 -0.018466951 -0.0074865688 7.071068e-011 7.071068e-011 7.071068e-011 7.071068e-011
7885200000 -0.030530393 0.043503247 0.013673874 -0.014327914 7.071068e-011 7.071068e-011 7.071068e-011 7.071068e-011
7893600000 0.0088508967 0.036130041 0.0079758372 0.017859101 7.071068e-011 7.071068e-011 7.071068e-011 7.071068e-011
7902000000 -0.0083238129 0.0093073398 -0.019644488 0.00037671902 7.071068e-011 7.071068e-011 7.071068e-011 7.071068e-011
7910400000 -0.021396125 0.039065659 0.0069409451 -0.018490179 7.071068e-011 7.071068e-011 7.071068e-011 7.071068e-011
7918800000 0.017111415 0.049001876 0.01432631 0.013217746 7.071068e-011 7.071068e-011 7.071068e-011 7.071068e-011
7927200000 0.028572949 0.0073733362 -0.017656824 0.0081703616 7.071068e-011 7.071068e-011 7.071068e-011 7.071068e-011
7935600000 -0.0080351355 0.0058330847 -0.00082651392 -0.019321404 7.071068e-011 7.071068e-011 7.071068e-011 7.071068e-011
7944000000 0.010991476 0.033221103 0.01813749 0.0066982321 7.071068e-011 7.071068e-011 7.071068e-011 7.071068e-011
7952400000 0.037540741 -0.0056522819 -0.013124616 0.014205351 7.071068e-011 7.071068e-011 7.071068e-011 7.071068e-011
7960800000 -0.015072177 -0.033359505 -0.00825343 -0.01745902 7.071068e-011 7.071068e-011 7.071068e-011 7.071068e-011
7969200000 -0.029180087 0.020838981 0.018999759 -0.0008917494 7.071068e-011 7.071068e-011 7.071068e-011 7.071068e-011
7977600000 0.020032084 0.0068080826 -0.0065489146 0.017877014 7.071068e-011 7.071068e-011 7.071068e-011 7.071068e-011
7986000000 -0.024241701 -0.039755598 -0.014063431 -0.012836505 7.071068e-011 7.071068e-011 7.071068e-011 7.071068e-011
7994400000 -0.065374188 0.024836279 0.017133771 -0.008113578 7.071068e-011 7.071068e-011 7.071068e-011 7.071068e-011
