!Keysight Technologies,N5235B,MY61252044,A.15.00.15
!Date: Friday, January 20, 2023 23:06:21
!Correction: S11(Off) 
!S21(Off) 
!S12(Off) 
!S22(Off) 
!S2P File: Measurements: S11, S21, S12, S22:
# Hz S  RI   R 50
6600000000 0.018636495 -0.17510317 0.015410133 -0.0033663809 7.071068e-011 7.071068e-011 7.071068e-011 7.071068e-011
6608408408.4084 -0.12455289 0.16573063 0.0055370848 0.010734352 7.071068e-011 7.071068e-011 7.071068e-011 7.071068e-011
6616816816.8168 0.30621347 0.092471778 -0.0088394405 0.0038805485 7.071068e-011 7.071068e-011 7.071068e-011 7.071068e-011
6625225225.2252 0.024193825 -0.27296638 -0.0019782837 -0.0092732115 7.071068e-011 7.071068e-011 7.071068e-011 7.071068e-011
6633633633.6336 -0.16541298 0.16169097 0.0093331644 -0.00058514829 7.071068e-011 7.071068e-011 7.071068e-011 7.071068e-011
6642042042.042 0.28991956 0.11285834 -0.0016640926 0.0093621183 7.071068e-011 7.071068e-011 7.071068e-011 7.071068e-011
6650450450.4505 0.038946155 -0.25195074 -0.010818458 -0.0038699168 7.071068e-011 7.071068e-011 7.071068e-011 7.071068e-011
6658858858.8589 -0.14831643 0.13438287 0.0057360707 -0.011628014 7.071068e-011 7.071068e-011 7.071068e-011 7.071068e-011
6667267267.2673 0.22861396 0.1014002 0.012394322 0.0089095887 7.071068e-011 7.071068e-011 7.071068e-011 7.071068e-011
6675675675.6757 0.042684011 -0.15151455 -0.011251659 0.014059791 7.071068e-011 7.071068e-011 7.071068e-011 7.071068e-011
6684084084.0841 -0.044226721 0.084689789 -0.014878208 -0.0130598 7.071068e-011 7.071068e-011 7.071068e-011 7.071068e-011
6692492492.4925 0.10571763 0.047107194 0.014517793 -0.015235239 7.071068e-011 7.071068e-011 7.071068e-011 7.071068e-011
6700900900.9009 0.085999183 0.018535508 0.015096229 0.015114625 7.071068e-011 7.071068e-011 7.071068e-011 7.071068e-011
6709309309.3093 0.077231526 -0.042089369 -0.015292665 0.013450296 7.071068e-011 7.071068e-011 7.071068e-011 7.071068e-011
6717717717.7177 -0.031275406 0.034706634 -0.010510732 -0.016265646 7.071068e-011 7.071068e-011 7.071068e-011 7.071068e-011
6726126126.1261 0.15529455 0.1159083 0.016642246 -0.007450534 7.071068e-011 7.071068e-011 7.071068e-011 7.071068e-011
6734534534.5345 0.12830651 -0.14037089 0.0039005924 0.016150868 7.071068e-011 7.071068e-011 7.071068e-011 7.071068e-011
6742942942.9429 -0.10760799 0.026496807 -0.015918074 5.624539e-005 7.071068e-011 7.071068e-011 7.071068e-011 7.071068e-011
6751351351.3514 0.1713147 0.15269849 0.0032909911 -0.01545265 7.071068e-011 7.071068e-011 7.071068e-011 7.071068e-011
6759759759.7598 0.15085475 -0.1716816 0.013338624 0.0067876577 7.071068e-011 7.071068e-011 7.071068e-011 7.071068e-011
6768168168.1682 -0.14718278 -0.0053863409 -0.010635489 0.010649173 7.071068e-011 7.071068e-011 7.071068e-011 7.071068e-011
6776576576.5766 0.1343759 0.17892706 -0.0082997968 -0.013300113 7.071068e-011 7.071068e-011 7.071068e-011 7.071068e-011
6784984984.985 0.15089504 -0.14635466 0.0144688 -0.0043374579 7.071068e-011 7.071068e-011 7.071068e-011 7.071068e-011
6793393393.3934 -0.14724171 -0.0063441992 -9.3368262e-006 0.015526295 7.071068e-011 7.071068e-011 7.071068e-011 7.071068e-011
6801801801.8018 0.10149741 0.2024124 -0.015806742 -0.0039525367 7.071068e-011 7.071068e-011 7.071068e-011 7.071068e-011
6810210210.2102 0.17237915 -0.094668761 0.0083595766 -0.014617158 7.071068e-011 7.071068e-011 7.071068e-011 7.071068e-011
6818618618.6186 -0.10521792 -0.010629797 0.012425433 0.012969884 7.071068e-011 7.071068e-011 7.071068e-011 7.071068e-011
6827027027.027 0.08767949 0.1857834 -0.015758255 0.0095494958 7.071068e-011 7.071068e-011 7.071068e-011 7.071068e-011
6835435435.4354 0.18172249 -0.049124561 -0.0048673847 -0.017798219 7.071068e-011 7.071068e-011 7.071068e-011 7.071068e-011
6843843843.8438 -0.045752607 -0.027714111 0.020176087 -0.00019074118 7.071068e-011 7.071068e-011 7.071068e-011 7.071068e-011
6852252252.2523 0.075097091 0.12904795 -0.0041329628 0.020397205 7.071068e-011 7.071068e-011 7.071068e-011 7.071068e-011
6860660660.6607 0.14477918 -0.020208947 -0.018809838 -0.0091940332 7.071068e-011 7.071068e-011 7.071068e-011 7.071068e-011
6869069069.0691 0.0044846162 -0.026945731 0.014155941 -0.016404249 7.071068e-011 7.071068e-011 7.071068e-011 7.071068e-011
6877477477.4775 0.053726297 0.072352156 0.013071403 0.017797116 7.071068e-011 7.071068e-011 7.071068e-011 7.071068e-011
6885885885.8859 0.090677999 0.0072310157 -0.020261476 0.0081475424 7.071068e-011 7.071068e-011 7.071068e-011 7.071068e-011
6894294294.2943 0.046954662 -0.0014276726 -0.002777945 -0.02194969 7.071068e-011 7.071068e-011 7.071068e-011 7.071068e-011
6902702702.7027 0.038443256 0.019835787 0.022052106 0.0027669764 7.071068e-011 7.071068e-011 7.071068e-011 7.071068e-011
6911111111.1111 0.030889962 0.03722867 -0.008333764 0.020400126 7.071068e-011 7.071068e-011 7.071068e-011 7.071068e-011
6919519519.5195 0.078258812 0.050301243 -0.017243287 -0.013244024 7.071068e-011 7.071068e-011 7.071068e-011 7.071068e-011
6927927927.9279 0.050884187 -0.012712601 0.016952058 -0.013158058 7.071068e-011 7.071068e-011 7.071068e-011 7.071068e-011
6936336336.3363 -0.0024577116 0.062476911 0.0077137477 0.019298851 7.071068e-011 7.071068e-011 7.071068e-011 7.071068e-011
6944744744.7447 0.11285713 0.089132257 -0.020785436 0.0016199304 7.071068e-011 7.071068e-011 7.071068e-011 7.071068e-011
6953153153.1532 0.083788298 -0.045452602 0.0040312773 -0.020064194 7.071068e-011 7.071068e-011 7.071068e-011 7.071068e-011
6961561561.5616 -0.027854217 0.054480437 0.017528581 0.0095553901 7.071068e-011 7.071068e-011 7.071068e-011 7.071068e-011
6969969969.97 0.12431578 0.10574973 -0.014207548 0.013849398 7.071068e-011 7.071068e-011 7.071068e-011 7.071068e-011
6978378378.3784 0.10191918 -0.070637628 -0.0087608388 -0.017176284 7.071068e-011 7.071068e-011 7.071068e-011 7.071068e-011
6986786786.7868 -0.064267397 0.032554872 0.018673383 -0.0026990531 7.071068e-011 7.071068e-011 7.071068e-011 7.071068e-011
6995195195.1952 0.1031625 0.13416742 -0.0031248934 0.018987648 7.071068e-011 7.071068e-011 7.071068e-011 7.071068e-011
7003603603.6036 0.10887531 -0.058297869 -0.016800556 -0.0085202511 7.071068e-011 7.071068e-011 7.071068e-011 7.071068e-011
7012012012.012 -0.072865456 0.032941271 0.013810907 -0.01278673 7.071068e-011 7.071068e-011 7.071068e-011 7.071068e-011
7020420420.4204 0.088414386 0.16111641 0.0081783822 0.017118862 7.071068e-011 7.071068e-011 7.071068e-011 7.071068e-011
7028828828.8288 0.13218746 -0.028946448 -0.018450815 0.0022431209 7.071068e-011 7.071068e-011 7.071068e-011 7.071068e-011
7037237237.2372 -0.053629827 0.030777551 0.0040023308 -0.01871426 7.071068e-011 7.071068e-011 7.071068e-011 7.071068e-011
7045645645.6456 0.08977998 0.17078127 0.016646411 0.0094271284 7.071068e-011 7.071068e-011 7.071068e-011 7.071068e-011
7054054054.0541 0.16786171 -0.0029781074 -0.014396923 0.012361912 7.071068e-011 7.071068e-011 7.071068e-011 7.071068e-011
7062462462.4625 -0.0084761716 -0.0041980282 -0.0072511947 -0.018307565 7.071068e-011 7.071068e-011 7.071068e-011 7.071068e-011
7070870870.8709 0.078565896 0.14071907 0.019728439 -0.0016497509 7.071068e-011 7.071068e-011 7.071068e-011 7.071068e-011
7079279279.2793 0.16826254 0.0069031799 -0.0051054657 0.018904148 7.071068e-011 7.071068e-011 7.071068e-011 7.071068e-011
7087687687.6877 0.032359052 -0.026595956 -0.016887326 -0.011082171 7.071068e-011 7.071068e-011 7.071068e-011 7.071068e-011
7096096096.0961 0.059835382 0.089054182 0.015629612 -0.012827746 7.071068e-011 7.071068e-011 7.071068e-011 7.071068e-011
7104504504.5045 0.14740527 0.010426643 0.0069598383 0.018958196 7.071068e-011 7.071068e-011 7.071068e-011 7.071068e-011
7112912912.9129 0.051257093 -0.044618051 -0.020605706 0.00034872157 7.071068e-011 7.071068e-011 7.071068e-011 7.071068e-011
7121321321.3213 0.033943459 0.031839143 0.0058530294 -0.019945588 7.071068e-011 7.071068e-011 7.071068e-011 7.071068e-011
7129729729.7297 0.089769192 0.014643908 0.016693356 0.011698818 7.071068e-011 7.071068e-011 7.071068e-011 7.071068e-011
7138138138.1381 0.042985365 -0.038099151 -0.016905753 0.012081343 7.071068e-011 7.071068e-011 7.071068e-011 7.071068e-011
7146546546.5465 -0.00025209619 0.014025597 -0.006309377 -0.019965935 7.071068e-011 7.071068e-011 7.071068e-011 7.071068e-011
7154954954.955 0.030556621 0.040943153 0.02079227 0.00036544405 7.071068e-011 7.071068e-011 7.071068e-011 7.071068e-011
7163363363.3634 0.044875275 0.016044512 -0.0071999962 0.019246895 7.071068e-011 7.071068e-011 7.071068e-011 7.071068e-011
7171771771.7718 0.0013882767 0.020027511 -0.016031444 -0.013090343 7.071068e-011 7.071068e-011 7.071068e-011 7.071068e-011
7180180180.1802 0.018125515 0.072693095 0.017344208 -0.010781588 7.071068e-011 7.071068e-011 7.071068e-011 7.071068e-011
7188588588.5886 0.068214618 0.056078132 0.0043373583 0.020311814 7.071068e-011 7.071068e-011 7.071068e-011 7.071068e-011
7196996996.997 0.039361086 0.010020911 -0.02062992 -0.0022795026 7.071068e-011 7.071068e-011 7.071068e-011 7.071068e-011
7205405405.4054 0.012798657 0.067360602 0.0091321226 -0.018187298 7.071068e-011 7.071068e-011 7.071068e-011 7.071068e-011
7213813813.8138 0.082829438 0.066904187 0.014179766 0.014861525 7.071068e-011 7.071068e-011 7.071068e-011 7.071068e-011
7222222222.2222 0.066452153 -0.0051441742 -0.018774973 0.0086552873 7.071068e-011 7.071068e-011 7.071068e-011 7.071068e-011
7230630630.6306 -0.001398063 0.034788273 -0.001917289 -0.02043039 7.071068e-011 7.071068e-011 7.071068e-011 7.071068e-011
7239039039.039 0.071481079 0.075939097 0.020052807 0.0053672222 7.071068e-011 7.071068e-011 7.071068e-011 7.071068e-011
7247447447.4474 0.075457782 -0.015126001 -0.011590336 0.017222844 7.071068e-011 7.071068e-011 7.071068e-011 7.071068e-011
7255855855.8559 -0.016968463 0.0075832633 -0.011960728 -0.016707776 7.071068e-011 7.071068e-011 7.071068e-011 7.071068e-011
7264264264.2643 0.035329632 0.083977289 0.019955188 -0.0057890681 7.071068e-011 7.071068e-011 7.071068e-011 7.071068e-011
7272672672.6727 0.073905639 0.00054945261 -0.0010560404 0.020536611 7.071068e-011 7.071068e-011 7.071068e-011 7.071068e-011
7281081081.0811 -0.029465068 0.0010306388 -0.018892201 -0.0080185607 7.071068e-011 7.071068e-011 7.071068e-011 7.071068e-011
7289489489.4895 -0.00029970161 0.10728142 0.014345472 -0.01493817 7.071068e-011 7.071068e-011 7.071068e-011 7.071068e-011
7297897897.8979 0.085133508 0.051029392 0.0092317257 0.018601498 7.071068e-011 7.071068e-011 7.071068e-011 7.071068e-011
7306306306.3063 0.0010502198 0.0084235556 -0.020513874 0.0020689422 7.071068e-011 7.071068e-011 7.071068e-011 7.071068e-011
7314714714.7147 0.0039904984 0.11324471 0.0048997635 -0.020378707 7.071068e-011 7.071068e-011 7.071068e-011 7.071068e-011
7323123123.1231 0.11295952 0.074989259 0.01723926 0.011304053 7.071068e-011 7.071068e-011 7.071068e-011 7.071068e-011
7331531531.5315 0.050846748 -0.01159975 -0.017012382 0.012079529 7.071068e-011 7.071068e-011 7.071068e-011 7.071068e-011
7339939939.9399 0.0083369212 0.068611704 -0.0057685887 -0.020387087 7.071068e-011 7.071068e-011 7.071068e-011 7.071068e-011
7348348348.3483 0.10512003 0.063547626 0.020931158 0.0014569483 7.071068e-011 7.071068e-011 7.071068e-011 7.071068e-011
7356756756.7568 0.066453092 -0.036717426 -0.0087649543 0.018979037 7.071068e-011 7.071068e-011 7.071068e-011 7.071068e-011
7365165165.1652 -0.010459545 0.02050329 -0.015082963 -0.01483665 7.071068e-011 7.071068e-011 7.071068e-011 7.071068e-011
7373573573.5736 0.061652623 0.050275281 0.018789656 -0.0090113133 7.071068e-011 7.071068e-011 7.071068e-011 7.071068e-011
7381981981.982 0.04397976 -0.035860404 0.0015785123 0.021055609 7.071068e-011 7.071068e-011 7.071068e-011 7.071068e-011
7390390390.3904 -0.043276668 0.010095675 -0.020434443 -0.0056593814 7.071068e-011 7.071068e-011 7.071068e-011 7.071068e-011
7398798798.7988 0.013291912 0.070916042 0.012467213 -0.016959049 7.071068e-011 7.071068e-011 7.071068e-011 7.071068e-011
7407207207.2072 0.027547128 0.0099590179 0.011578715 0.017682511 7.071068e-011 7.071068e-011 7.071068e-011 7.071068e-011
7415615615.6156 -0.040524803 0.035392225 -0.020730289 0.0048613157 7.071068e-011 7.071068e-011 7.071068e-011 7.071068e-011
7424024024.024 0.006397977 0.10482499 0.0025706748 -0.021071302 7.071068e-011 7.071068e-011 7.071068e-011 7.071068e-011
7432432432.4324 0.055021737 0.054461405 0.018892149 0.0099656852 7.071068e-011 7.071068e-011 7.071068e-011 7.071068e-011
7440840840.8408 0.0096149258 0.041917052 -0.015783697 0.014415132 7.071068e-011 7.071068e-011 7.071068e-011 7.071068e-011
7449249249.2492 0.030304182 0.087582983 -0.0077955127 -0.019665096 7.071068e-011 7.071068e-011 7.071068e-011 7.071068e-011
7457657657.6577 0.078051783 0.048542913 0.021220317 -0.00034500696 7.071068e-011 7.071068e-011 7.071068e-011 7.071068e-011
7466066066.0661 0.041510303 0.014417324 -0.0070167221 0.020075211 7.071068e-011 7.071068e-011 7.071068e-011 7.071068e-011
7474474474.4745 0.030831246 0.039099522 -0.016226353 -0.013413733 7.071068e-011 7.071068e-011 7.071068e-011 7.071068e-011
7482882882.8829 0.059482072 0.029149408 0.018353201 -0.010215811 7.071068e-011 7.071068e-011 7.071068e-011 7.071068e-011
7491291291.2913 0.039291386 -0.013248761 0.0031254927 0.020811979 7.071068e-011 7.071068e-011 7.071068e-011 7.071068e-011
7499699699.6997 -0.0036543268 0.0020917177 -0.020429205 -0.0044398326 7.071068e-011 7.071068e-011 7.071068e-011 7.071068e-011
7508108108.1081 0.0035163974 0.032357819 0.011325406 -0.0175546 7.071068e-011 7.071068e-011 7.071068e-011 7.071068e-011
7516516516.5165 0.019302685 0.011472038 0.012370708 0.016684111 7.071068e-011 7.071068e-011 7.071068e-011 7.071068e-011
7524924924.9249 -0.026436079 0.0070610731 -0.019875547 0.0055446229 7.071068e-011 7.071068e-011 7.071068e-011 7.071068e-011
7533333333.3333 -0.029636763 0.06558305 0.0020426125 -0.020521663 7.071068e-011 7.071068e-011 7.071068e-011 7.071068e-011
7541741741.7417 0.027557513 0.069157705 0.018435348 0.009020268 7.071068e-011 7.071068e-011 7.071068e-011 7.071068e-011
7550150150.1502 0.013361751 0.020483309 -0.014861115 0.013547129 7.071068e-011 7.071068e-011 7.071068e-011 7.071068e-011
7558558558.5586 -0.01568763 0.068368062 -0.0072765099 -0.018825196 7.071068e-011 7.071068e-011 7.071068e-011 7.071068e-011
7566966966.967 0.055897109 0.07834518 0.01995676 2.2378252e-005 7.071068e-011 7.071068e-011 7.071068e-011 7.071068e-011
7575375375.3754 0.053371321 0.00058640342 -0.0074689114 0.018591851 7.071068e-011 7.071068e-011 7.071068e-011 7.071068e-011
7583783783.7838 -0.011779307 0.024437767 -0.014681655 -0.013720068 7.071068e-011 7.071068e-011 7.071068e-011 7.071068e-011
7592192192.1922 0.04550463 0.060192123 0.017780585 -0.0087060621 7.071068e-011 7.071068e-011 7.071068e-011 7.071068e-011
7600600600.6006 0.051608235 -0.023959339 0.0013187611 0.01942743 7.071068e-011 7.071068e-011 7.071068e-011 7.071068e-011
7609009009.009 -0.037648384 -0.01108245 -0.018998753 -0.0060831588 7.071068e-011 7.071068e-011 7.071068e-011 7.071068e-011
7617417417.4174 -0.005582008 0.05826823 0.01222438 -0.015585443 7.071068e-011 7.071068e-011 7.071068e-011 7.071068e-011
7625825825.8258 0.026834477 -0.0040522679 0.0098155625 0.017122013 7.071068e-011 7.071068e-011 7.071068e-011 7.071068e-011
7634234234.2342 -0.060978938 0.0037978138 -0.019422658 0.0028917042 7.071068e-011 7.071068e-011 7.071068e-011 7.071068e-011
7642642642.6426 -0.026380925 0.09191858 0.0045400709 -0.018951336 7.071068e-011 7.071068e-011 7.071068e-011 7.071068e-011
7651051051.0511 0.037436299 0.04217919 0.015966516 0.011317878 7.071068e-011 7.071068e-011 7.071068e-011 7.071068e-011
7659459459.4595 -0.029840885 0.018455796 -0.016498886 0.011012056 7.071068e-011 7.071068e-011 7.071068e-011 7.071068e-011
7667867867.8679 -0.011393133 0.10210335 -0.0043207924 -0.018995058 7.071068e-011 7.071068e-011 7.071068e-011 7.071068e-011
7676276276.2763 0.073486358 0.059267614 0.019154968 0.0035104349 7.071068e-011 7.071068e-011 7.071068e-011 7.071068e-011
7684684684.6847 0.021899013 -0.0040376736 -0.010351936 0.016840735 7.071068e-011 7.071068e-011 7.071068e-011 7.071068e-011
7693093093.0931 0.00017440604 0.054307848 -0.011837757 -0.015646903 7.071068e-011 7.071068e-011 7.071068e-011 7.071068e-011
7701501501.5015 0.071464241 0.032794539 0.018845405 -0.0052746078 7.071068e-011 7.071068e-011 7.071068e-011 7.071068e-011
7709909909.9099 0.023093088 -0.042783026 -0.0021483868 0.019509297 7.071068e-011 7.071068e-011 7.071068e-011 7.071068e-011
7718318318.3183 -0.033028994 0.011156261 -0.017383235 -0.0091684107 7.071068e-011 7.071068e-011 7.071068e-011 7.071068e-011
7726726726.7267 0.024374146 0.027508998 0.015128465 -0.0125592 7.071068e-011 7.071068e-011 7.071068e-011 7.071068e-011
7735135135.1351 0.0027414649 -0.04097433 0.0063572503 0.018783223 7.071068e-011 7.071068e-011 7.071068e-011 7.071068e-011
7743543543.5435 -0.074698754 -0.00046674925 -0.019532407 -0.00099915802 7.071068e-011 7.071068e-011 7.071068e-011 7.071068e-011
7751951951.952 -0.030849665 0.064370885 0.0082878135 -0.017867774 7.071068e-011 7.071068e-011 7.071068e-011 7.071068e-011
7760360360.3604 -0.00216445 0.017606301 0.013583565 0.01430764 7.071068e-011 7.071068e-011 7.071068e-011 7.071068e-011
7768768768.7688 -0.058695171 0.028120879 -0.018364331 0.0073159919 7.071068e-011 7.071068e-011 7.071068e-011 7.071068e-011
7777177177.1772 -0.026991606 0.095874578 0.00010722179 -0.019667776 7.071068e-011 7.071068e-011 7.071068e-011 7.071068e-011
7785585585.5856 0.033693466 0.057681322 0.018252911 0.0073609389 7.071068e-011 7.071068e-011 7.071068e-011 7.071068e-011
7793993993.994 -0.0054918262 0.028141042 -0.013542925 0.013975977 7.071068e-011 7.071068e-011 7.071068e-011 7.071068e-011
7802402402.4024 -0.00037950557 0.07453388 -0.0079850238 -0.018147988 7.071068e-011 7.071068e-011 7.071068e-011 7.071068e-011
7810810810.8108 0.057743371 0.049196344 0.019719403 -0.00091393117 7.071068e-011 7.071068e-011 7.071068e-011 7.071068e-011
7819219219.2192 0.026442703 -0.0065003959 -0.0066925813 0.018471695 7.071068e-011 7.071068e-011 7.071068e-011 7.071068e-011
7827627627.6276 -0.0040608407 0.026691895 -0.014712246 -0.013079949 7.071068e-011 7.071068e-011 7.071068e-011 7.071068e-011
7836036036.036 0.03782241 0.026057063 0.01759675 -0.0087719895 7.071068e-011 7.071068e-011 7.071068e-011 7.071068e-011
7844444444.4444 0.016324315 -0.024116917 0.0016084355 0.019632133 7.071068e-011 7.071068e-011 7.071068e-011 7.071068e-011
7852852852.8529 -0.028164016 0.0033496385 -0.018884696 -0.0058697662 7.071068e-011 7.071068e-011 7.071068e-011 7.071068e-011
7861261261.2613 0.001683117 0.029138142 0.01236478 -0.015302308 7.071068e-011 7.071068e-011 7.071068e-011 7.071068e-011
7869669669.6697 0.0053401752 -0.0088761644 0.009401042 0.017288201 7.071068e-011 7.071068e-011 7.071068e-011 7.071068e-011
7878078078.0781 -0.040074185 0.0031110845 -0.019704487 0.0024251386 7.071068e-011 7.071068e-011 7.071068e-011 7.071068e-011
7886486486.4865 -0.024825098 0.047010329 0.0049204803 -0.019099789 7.071068e-011 7.071068e-011 7.071068e-011 7.071068e-011
7894894894.8949 0.011306978 0.03040651 0.015665466 0.011591907 7.071068e-011 7.071068e-011 7.071068e-011 7.071068e-011
7903303303.3033 -0.013808527 0.010868574 -0.016813684 0.010095723 7.071068e-011 7.071068e-011 7.071068e-011 7.071068e-011
7911711711.7117 -0.01762208 0.044221986 -0.0032480268 -0.019362662 7.071068e-011 7.071068e-011 7.071068e-011 7.071068e-011
7920120120.1201 0.02296108 0.044575129 0.018950406 0.0042380393 7.071068e-011 7.071068e-011 7.071068e-011 7.071068e-011
7928528528.5285 0.023604011 0.0023277421 -0.011029578 0.015951417 7.071068e-011 7.071068e-011 7.071068e-011 7.071068e-011
7936936936.9369 -0.0097706942 0.010813687 -0.010513498 -0.016082022 7.071068e-011 7.071068e-011 7.071068e-011 7.071068e-011
7945345345.3453 0.01748208 0.032328781 0.018884638 -0.0035335401 7.071068e-011 7.071068e-011 7.071068e-011 7.071068e-011
