!Keysight Technologies,N5235B,MY61252044,A.15.00.15
!Date: Friday, January 20, 2023 18:29:12
!Correction: S11(Off) 
!S21(Off) 
!S12(Off) 
!S22(Off) 
!S2P File: Measurements: S11, S21, S12, S22:
# Hz S  RI   R 50
6600000000 0.016421773 -0.17421286 0.014916253 -0.0052226335 7.071068e-011 7.071068e-011 7.071068e-011 7.071068e-011
6608400000 -0.12311591 0.16707717 0.0067899828 0.010015154 7.071068e-011 7.071068e-011 7.071068e-011 7.071068e-011
6616800000 0.30710319 0.09097565 -0.0083378721 0.0048811603 7.071068e-011 7.071068e-011 7.071068e-011 7.071068e-011
6625200000 0.022892121 -0.27294651 -0.002996092 -0.0090008508 7.071068e-011 7.071068e-011 7.071068e-011 7.071068e-011
6633600000 -0.16539384 0.16216388 0.0092112683 -0.0015921514 7.071068e-011 7.071068e-011 7.071068e-011 7.071068e-011
6642000000 0.29067016 0.11331098 -0.00067549828 0.0094591994 7.071068e-011 7.071068e-011 7.071068e-011 7.071068e-011
6650400000 0.03900611 -0.25280356 -0.01112469 -0.0027897877 7.071068e-011 7.071068e-011 7.071068e-011 7.071068e-011
6658800000 -0.14889447 0.13400242 0.004608464 -0.012106663 7.071068e-011 7.071068e-011 7.071068e-011 7.071068e-011
6667200000 0.22839327 0.10303776 0.013095557 0.0077323192 7.071068e-011 7.071068e-011 7.071068e-011 7.071068e-011
6675600000 0.04400916 -0.1528306 -0.010038605 0.014902375 7.071068e-011 7.071068e-011 7.071068e-011 7.071068e-011
6684000000 -0.04533105 0.084449381 -0.015870173 -0.011850896 7.071068e-011 7.071068e-011 7.071068e-011 7.071068e-011
6692400000 0.10567544 0.0484332 0.013283191 -0.016283875 7.071068e-011 7.071068e-011 7.071068e-011 7.071068e-011
6700800000 0.086014412 0.016993998 0.016079107 0.014006414 7.071068e-011 7.071068e-011 7.071068e-011 7.071068e-011
6709200000 0.077667922 -0.039984249 -0.014431465 0.014437352 7.071068e-011 7.071068e-011 7.071068e-011 7.071068e-011
6717600000 -0.03122407 0.03205727 -0.011536506 -0.01561331 7.071068e-011 7.071068e-011 7.071068e-011 7.071068e-011
6726000000 0.15316971 0.11767333 0.016183818 -0.0084350146 7.071068e-011 7.071068e-011 7.071068e-011 7.071068e-011
6734400000 0.13138667 -0.13872311 0.0048152795 0.015934356 7.071068e-011 7.071068e-011 7.071068e-011 7.071068e-011
6742800000 -0.10803662 0.022266662 -0.0159273 0.00090264069 7.071068e-011 7.071068e-011 7.071068e-011 7.071068e-011
6751200000 0.16773862 0.15545473 0.0025615578 -0.015623375 7.071068e-011 7.071068e-011 7.071068e-011 7.071068e-011
6759600000 0.1554275 -0.16900311 0.013643774 0.0062128878 7.071068e-011 7.071068e-011 7.071068e-011 7.071068e-011
6768000000 -0.14687407 -0.01147688 -0.010198608 0.011060644 7.071068e-011 7.071068e-011 7.071068e-011 7.071068e-011
6776400000 0.12906228 0.18171242 -0.0087558245 -0.013010308 7.071068e-011 7.071068e-011 7.071068e-011 7.071068e-011
6784800000 0.15632045 -0.14244607 0.014316563 -0.0048010624 7.071068e-011 7.071068e-011 7.071068e-011 7.071068e-011
6793200000 -0.14667302 -0.014088911 0.00042266262 0.015511135 7.071068e-011 7.071068e-011 7.071068e-011 7.071068e-011
6801600000 0.095350787 0.2056025 -0.015920121 -0.0036113635 7.071068e-011 7.071068e-011 7.071068e-011 7.071068e-011
6810000000 0.17686865 -0.090654135 0.008104003 -0.014795998 7.071068e-011 7.071068e-011 7.071068e-011 7.071068e-011
6818400000 -0.10310435 -0.017453915 0.012578029 0.012769945 7.071068e-011 7.071068e-011 7.071068e-011 7.071068e-011
6826800000 0.08073803 0.18788031 -0.015653701 0.0096814437 7.071068e-011 7.071068e-011 7.071068e-011 7.071068e-011
6835200000 0.18548875 -0.044637769 -0.0049716132 -0.017761106 7.071068e-011 7.071068e-011 7.071068e-011 7.071068e-011
6843600000 -0.042718194 -0.032995731 0.020187426 -0.00019604294 7.071068e-011 7.071068e-011 7.071068e-011 7.071068e-011
6852000000 0.0687268 0.13014254 -0.004209565 0.020402966 7.071068e-011 7.071068e-011 7.071068e-011 7.071068e-011
6860400000 0.14838776 -0.016740046 -0.018724844 -0.009350853 7.071068e-011 7.071068e-011 7.071068e-011 7.071068e-011
6868800000 0.0059121745 -0.030104194 0.014386157 -0.016216166 7.071068e-011 7.071068e-011 7.071068e-011 7.071068e-011
6877200000 0.05087088 0.072574109 0.012785474 0.018062981 7.071068e-011 7.071068e-011 7.071068e-011 7.071068e-011
6885600000 0.091960825 0.0086578485 -0.020456742 0.0077671097 7.071068e-011 7.071068e-011 7.071068e-011 7.071068e-011
6894000000 0.047630776 -0.0018381337 -0.0022512546 -0.022050584 7.071068e-011 7.071068e-011 7.071068e-011 7.071068e-011
6902400000 0.038340162 0.019295368 0.021997927 0.003421155 7.071068e-011 7.071068e-011 7.071068e-011 7.071068e-011
6910800000 0.030977046 0.036219008 -0.0090269344 0.0201465 7.071068e-011 7.071068e-011 7.071068e-011 7.071068e-011
6919200000 0.076589063 0.051414866 -0.016777828 -0.013879141 7.071068e-011 7.071068e-011 7.071068e-011 7.071068e-011
6927600000 0.053530425 -0.011702162 0.01752509 -0.012481184 7.071068e-011 7.071068e-011 7.071068e-011 7.071068e-011
6936000000 -0.0030690643 0.057836909 0.0068668942 0.019706339 7.071068e-011 7.071068e-011 7.071068e-011 7.071068e-011
6944400000 0.10816642 0.093085729 -0.020898752 0.00057588151 7.071068e-011 7.071068e-011 7.071068e-011 7.071068e-011
6952800000 0.089961685 -0.043418974 0.0051100696 -0.019893672 7.071068e-011 7.071068e-011 7.071068e-011 7.071068e-011
6961200000 -0.029062929 0.047774822 0.017013308 0.010561964 7.071068e-011 7.071068e-011 7.071068e-011 7.071068e-011
6969600000 0.11817726 0.11047482 -0.015075621 0.013001706 7.071068e-011 7.071068e-011 7.071068e-011 7.071068e-011
6978000000 0.10973192 -0.066799402 -0.0076910425 -0.017752394 7.071068e-011 7.071068e-011 7.071068e-011 7.071068e-011
6986400000 -0.063925073 0.023539916 0.01884052 -0.0014644439 7.071068e-011 7.071068e-011 7.071068e-011 7.071068e-011
6994800000 0.094690822 0.13773544 -0.0045443727 0.018755475 7.071068e-011 7.071068e-011 7.071068e-011 7.071068e-011
7003200000 0.1170222 -0.051919054 -0.016159665 -0.0098465374 7.071068e-011 7.071068e-011 7.071068e-011 7.071068e-011
7011600000 -0.071429893 0.021586122 0.014805146 -0.011626481 7.071068e-011 7.071068e-011 7.071068e-011 7.071068e-011
7020000000 0.078309238 0.16477029 0.0067032087 0.017798863 7.071068e-011 7.071068e-011 7.071068e-011 7.071068e-011
7028400000 0.13955978 -0.0217594 -0.018640133 0.00063371734 7.071068e-011 7.071068e-011 7.071068e-011 7.071068e-011
7036800000 -0.0510322 0.019964935 0.0057488796 -0.018307265 7.071068e-011 7.071068e-011 7.071068e-011 7.071068e-011
7045200000 0.079101592 0.17307168 0.015713925 0.011037087 7.071068e-011 7.071068e-011 7.071068e-011 7.071068e-011
7053600000 0.17285143 0.0057129283 -0.015575853 0.010878091 7.071068e-011 7.071068e-011 7.071068e-011 7.071068e-011
7062000000 -0.0029341369 -0.012465975 -0.0052508106 -0.018985899 7.071068e-011 7.071068e-011 7.071068e-011 7.071068e-011
7070400000 0.068535775 0.14028847 0.019858709 0.00054338831 7.071068e-011 7.071068e-011 7.071068e-011 7.071068e-011
7078800000 0.17131262 0.015866354 -0.0071923747 0.018208643 7.071068e-011 7.071068e-011 7.071068e-011 7.071068e-011
7087200000 0.038597684 -0.032308076 -0.015463984 -0.013047592 7.071068e-011 7.071068e-011 7.071068e-011 7.071068e-011
7095600000 0.052228607 0.087452918 0.017175632 -0.010864767 7.071068e-011 7.071068e-011 7.071068e-011 7.071068e-011
7104000000 0.14886346 0.017261421 0.0045323125 0.019758396 7.071068e-011 7.071068e-011 7.071068e-011 7.071068e-011
7112400000 0.056603692 -0.046474777 -0.020494236 -0.0023464812 7.071068e-011 7.071068e-011 7.071068e-011 7.071068e-011
7120800000 0.031015497 0.028495837 0.0085165873 -0.019024713 7.071068e-011 7.071068e-011 7.071068e-011 7.071068e-011
7129200000 0.089105263 0.018771531 0.014985193 0.013916562 7.071068e-011 7.071068e-011 7.071068e-011 7.071068e-011
7137600000 0.04738462 -0.038007304 -0.018514626 0.0095659941 7.071068e-011 7.071068e-011 7.071068e-011 7.071068e-011
7146000000 -0.00014250411 0.009722759 -0.0033147093 -0.020749681 7.071068e-011 7.071068e-011 7.071068e-011 7.071068e-011
7154400000 0.028204035 0.041918639 0.020537982 0.0035142461 7.071068e-011 7.071068e-011 7.071068e-011 7.071068e-011
7162800000 0.046267666 0.017034639 -0.010100316 0.017926807 7.071068e-011 7.071068e-011 7.071068e-011 7.071068e-011
7171200000 0.0032942132 0.017909858 -0.013787321 -0.015544088 7.071068e-011 7.071068e-011 7.071068e-011 7.071068e-011
7179600000 0.014893263 0.070209429 0.0189784 -0.0079020197 7.071068e-011 7.071068e-011 7.071068e-011 7.071068e-011
7188000000 0.066394411 0.059738249 0.00088065054 0.020820774 7.071068e-011 7.071068e-011 7.071068e-011 7.071068e-011
7196400000 0.043759618 0.010302304 -0.020003369 -0.005804088 7.071068e-011 7.071068e-011 7.071068e-011 7.071068e-011
7204800000 0.010125494 0.062642537 0.012147776 -0.016345059 7.071068e-011 7.071068e-011 7.071068e-011 7.071068e-011
7213200000 0.079142883 0.071479559 0.011339954 0.017174132 7.071068e-011 7.071068e-011 7.071068e-011 7.071068e-011
7221600000 0.071684666 -0.002742148 -0.020123707 0.0051093623 7.071068e-011 7.071068e-011 7.071068e-011 7.071068e-011
7230000000 -0.00081222685 0.028838973 0.0019250892 -0.020524468 7.071068e-011 7.071068e-011 7.071068e-011 7.071068e-011
7238400000 0.065069348 0.078616694 0.01867293 0.0091486508 7.071068e-011 7.071068e-011 7.071068e-011 7.071068e-011
7246800000 0.080968365 -0.0095631219 -0.014818537 0.014662842 7.071068e-011 7.071068e-011 7.071068e-011 7.071068e-011
7255200000 -0.012991132 0.00023844732 -0.0084514441 -0.018779624 7.071068e-011 7.071068e-011 7.071068e-011 7.071068e-011
7263600000 0.027061624 0.084009849 0.020774961 -0.0016535108 7.071068e-011 7.071068e-011 7.071068e-011 7.071068e-011
7272000000 0.078610681 0.0078803366 -0.005251857 0.019975115 7.071068e-011 7.071068e-011 7.071068e-011 7.071068e-011
7280400000 -0.023708541 -0.0061985613 -0.016862674 -0.01186501 7.071068e-011 7.071068e-011 7.071068e-011 7.071068e-011
7288800000 -0.0087437369 0.10332689 0.01724581 -0.011499487 7.071068e-011 7.071068e-011 7.071068e-011 7.071068e-011
7297200000 0.084931239 0.059586283 0.0049216026 0.020201769 7.071068e-011 7.071068e-011 7.071068e-011 7.071068e-011
7305600000 0.0084863892 0.0045528919 -0.02047555 -0.0025149481 7.071068e-011 7.071068e-011 7.071068e-011 7.071068e-011
7314000000 -0.0038017875 0.10633633 0.0094422344 -0.018801905 7.071068e-011 7.071068e-011 7.071068e-011 7.071068e-011
7322400000 0.10872617 0.085445143 0.014269029 0.015023915 7.071068e-011 7.071068e-011 7.071068e-011 7.071068e-011
7330800000 0.060243163 -0.011682247 -0.019406671 0.0077354475 7.071068e-011 7.071068e-011 7.071068e-011 7.071068e-011
7339200000 0.0040581892 0.060869146 -0.00069333491 -0.021254364 7.071068e-011 7.071068e-011 7.071068e-011 7.071068e-011
7347600000 0.099325538 0.072126485 0.0200266 0.0064729447 7.071068e-011 7.071068e-011 7.071068e-011 7.071068e-011
7356000000 0.075902514 -0.033762258 -0.013112192 0.016242074 7.071068e-011 7.071068e-011 7.071068e-011 7.071068e-011
7364400000 -0.010158796 0.012625741 -0.010861072 -0.018188156 7.071068e-011 7.071068e-011 7.071068e-011 7.071068e-011
7372800000 0.054854337 0.054624449 0.020582169 -0.0039674276 7.071068e-011 7.071068e-011 7.071068e-011 7.071068e-011
7381200000 0.052822579 -0.030964624 -0.0039474657 0.020775363 7.071068e-011 7.071068e-011 7.071068e-011 7.071068e-011
7389600000 -0.040852625 0.000655159 -0.018258952 -0.01087871 7.071068e-011 7.071068e-011 7.071068e-011 7.071068e-011
7398000000 0.0055494579 0.071981207 0.016546845 -0.013035856 7.071068e-011 7.071068e-011 7.071068e-011 7.071068e-011
7406400000 0.033029292 0.014822735 0.0063927928 0.020209288 7.071068e-011 7.071068e-011 7.071068e-011 7.071068e-011
7414800000 -0.038153563 0.027278962 -0.021347361 -0.0010159333 7.071068e-011 7.071068e-011 7.071068e-011 7.071068e-011
7423200000 -0.0016002578 0.10371062 0.0083420072 -0.019593798 7.071068e-011 7.071068e-011 7.071068e-011 7.071068e-011
7431600000 0.055596881 0.06046332 0.015281874 0.014908982 7.071068e-011 7.071068e-011 7.071068e-011 7.071068e-011
7440000000 0.013180929 0.038490526 -0.019331675 0.0092739658 7.071068e-011 7.071068e-011 7.071068e-011 7.071068e-011
7448400000 0.024219265 0.08561334 -0.0017640248 -0.021133631 7.071068e-011 7.071068e-011 7.071068e-011 7.071068e-011
7456800000 0.077425435 0.055342324 0.020419015 0.0059207869 7.071068e-011 7.071068e-011 7.071068e-011 7.071068e-011
7465200000 0.046103615 0.013916098 -0.012741602 0.017092265 7.071068e-011 7.071068e-011 7.071068e-011 7.071068e-011
7473600000 0.028539812 0.036997661 -0.011445643 -0.017781932 7.071068e-011 7.071068e-011 7.071068e-011 7.071068e-011
7482000000 0.058466371 0.033267573 0.020649904 -0.0041032252 7.071068e-011 7.071068e-011 7.071068e-011 7.071068e-011
7490400000 0.043572932 -0.010957373 -0.0035072609 0.020831192 7.071068e-011 7.071068e-011 7.071068e-011 7.071068e-011
7498800000 -0.00080275355 -0.0013941141 -0.018060636 -0.010619671 7.071068e-011 7.071068e-011 7.071068e-011 7.071068e-011
7507200000 0.0006108266 0.030880982 0.016353197 -0.013077161 7.071068e-011 7.071068e-011 7.071068e-011 7.071068e-011
7515600000 0.020605935 0.015346874 0.0063424399 0.019842938 7.071068e-011 7.071068e-011 7.071068e-011 7.071068e-011
7524000000 -0.021057291 0.0031257307 -0.020664357 -0.0012605946 7.071068e-011 7.071068e-011 7.071068e-011 7.071068e-011
7532400000 -0.034161944 0.060130671 0.0087201064 -0.018727046 7.071068e-011 7.071068e-011 7.071068e-011 7.071068e-011
7540800000 0.022863572 0.073212028 0.014410151 0.014719354 7.071068e-011 7.071068e-011 7.071068e-011 7.071068e-011
7549200000 0.019382797 0.022260631 -0.018570641 0.00780115 7.071068e-011 7.071068e-011 7.071068e-011 7.071068e-011
7557600000 -0.018401755 0.061173633 -0.00038750004 -0.020252984 7.071068e-011 7.071068e-011 7.071068e-011 7.071068e-011
7566000000 0.047984086 0.083498694 0.018854925 0.0069389241 7.071068e-011 7.071068e-011 7.071068e-011 7.071068e-011
7574400000 0.060817402 0.0078215273 -0.013516449 0.014860343 7.071068e-011 7.071068e-011 7.071068e-011 7.071068e-011
7582800000 -0.0099156639 0.015463129 -0.0088900086 -0.01801886 7.071068e-011 7.071068e-011 7.071068e-011 7.071068e-011
7591200000 0.036759749 0.064401492 0.019758809 -0.0017987251 7.071068e-011 7.071068e-011 7.071068e-011 7.071068e-011
7599600000 0.059202947 -0.015186702 -0.0057079014 0.018675486 7.071068e-011 7.071068e-011 7.071068e-011 7.071068e-011
7608000000 -0.031118708 -0.020481983 -0.015476648 -0.012633502 7.071068e-011 7.071068e-011 7.071068e-011 7.071068e-011
7616400000 -0.014785415 0.056836888 0.017208179 -0.010026348 7.071068e-011 7.071068e-011 7.071068e-011 7.071068e-011
7624800000 0.031461462 0.0048723235 0.0027005558 0.019561436 7.071068e-011 7.071068e-011 7.071068e-011 7.071068e-011
7633200000 -0.052804329 -0.0060827862 -0.019130459 -0.0046587638 7.071068e-011 7.071068e-011 7.071068e-011 7.071068e-011
7641600000 -0.038165443 0.086877815 0.011398602 -0.015875312 7.071068e-011 7.071068e-011 7.071068e-011 7.071068e-011
7650000000 0.037733164 0.053014658 0.010484466 0.016595332 7.071068e-011 7.071068e-011 7.071068e-011 7.071068e-011
7658400000 -0.021016052 0.011714045 -0.019536408 0.0037577385 7.071068e-011 7.071068e-011 7.071068e-011 7.071068e-011
7666800000 -0.022761097 0.095957793 0.0034600184 -0.019266592 7.071068e-011 7.071068e-011 7.071068e-011 7.071068e-011
7675200000 0.069730848 0.07156419 0.016157359 0.010758516 7.071068e-011 7.071068e-011 7.071068e-011 7.071068e-011
7683600000 0.031783048 -0.0041402853 -0.016267875 0.011267374 7.071068e-011 7.071068e-011 7.071068e-011 7.071068e-011
7692000000 -0.0052118488 0.047126241 -0.004562269 -0.019148761 7.071068e-011 7.071068e-011 7.071068e-011 7.071068e-011
7700400000 0.065875001 0.043692701 0.019454788 0.0028299894 7.071068e-011 7.071068e-011 7.071068e-011 7.071068e-011
7708800000 0.035512049 -0.039761648 -0.00999323 0.016939832 7.071068e-011 7.071068e-011 7.071068e-011 7.071068e-011
7717200000 -0.033638801 0.00086773257 -0.012032007 -0.015642203 7.071068e-011 7.071068e-011 7.071068e-011 7.071068e-011
7725600000 0.016985262 0.033784293 0.018999401 -0.0051148236 7.071068e-011 7.071068e-011 7.071068e-011 7.071068e-011
7734000000 0.014009853 -0.03575987 -0.0021443402 0.019758515 7.071068e-011 7.071068e-011 7.071068e-011 7.071068e-011
7742400000 -0.07084915 -0.012156361 -0.017303508 -0.0091677168 7.071068e-011 7.071068e-011 7.071068e-011 7.071068e-011
7750800000 -0.040427186 0.062504709 0.015217143 -0.012558002 7.071068e-011 7.071068e-011 7.071068e-011 7.071068e-011
7759200000 0.0015154207 0.025113812 0.0060344641 0.018890923 7.071068e-011 7.071068e-011 7.071068e-011 7.071068e-011
7767600000 -0.05347915 0.01959748 -0.019777164 -0.0014738106 7.071068e-011 7.071068e-011 7.071068e-011 7.071068e-011
7776000000 -0.037664413 0.091019206 0.0087498119 -0.017623808 7.071068e-011 7.071068e-011 7.071068e-011 7.071068e-011
7784400000 0.031478349 0.067957126 0.013107467 0.014767554 7.071068e-011 7.071068e-011 7.071068e-011 7.071068e-011
7792800000 0.0011683214 0.024800766 -0.018469641 0.0065366467 7.071068e-011 7.071068e-011 7.071068e-011 7.071068e-011
7801200000 -0.0076099206 0.070343554 0.0010885794 -0.019848816 7.071068e-011 7.071068e-011 7.071068e-011 7.071068e-011
7809600000 0.053220846 0.058403965 0.018052179 0.0082117906 7.071068e-011 7.071068e-011 7.071068e-011 7.071068e-011
7818000000 0.035213426 -0.0043617664 -0.014411437 0.01332867 7.071068e-011 7.071068e-011 7.071068e-011 7.071068e-011
7826400000 -0.0055470946 0.020986473 -0.0069950474 -0.018455083 7.071068e-011 7.071068e-011 7.071068e-011 7.071068e-011
7834800000 0.032672882 0.031549986 0.019725695 0.0004410276 7.071068e-011 7.071068e-011 7.071068e-011 7.071068e-011
7843200000 0.025207169 -0.019730927 -0.0078513324 0.018161265 7.071068e-011 7.071068e-011 7.071068e-011 7.071068e-011
7851600000 -0.02681604 -0.0045292014 -0.013871581 -0.014187112 7.071068e-011 7.071068e-011 7.071068e-011 7.071068e-011
7860000000 -0.0040544756 0.030783009 0.018270457 -0.0075796875 7.071068e-011 7.071068e-011 7.071068e-011 7.071068e-011
7868400000 0.010370089 -0.0035992763 -5.8189369e-005 0.019726897 7.071068e-011 7.071068e-011 7.071068e-011 7.071068e-011
7876800000 -0.036318697 -0.0037569343 -0.018478228 -0.007477982 7.071068e-011 7.071068e-011 7.071068e-011 7.071068e-011
7885200000 -0.030478654 0.04354009 0.013665859 -0.014343764 7.071068e-011 7.071068e-011 7.071068e-011 7.071068e-011
7893600000 0.0088753514 0.036087058 0.0079946248 0.017859975 7.071068e-011 7.071068e-011 7.071068e-011 7.071068e-011
7902000000 -0.0083886785 0.0093186172 -0.019651841 0.00039809928 7.071068e-011 7.071068e-011 7.071068e-011 7.071068e-011
7910400000 -0.021373071 0.039139327 0.0069327294 -0.018504493 7.071068e-011 7.071068e-011 7.071068e-011 7.071068e-011
7918800000 0.017158728 0.048975885 0.014344617 0.013209212 7.071068e-011 7.071068e-011 7.071068e-011 7.071068e-011
7927200000 0.028528698 0.007353554 -0.017659241 0.0081873536 7.071068e-011 7.071068e-011 7.071068e-011 7.071068e-011
7935600000 -0.0080567589 0.0058974274 -0.00085147395 -0.019324308 7.071068e-011 7.071068e-011 7.071068e-011 7.071068e-011
7944000000 0.011063769 0.033238914 0.018153695 0.0066818139 7.071068e-011 7.071068e-011 7.071068e-011 7.071068e-011
7952400000 0.037511185 -0.0057067443 -0.013117963 0.014216286 7.071068e-011 7.071068e-011 7.071068e-011 7.071068e-011
7960800000 -0.01513217 -0.033312041 -0.0082685677 -0.017458484 7.071068e-011 7.071068e-011 7.071068e-011 7.071068e-011
7969200000 -0.029115539 0.020900549 0.019008242 -0.00090958085 7.071068e-011 7.071068e-011 7.071068e-011 7.071068e-011
7977600000 0.020055549 0.0067302543 -0.0065375865 0.017895538 7.071068e-011 7.071068e-011 7.071068e-011 7.071068e-011
7986000000 -0.024331868 -0.039739393 -0.014076365 -0.012829361 7.071068e-011 7.071068e-011 7.071068e-011 7.071068e-011
7994400000 -0.065329745 0.024924293 0.017137371 -0.0081282668 7.071068e-011 7.071068e-011 7.071068e-011 7.071068e-011
