!Keysight Technologies,N5235B,MY61252044,A.15.00.15
!Date: Friday, January 20, 2023 23:16:49
!Correction: S11(Off) 
!S21(Off) 
!S12(Off) 
!S22(Off) 
!S2P File: Measurements: S11, S21, S12, S22:
# Hz S  RI   R 50
6600000000 0.018445253 -0.17518044 0.01546112 -0.0030445091 7.071068e-011 7.071068e-011 7.071068e-011 7.071068e-011
6608408408.4084 -0.12445901 0.16567025 0.0053061475 0.010838125 7.071068e-011 7.071068e-011 7.071068e-011 7.071068e-011
6616816816.8168 0.30602428 0.092561148 -0.0089127943 0.003690467 7.071068e-011 7.071068e-011 7.071068e-011 7.071068e-011
6625225225.2252 0.024467831 -0.27293879 -0.0017809145 -0.0093071032 7.071068e-011 7.071068e-011 7.071068e-011 7.071068e-011
6633633633.6336 -0.16561802 0.16154008 0.0093377493 -0.00038828221 7.071068e-011 7.071068e-011 7.071068e-011 7.071068e-011
6642042042.042 0.28996187 0.11303856 -0.0018566444 0.0093197618 7.071068e-011 7.071068e-011 7.071068e-011 7.071068e-011
6650450450.4505 0.039005019 -0.25205821 -0.010725131 -0.0040943418 7.071068e-011 7.071068e-011 7.071068e-011 7.071068e-011
6658858858.8589 -0.1483358 0.13448641 0.0059786695 -0.011493862 7.071068e-011 7.071068e-011 7.071068e-011 7.071068e-011
6667267267.2673 0.22854479 0.10116903 0.012199836 0.0091717737 7.071068e-011 7.071068e-011 7.071068e-011 7.071068e-011
6675675675.6757 0.042802524 -0.15110274 -0.011541317 0.013821151 7.071068e-011 7.071068e-011 7.071068e-011 7.071068e-011
6684084084.0841 -0.044365078 0.084219299 -0.014595221 -0.013356245 7.071068e-011 7.071068e-011 7.071068e-011 7.071068e-011
6692492492.4925 0.10583099 0.047462843 0.01482723 -0.014914858 7.071068e-011 7.071068e-011 7.071068e-011 7.071068e-011
6700900900.9009 0.085943975 0.018307973 0.014762685 0.015420153 7.071068e-011 7.071068e-011 7.071068e-011 7.071068e-011
6709309309.3093 0.077214807 -0.041852474 -0.015557629 0.013106483 7.071068e-011 7.071068e-011 7.071068e-011 7.071068e-011
6717717717.7177 -0.031158028 0.034376923 -0.01013983 -0.016484508 7.071068e-011 7.071068e-011 7.071068e-011 7.071068e-011
6726126126.1261 0.1550892 0.11627308 0.016805502 -0.0070843357 7.071068e-011 7.071068e-011 7.071068e-011 7.071068e-011
6734534534.5345 0.12859336 -0.1406431 0.0035567509 0.016234979 7.071068e-011 7.071068e-011 7.071068e-011 7.071068e-011
6742942942.9429 -0.10785922 0.026663447 -0.015913073 -0.00028037999 7.071068e-011 7.071068e-011 7.071068e-011 7.071068e-011
6751351351.3514 0.17150943 0.15258853 0.0036191412 -0.015371425 7.071068e-011 7.071068e-011 7.071068e-011 7.071068e-011
6759759759.7598 0.15068151 -0.17154513 0.013183018 0.007070051 7.071068e-011 7.071068e-011 7.071068e-011 7.071068e-011
6768168168.1682 -0.14690787 -0.0054979175 -0.010860226 0.010409112 7.071068e-011 7.071068e-011 7.071068e-011 7.071068e-011
6776576576.5766 0.13403349 0.17892849 -0.0080049131 -0.0134736 7.071068e-011 7.071068e-011 7.071068e-011 7.071068e-011
6784984984.985 0.15120938 -0.14617315 0.014560237 -0.0040161763 7.071068e-011 7.071068e-011 7.071068e-011 7.071068e-011
6793393393.3934 -0.14740026 -0.0066062347 -0.00035090308 0.015523962 7.071068e-011 7.071068e-011 7.071068e-011 7.071068e-011
6801801801.8018 0.10149276 0.20267494 -0.015718063 -0.0042973924 7.071068e-011 7.071068e-011 7.071068e-011 7.071068e-011
6810210210.2102 0.1724533 -0.094882078 0.0086769443 -0.014431372 7.071068e-011 7.071068e-011 7.071068e-011 7.071068e-011
6818618618.6186 -0.10530118 -0.010369276 0.012140683 0.01323916 7.071068e-011 7.071068e-011 7.071068e-011 7.071068e-011
6827027027.027 0.087795414 0.18546768 -0.015959565 0.0092082759 7.071068e-011 7.071068e-011 7.071068e-011 7.071068e-011
6835435435.4354 0.18148199 -0.048733704 -0.0044766539 -0.017895374 7.071068e-011 7.071068e-011 7.071068e-011 7.071068e-011
6843843843.8438 -0.045410682 -0.028055593 0.020169673 0.00025530162 7.071068e-011 7.071068e-011 7.071068e-011 7.071068e-011
6852252252.2523 0.074714363 0.12924789 -0.0045798426 0.020298749 7.071068e-011 7.071068e-011 7.071068e-011 7.071068e-011
6860660660.6607 0.14510886 -0.020244759 -0.018600604 -0.0096130101 7.071068e-011 7.071068e-011 7.071068e-011 7.071068e-011
6869069069.0691 0.004174558 -0.027043266 0.014522607 -0.016084924 7.071068e-011 7.071068e-011 7.071068e-011 7.071068e-011
6877477477.4775 0.054025084 0.0725431 0.012681512 0.018090116 7.071068e-011 7.071068e-011 7.071068e-011 7.071068e-011
6885885885.8859 0.090367854 0.0069153258 -0.020451615 0.0076984954 7.071068e-011 7.071068e-011 7.071068e-011 7.071068e-011
6894294294.2943 0.047253776 -0.0010106066 -0.0023039917 -0.022013145 7.071068e-011 7.071068e-011 7.071068e-011 7.071068e-011
6902702702.7027 0.038232859 0.01937557 0.021986853 0.0032409155 7.071068e-011 7.071068e-011 7.071068e-011 7.071068e-011
6911111111.1111 0.03099772 0.037658796 -0.008783929 0.020206464 7.071068e-011 7.071068e-011 7.071068e-011 7.071068e-011
6919519519.5195 0.078282356 0.049936108 -0.01694317 -0.013620639 7.071068e-011 7.071068e-011 7.071068e-011 7.071068e-011
6927927927.9279 0.050752088 -0.01239246 0.017241752 -0.012775888 7.071068e-011 7.071068e-011 7.071068e-011 7.071068e-011
6936336336.3363 -0.002166776 0.062207356 0.0072668381 0.019476088 7.071068e-011 7.071068e-011 7.071068e-011 7.071068e-011
6944744744.7447 0.11244152 0.089358129 -0.020836111 0.0011501856 7.071068e-011 7.071068e-011 7.071068e-011 7.071068e-011
6953153153.1532 0.084290884 -0.045545511 0.0044859098 -0.019991424 7.071068e-011 7.071068e-011 7.071068e-011 7.071068e-011
6961561561.5616 -0.028322142 0.054466676 0.017333101 0.0099513875 7.071068e-011 7.071068e-011 7.071068e-011 7.071068e-011
6969969969.97 0.12467045 0.10587405 -0.01450701 0.013547411 7.071068e-011 7.071068e-011 7.071068e-011 7.071068e-011
6978378378.3784 0.10166172 -0.070816189 -0.0083818417 -0.017366448 7.071068e-011 7.071068e-011 7.071068e-011 7.071068e-011
6986786786.7868 -0.064072795 0.032791749 0.018728523 -0.0022817538 7.071068e-011 7.071068e-011 7.071068e-011 7.071068e-011
6995195195.1952 0.10302573 0.13387801 -0.0035498685 0.01891413 7.071068e-011 7.071068e-011 7.071068e-011 7.071068e-011
7003603603.6036 0.1088617 -0.057928242 -0.016602505 -0.0089021763 7.071068e-011 7.071068e-011 7.071068e-011 7.071068e-011
7012012012.012 -0.072690293 0.032547768 0.014114687 -0.012470872 7.071068e-011 7.071068e-011 7.071068e-011 7.071068e-011
7020420420.4204 0.088098526 0.16139959 0.0077927778 0.017321965 7.071068e-011 7.071068e-011 7.071068e-011 7.071068e-011
7028828828.8288 0.13257077 -0.029069694 -0.018522276 0.0018341572 7.071068e-011 7.071068e-011 7.071068e-011 7.071068e-011
7037237237.2372 -0.053996813 0.030763572 0.0044160741 -0.018640989 7.071068e-011 7.071068e-011 7.071068e-011 7.071068e-011
7045645645.6456 0.090113692 0.17088686 0.016446637 0.0097984569 7.071068e-011 7.071068e-011 7.071068e-011 7.071068e-011
7054054054.0541 0.16755374 -0.0031419909 -0.014669835 0.012049552 7.071068e-011 7.071068e-011 7.071068e-011 7.071068e-011
7062462462.4625 -0.0081553813 -0.0039342288 -0.0068351836 -0.018470207 7.071068e-011 7.071068e-011 7.071068e-011 7.071068e-011
7070870870.8709 0.078338511 0.14039239 0.019768434 -0.0011987209 7.071068e-011 7.071068e-011 7.071068e-011 7.071068e-011
7079279279.2793 0.16832043 0.007302959 -0.0055415947 0.01879683 7.071068e-011 7.071068e-011 7.071068e-011 7.071068e-011
7087687687.6877 0.032486025 -0.026928155 -0.016645996 -0.011483241 7.071068e-011 7.071068e-011 7.071068e-011 7.071068e-011
7096096096.0961 0.059559677 0.089279607 0.01593875 -0.01248152 7.071068e-011 7.071068e-011 7.071068e-011 7.071068e-011
7104504504.5045 0.14776494 0.010344006 0.0065409057 0.01913338 7.071068e-011 7.071068e-011 7.071068e-011 7.071068e-011
7112912912.9129 0.050826952 -0.044626333 -0.020639632 -0.00012159262 7.071068e-011 7.071068e-011 7.071068e-011 7.071068e-011
7121321321.3213 0.034415454 0.031917356 0.0063034538 -0.019840542 7.071068e-011 7.071068e-011 7.071068e-011 7.071068e-011
7129729729.7297 0.089307591 0.014455258 0.016449863 0.012073207 7.071068e-011 7.071068e-011 7.071068e-011 7.071068e-011
7138138138.1381 0.04339423 -0.037796672 -0.017180759 0.011703591 7.071068e-011 7.071068e-011 7.071068e-011 7.071068e-011
7146546546.5465 -0.0005171033 0.013644882 -0.0058509461 -0.020118557 7.071068e-011 7.071068e-011 7.071068e-011 7.071068e-011
7154954954.955 0.030666441 0.041313428 0.020803817 0.00084921421 7.071068e-011 7.071068e-011 7.071068e-011 7.071068e-011
7163363363.3634 0.044946287 0.015740346 -0.0076523591 0.019102057 7.071068e-011 7.071068e-011 7.071068e-011 7.071068e-011
7171771771.7718 0.0011835751 0.02027173 -0.015749235 -0.013475878 7.071068e-011 7.071068e-011 7.071068e-011 7.071068e-011
7180180180.1802 0.018463304 0.072542384 0.017615866 -0.010398598 7.071068e-011 7.071068e-011 7.071068e-011 7.071068e-011
7188588588.5886 0.067778371 0.056144468 0.0038886033 0.020446708 7.071068e-011 7.071068e-011 7.071068e-011 7.071068e-011
7196996996.997 0.03986495 0.01012212 -0.020607816 -0.0027370399 7.071068e-011 7.071068e-011 7.071068e-011 7.071068e-011
7205405405.4054 0.012299728 0.067140132 0.0095393015 -0.018001568 7.071068e-011 7.071068e-011 7.071068e-011 7.071068e-011
7213813813.8138 0.083217464 0.067223273 0.013849463 0.015186605 7.071068e-011 7.071068e-011 7.071068e-011 7.071068e-011
7222222222.2222 0.066201314 -0.0054852189 -0.018985391 0.0082262736 7.071068e-011 7.071068e-011 7.071068e-011 7.071068e-011
7230630630.6306 -0.001307111 0.035133824 -0.0014453783 -0.020492073 7.071068e-011 7.071068e-011 7.071068e-011 7.071068e-011
7239039039.039 0.071532384 0.075593732 0.01995388 0.0058447463 7.071068e-011 7.071068e-011 7.071068e-011 7.071068e-011
7247447447.4474 0.075251646 -0.014809621 -0.012008874 0.016983993 7.071068e-011 7.071068e-011 7.071068e-011 7.071068e-011
7255855855.8559 -0.016604755 0.0073454017 -0.011602953 -0.017012581 7.071068e-011 7.071068e-011 7.071068e-011 7.071068e-011
7264264264.2643 0.034874991 0.084061958 0.02011966 -0.005352153 7.071068e-011 7.071068e-011 7.071068e-011 7.071068e-011
7272672672.6727 0.074384578 0.00064853946 -0.0015112053 0.020538654 7.071068e-011 7.071068e-011 7.071068e-011 7.071068e-011
7281081081.0811 -0.029858531 0.00080609712 -0.018728502 -0.0084475121 7.071068e-011 7.071068e-011 7.071068e-011 7.071068e-011
7289489489.4895 -2.1550955e-005 0.10759725 0.014694531 -0.014620392 7.071068e-011 7.071068e-011 7.071068e-011 7.071068e-011
7297897897.8979 0.084973581 0.050671611 0.0088092731 0.018824572 7.071068e-011 7.071068e-011 7.071068e-011 7.071068e-011
7306306306.3063 0.0010800126 0.0088592144 -0.020576704 0.0015858405 7.071068e-011 7.071068e-011 7.071068e-011 7.071068e-011
7314714714.7147 0.004089708 0.11279589 0.0053908504 -0.02029282 7.071068e-011 7.071068e-011 7.071068e-011 7.071068e-011
7323123123.1231 0.11267532 0.075368717 0.01700937 0.011728817 7.071068e-011 7.071068e-011 7.071068e-011 7.071068e-011
7331531531.5315 0.051230531 -0.011830173 -0.017323406 0.011720096 7.071068e-011 7.071068e-011 7.071068e-011 7.071068e-011
7339939939.9399 0.0079202829 0.068650417 -0.0053267591 -0.020551117 7.071068e-011 7.071068e-011 7.071068e-011 7.071068e-011
7348348348.3483 0.10548104 0.063674763 0.020923 0.0019211359 7.071068e-011 7.071068e-011 7.071068e-011 7.071068e-011
7356756756.7568 0.066166721 -0.036980581 -0.0091934716 0.018794889 7.071068e-011 7.071068e-011 7.071068e-011 7.071068e-011
7365165165.1652 -0.010232588 0.020864606 -0.014747342 -0.015188949 7.071068e-011 7.071068e-011 7.071068e-011 7.071068e-011
7373573573.5736 0.061536968 0.049840298 0.019010516 -0.0085741393 7.071068e-011 7.071068e-011 7.071068e-011 7.071068e-011
7381981981.982 0.043967299 -0.035373554 0.0010802548 0.021119839 7.071068e-011 7.071068e-011 7.071068e-011 7.071068e-011
7390390390.3904 -0.043093324 0.0096639628 -0.020336704 -0.0061525558 7.071068e-011 7.071068e-011 7.071068e-011 7.071068e-011
7398798798.7988 0.012971463 0.071222208 0.012883219 -0.016706921 7.071068e-011 7.071068e-011 7.071068e-011 7.071068e-011
7407207207.2072 0.027930716 0.0098431185 0.011197978 0.01797694 7.071068e-011 7.071068e-011 7.071068e-011 7.071068e-011
7415615615.6156 -0.040933587 0.035347175 -0.020872714 0.0043991655 7.071068e-011 7.071068e-011 7.071068e-011 7.071068e-011
7424024024.024 0.0067480421 0.10500884 0.0030454302 -0.021039151 7.071068e-011 7.071068e-011 7.071068e-011 7.071068e-011
7432432432.4324 0.05472023 0.054149415 0.018679257 0.01040863 7.071068e-011 7.071068e-011 7.071068e-011 7.071068e-011
7440840840.8408 0.0098093897 0.042330291 -0.016127575 0.014062584 7.071068e-011 7.071068e-011 7.071068e-011 7.071068e-011
7449249249.2492 0.030239888 0.087106332 -0.0073392973 -0.019865219 7.071068e-011 7.071068e-011 7.071068e-011 7.071068e-011
7457657657.6577 0.077958211 0.048999045 0.021254547 0.00016029367 7.071068e-011 7.071068e-011 7.071068e-011 7.071068e-011
7466066066.0661 0.041766744 0.014067625 -0.0075081368 0.019940065 7.071068e-011 7.071068e-011 7.071068e-011 7.071068e-011
7474474474.4745 0.030497257 0.039300837 -0.015945056 -0.013821824 7.071068e-011 7.071068e-011 7.071068e-011 7.071068e-011
7482882882.8829 0.059854582 0.029122628 0.018625153 -0.0098071098 7.071068e-011 7.071068e-011 7.071068e-011 7.071068e-011
7491291291.2913 0.038931374 -0.013371187 0.0026544735 0.020924794 7.071068e-011 7.071068e-011 7.071068e-011 7.071068e-011
7499699699.6997 -0.0033336536 0.0023821692 -0.020360351 -0.0049127163 7.071068e-011 7.071068e-011 7.071068e-011 7.071068e-011
7508108108.1081 0.0032702936 0.031945813 0.011742068 -0.017319435 7.071068e-011 7.071068e-011 7.071068e-011 7.071068e-011
7516516516.5165 0.019397723 0.011956939 0.011998691 0.016985189 7.071068e-011 7.071068e-011 7.071068e-011 7.071068e-011
7524924924.9249 -0.026381556 0.0065811705 -0.020025678 0.0050821099 7.071068e-011 7.071068e-011 7.071068e-011 7.071068e-011
7533333333.3333 -0.029833887 0.065967306 0.0025349208 -0.020496249 7.071068e-011 7.071068e-011 7.071068e-011 7.071068e-011
7541741741.7417 0.027828822 0.06889797 0.018251875 0.0094782608 7.071068e-011 7.071068e-011 7.071068e-011 7.071068e-011
7550150150.1502 0.013049023 0.020586219 -0.015209514 0.013219869 7.071068e-011 7.071068e-011 7.071068e-011 7.071068e-011
7558558558.5586 -0.015355735 0.068414986 -0.006851506 -0.019033534 7.071068e-011 7.071068e-011 7.071068e-011 7.071068e-011
7566966966.967 0.055595074 0.078132339 0.019995915 0.00048360322 7.071068e-011 7.071068e-011 7.071068e-011 7.071068e-011
7575375375.3754 0.053605217 0.00096999598 -0.0079125836 0.018453982 7.071068e-011 7.071068e-011 7.071068e-011 7.071068e-011
7583783783.7838 -0.011879206 0.02397857 -0.01439306 -0.014078188 7.071068e-011 7.071068e-011 7.071068e-011 7.071068e-011
7592192192.1922 0.045447167 0.060645055 0.018001368 -0.0083102444 7.071068e-011 7.071068e-011 7.071068e-011 7.071068e-011
7600600600.6006 0.051808279 -0.024306467 0.00086662738 0.019478058 7.071068e-011 7.071068e-011 7.071068e-011 7.071068e-011
7609009009.009 -0.03795667 -0.010842764 -0.018873025 -0.0065411059 7.071068e-011 7.071068e-011 7.071068e-011 7.071068e-011
7617417417.4174 -0.0052282889 0.058134746 0.012623657 -0.015312453 7.071068e-011 7.071068e-011 7.071068e-011 7.071068e-011
7625825825.8258 0.026442541 -0.0040410259 0.0094157755 0.017398071 7.071068e-011 7.071068e-011 7.071068e-011 7.071068e-011
7634234234.2342 -0.060612991 0.0039153276 -0.019542692 0.0024402824 7.071068e-011 7.071068e-011 7.071068e-011 7.071068e-011
7642642642.6426 -0.02666459 0.09164428 0.0049914191 -0.018893408 7.071068e-011 7.071068e-011 7.071068e-011 7.071068e-011
7651051051.0511 0.03755945 0.042545572 0.015739623 0.011706244 7.071068e-011 7.071068e-011 7.071068e-011 7.071068e-011
7659459459.4595 -0.029767808 0.018080374 -0.016775409 0.010653884 7.071068e-011 7.071068e-011 7.071068e-011 7.071068e-011
7667867867.8679 -0.011626328 0.10241018 -0.0038835644 -0.019113807 7.071068e-011 7.071068e-011 7.071068e-011 7.071068e-011
7676276276.2763 0.073832899 0.059086461 0.01908542 0.0039692922 7.071068e-011 7.071068e-011 7.071068e-011 7.071068e-011
7684684684.6847 0.021487208 -0.0039424016 -0.010772896 0.016606195 7.071068e-011 7.071068e-011 7.071068e-011 7.071068e-011
7693093093.0931 0.00060984178 0.05432187 -0.011469805 -0.015963266 7.071068e-011 7.071068e-011 7.071068e-011 7.071068e-011
7701501501.5015 0.07103879 0.032657292 0.019019777 -0.0048254658 7.071068e-011 7.071068e-011 7.071068e-011 7.071068e-011
7709909909.9099 0.02342125 -0.042505767 -0.0026152225 0.019507151 7.071068e-011 7.071068e-011 7.071068e-011 7.071068e-011
7718318318.3183 -0.033208061 0.010786258 -0.017209455 -0.0095935892 7.071068e-011 7.071068e-011 7.071068e-011 7.071068e-011
7726726726.7267 0.02436403 0.027853439 0.015447909 -0.012231429 7.071068e-011 7.071068e-011 7.071068e-011 7.071068e-011
7735135135.1351 0.0029230753 -0.041252315 0.0059329285 0.018953035 7.071068e-011 7.071068e-011 7.071068e-011 7.071068e-011
7743543543.5435 -0.074982129 -0.00031647645 -0.019526871 -0.0014593479 7.071068e-011 7.071068e-011 7.071068e-011 7.071068e-011
7751951951.952 -0.030490914 0.064327531 0.0087293154 -0.017683074 7.071068e-011 7.071068e-011 7.071068e-011 7.071068e-011
7760360360.3604 -0.0025713306 0.017524777 0.013250045 0.014659538 7.071068e-011 7.071068e-011 7.071068e-011 7.071068e-011
7768768768.7688 -0.058276795 0.028338881 -0.018584346 0.0068693412 7.071068e-011 7.071068e-011 7.071068e-011 7.071068e-011
7777177177.1772 -0.027348014 0.095549829 0.0005932271 -0.019717876 7.071068e-011 7.071068e-011 7.071068e-011 7.071068e-011
7785585585.5856 0.033875562 0.058096167 0.018126642 0.0078165559 7.071068e-011 7.071068e-011 7.071068e-011 7.071068e-011
7793993993.994 -0.0055126338 0.027742662 -0.013906432 0.013691856 7.071068e-011 7.071068e-011 7.071068e-011 7.071068e-011
7802402402.4024 -0.00052090146 0.074859098 -0.0075736828 -0.018372316 7.071068e-011 7.071068e-011 7.071068e-011 7.071068e-011
7810810810.8108 0.057977993 0.04899855 0.019774541 -0.00045270455 7.071068e-011 7.071068e-011 7.071068e-011 7.071068e-011
7819219219.2192 0.026120979 -0.0064414111 -0.0071417373 0.018333225 7.071068e-011 7.071068e-011 7.071068e-011 7.071068e-011
7827627627.6276 -0.00368689 0.026756106 -0.014406716 -0.013457613 7.071068e-011 7.071068e-011 7.071068e-011 7.071068e-011
7836036036.036 0.037463076 0.025837226 0.017843578 -0.0083458023 7.071068e-011 7.071068e-011 7.071068e-011 7.071068e-011
7844444444.4444 0.016612791 -0.023774143 0.0011146743 0.019719619 7.071068e-011 7.071068e-011 7.071068e-011 7.071068e-011
7852852852.8529 -0.028294019 0.0029372575 -0.018793527 -0.0063530286 7.071068e-011 7.071068e-011 7.071068e-011 7.071068e-011
7861261261.2613 0.0016475667 0.029535631 0.012769564 -0.015048288 7.071068e-011 7.071068e-011 7.071068e-011 7.071068e-011
7869669669.6697 0.0055239499 -0.0091996705 0.0090085426 0.017558387 7.071068e-011 7.071068e-011 7.071068e-011 7.071068e-011
7878078078.0781 -0.04035832 0.0033361812 -0.019806584 0.0019625991 7.071068e-011 7.071068e-011 7.071068e-011 7.071068e-011
7886486486.4865 -0.024493733 0.046906084 0.0053811604 -0.019018473 7.071068e-011 7.071068e-011 7.071068e-011 7.071068e-011
7894894894.8949 0.01092772 0.030354416 0.015404513 0.011990314 7.071068e-011 7.071068e-011 7.071068e-011 7.071068e-011
7903303303.3033 -0.01345552 0.011057582 -0.017088493 0.0096921837 7.071068e-011 7.071068e-011 7.071068e-011 7.071068e-011
7911711711.7117 -0.017884059 0.043899838 -0.0027675463 -0.019484097 7.071068e-011 7.071068e-011 7.071068e-011 7.071068e-011
7920120120.1201 0.023064781 0.044932939 0.018895427 0.004726978 7.071068e-011 7.071068e-011 7.071068e-011 7.071068e-011
7928528528.5285 0.023669416 0.0019773168 -0.011457302 0.015723877 7.071068e-011 7.071068e-011 7.071068e-011 7.071068e-011
7936936936.9369 -0.0099463919 0.011105006 -0.010155352 -0.016385654 7.071068e-011 7.071068e-011 7.071068e-011 7.071068e-011
7945345345.3453 0.017761748 0.032127518 0.019019907 -0.0030845837 7.071068e-011 7.071068e-011 7.071068e-011 7.071068e-011
