!Keysight Technologies,N5235B,MY61252044,A.15.00.15
!Date: Friday, January 20, 2023 19:29:02
!Correction: S11(Off) 
!S21(Off) 
!S12(Off) 
!S22(Off) 
!S2P File: Measurements: S11, S21, S12, S22:
# Hz S  RI   R 50
6600000000 0.01701919 -0.17443427 0.014914257 -0.0052501294 7.071068e-011 7.071068e-011 7.071068e-011 7.071068e-011
6608400000 -0.12367263 0.16654736 0.0068068025 0.010011598 7.071068e-011 7.071068e-011 7.071068e-011 7.071068e-011
6616800000 0.30689618 0.091724791 -0.0083394479 0.0048862915 7.071068e-011 7.071068e-011 7.071068e-011 7.071068e-011
6625200000 0.023691049 -0.27301905 -0.0030060706 -0.0090101417 7.071068e-011 7.071068e-011 7.071068e-011 7.071068e-011
6633600000 -0.16580012 0.1615006 0.0092226919 -0.0015987125 7.071068e-011 7.071068e-011 7.071068e-011 7.071068e-011
6642000000 0.29026976 0.11392312 -0.00067007152 0.0094719073 7.071068e-011 7.071068e-011 7.071068e-011 7.071068e-011
6650400000 0.039757162 -0.25266594 -0.011138529 -0.0027892459 7.071068e-011 7.071068e-011 7.071068e-011 7.071068e-011
6658800000 -0.14913091 0.1332968 0.0046092197 -0.012126739 7.071068e-011 7.071068e-011 7.071068e-011 7.071068e-011
6667200000 0.22794497 0.10357165 0.013117562 0.0077433265 7.071068e-011 7.071068e-011 7.071068e-011 7.071068e-011
6675600000 0.044564236 -0.1528044 -0.010045744 0.014929596 7.071068e-011 7.071068e-011 7.071068e-011 7.071068e-011
6684000000 -0.045422871 0.084196791 -0.015909169 -0.011861794 7.071068e-011 7.071068e-011 7.071068e-011 7.071068e-011
6692400000 0.10546361 0.048403874 0.013293045 -0.016316958 7.071068e-011 7.071068e-011 7.071068e-011 7.071068e-011
6700800000 0.086032718 0.017311979 0.016109774 0.014005939 7.071068e-011 7.071068e-011 7.071068e-011 7.071068e-011
6709200000 0.07799305 -0.040137555 -0.014434397 0.014465642 7.071068e-011 7.071068e-011 7.071068e-011 7.071068e-011
6717600000 -0.031465173 0.031854142 -0.011555973 -0.015621779 7.071068e-011 7.071068e-011 7.071068e-011 7.071068e-011
6726000000 0.15300773 0.11790325 0.016193632 -0.0084496262 7.071068e-011 7.071068e-011 7.071068e-011 7.071068e-011
6734400000 0.13170299 -0.13850585 0.0048199883 0.015943544 7.071068e-011 7.071068e-011 7.071068e-011 7.071068e-011
6742800000 -0.10794931 0.021720899 -0.015940415 0.00090627372 7.071068e-011 7.071068e-011 7.071068e-011 7.071068e-011
6751200000 0.16714567 0.15575191 0.0025568383 -0.015643835 7.071068e-011 7.071068e-011 7.071068e-011 7.071068e-011
6759600000 0.15602329 -0.16864598 0.013657738 0.0062106596 7.071068e-011 7.071068e-011 7.071068e-011 7.071068e-011
6768000000 -0.14687452 -0.012127946 -0.010210209 0.011074289 7.071068e-011 7.071068e-011 7.071068e-011 7.071068e-011
6776400000 0.12855169 0.1819922 -0.0087705059 -0.013026183 7.071068e-011 7.071068e-011 7.071068e-011 7.071068e-011
6784800000 0.15672021 -0.14211629 0.014328545 -0.0048159589 7.071068e-011 7.071068e-011 7.071068e-011 7.071068e-011
6793200000 -0.14649571 -0.014559032 0.00043176793 0.015526469 7.071068e-011 7.071068e-011 7.071068e-011 7.071068e-011
6801600000 0.094810918 0.20560463 -0.015931198 -0.0036043718 7.071068e-011 7.071068e-011 7.071068e-011 7.071068e-011
6810000000 0.17711647 -0.090107657 0.0081143873 -0.014810264 7.071068e-011 7.071068e-011 7.071068e-011 7.071068e-011
6818400000 -0.10275483 -0.018008197 0.012586936 0.012782835 7.071068e-011 7.071068e-011 7.071068e-011 7.071068e-011
6826800000 0.080134951 0.18792953 -0.015673628 0.0096951183 7.071068e-011 7.071068e-011 7.071068e-011 7.071068e-011
6835200000 0.18581715 -0.044272766 -0.00498536 -0.017781699 7.071068e-011 7.071068e-011 7.071068e-011 7.071068e-011
6843600000 -0.042599443 -0.033303432 0.020217184 -0.00020125679 7.071068e-011 7.071068e-011 7.071068e-011 7.071068e-011
6852000000 0.068528853 0.1300846 -0.0042055002 0.020432742 7.071068e-011 7.071068e-011 7.071068e-011 7.071068e-011
6860400000 0.14832664 -0.016523561 -0.018760003 -0.0093460036 7.071068e-011 7.071068e-011 7.071068e-011 7.071068e-011
6868800000 0.0062064575 -0.030139226 0.014387055 -0.016241165 7.071068e-011 7.071068e-011 7.071068e-011 7.071068e-011
6877200000 0.050638825 0.072314717 0.012815611 0.01807511 7.071068e-011 7.071068e-011 7.071068e-011 7.071068e-011
6885600000 0.091951497 0.0089623546 -0.020469237 0.0077867722 7.071068e-011 7.071068e-011 7.071068e-011 7.071068e-011
6894000000 0.047751032 -0.0019948781 -0.0022556253 -0.022072854 7.071068e-011 7.071068e-011 7.071068e-011 7.071068e-011
6902400000 0.038303539 0.019379636 0.022034833 0.0034279588 7.071068e-011 7.071068e-011 7.071068e-011 7.071068e-011
6910800000 0.030975563 0.036039062 -0.009031985 0.020173443 7.071068e-011 7.071068e-011 7.071068e-011 7.071068e-011
6919200000 0.076449439 0.051645365 -0.016804123 -0.013891854 7.071068e-011 7.071068e-011 7.071068e-011 7.071068e-011
6927600000 0.053821295 -0.011772864 0.017538937 -0.012508669 7.071068e-011 7.071068e-011 7.071068e-011 7.071068e-011
6936000000 -0.003297209 0.057677463 0.006893984 0.019727524 7.071068e-011 7.071068e-011 7.071068e-011 7.071068e-011
6944400000 0.10817183 0.093284108 -0.020918125 0.00059166423 7.071068e-011 7.071068e-011 7.071068e-011 7.071068e-011
6952800000 0.090067945 -0.043402337 0.0051084906 -0.019914296 7.071068e-011 7.071068e-011 7.071068e-011 7.071068e-011
6961200000 -0.028988142 0.047586996 0.01703513 0.010569186 7.071068e-011 7.071068e-011 7.071068e-011 7.071068e-011
6969600000 0.11785474 0.1105276 -0.015083894 0.01301902 7.071068e-011 7.071068e-011 7.071068e-011 7.071068e-011
6978000000 0.1100357 -0.066463947 -0.0077028712 -0.017774381 7.071068e-011 7.071068e-011 7.071068e-011 7.071068e-011
6986400000 -0.063868314 0.023021998 0.018861771 -0.0014682631 7.071068e-011 7.071068e-011 7.071068e-011 7.071068e-011
6994800000 0.094293341 0.13799548 -0.0045461557 0.018781243 7.071068e-011 7.071068e-011 7.071068e-011 7.071068e-011
7003200000 0.11738291 -0.051748231 -0.016182816 -0.009857364 7.071068e-011 7.071068e-011 7.071068e-011 7.071068e-011
7011600000 -0.071445823 0.021260068 0.014821339 -0.011651945 7.071068e-011 7.071068e-011 7.071068e-011 7.071068e-011
7020000000 0.07807038 0.1648269 0.006726874 0.017810948 7.071068e-011 7.071068e-011 7.071068e-011 7.071068e-011
7028400000 0.13963874 -0.02149708 -0.018654419 0.00065028406 7.071068e-011 7.071068e-011 7.071068e-011 7.071068e-011
7036800000 -0.05073192 0.019695098 0.0057508261 -0.018323584 7.071068e-011 7.071068e-011 7.071068e-011 7.071068e-011
7045200000 0.07865411 0.17294407 0.015732825 0.011052512 7.071068e-011 7.071068e-011 7.071068e-011 7.071068e-011
7053600000 0.17301019 0.0061639985 -0.01559005 0.010890598 7.071068e-011 7.071068e-011 7.071068e-011 7.071068e-011
7062000000 -0.0026789806 -0.012879848 -0.0052692429 -0.019014688 7.071068e-011 7.071068e-011 7.071068e-011 7.071068e-011
7070400000 0.068175942 0.14031379 0.019890944 0.00053308334 7.071068e-011 7.071068e-011 7.071068e-011 7.071068e-011
7078800000 0.17143695 0.01605122 -0.0071942657 0.018242428 7.071068e-011 7.071068e-011 7.071068e-011 7.071068e-011
7087200000 0.038718108 -0.032389589 -0.015494696 -0.013050343 7.071068e-011 7.071068e-011 7.071068e-011 7.071068e-011
7095600000 0.052152228 0.08727286 0.017186731 -0.010891005 7.071068e-011 7.071068e-011 7.071068e-011 7.071068e-011
7104000000 0.14867288 0.017437592 0.0045509739 0.019771865 7.071068e-011 7.071068e-011 7.071068e-011 7.071068e-011
7112400000 0.056912877 -0.046414189 -0.020511925 -0.0023360867 7.071068e-011 7.071068e-011 7.071068e-011 7.071068e-011
7120800000 0.030814599 0.028202288 0.0085219387 -0.019049454 7.071068e-011 7.071068e-011 7.071068e-011 7.071068e-011
7129200000 0.089043617 0.019064404 0.015007635 0.013938987 7.071068e-011 7.071068e-011 7.071068e-011 7.071068e-011
7137600000 0.047510568 -0.03811235 -0.018539995 0.0095837945 7.071068e-011 7.071068e-011 7.071068e-011 7.071068e-011
7146000000 -0.00017312322 0.0097467061 -0.0033308086 -0.020782141 7.071068e-011 7.071068e-011 7.071068e-011 7.071068e-011
7154400000 0.028170548 0.041830305 0.020571422 0.0034986837 7.071068e-011 7.071068e-011 7.071068e-011 7.071068e-011
7162800000 0.046182599 0.017213095 -0.01010054 0.017951958 7.071068e-011 7.071068e-011 7.071068e-011 7.071068e-011
7171200000 0.0035416088 0.017818239 -0.013807631 -0.015556558 7.071068e-011 7.071068e-011 7.071068e-011 7.071068e-011
7179600000 0.014639842 0.070108347 0.018989757 -0.0079249283 7.071068e-011 7.071068e-011 7.071068e-011 7.071068e-011
7188000000 0.066495225 0.05995141 0.00089651486 0.020834848 7.071068e-011 7.071068e-011 7.071068e-011 7.071068e-011
7196400000 0.043798767 0.010156755 -0.020023912 -0.0057996437 7.071068e-011 7.071068e-011 7.071068e-011 7.071068e-011
7204800000 0.010128795 0.062664211 0.012163596 -0.016359724 7.071068e-011 7.071068e-011 7.071068e-011 7.071068e-011
7213200000 0.079002328 0.071406916 0.011354684 0.01720028 7.071068e-011 7.071068e-011 7.071068e-011 7.071068e-011
7221600000 0.071788475 -0.002518283 -0.020147987 0.005121877 7.071068e-011 7.071068e-011 7.071068e-011 7.071068e-011
7230000000 -0.0007078693 0.028545702 0.0019090865 -0.020557806 7.071068e-011 7.071068e-011 7.071068e-011 7.071068e-011
7238400000 0.064748034 0.078727558 0.018707989 0.0091381092 7.071068e-011 7.071068e-011 7.071068e-011 7.071068e-011
7246800000 0.081237979 -0.0094308062 -0.014816038 0.014683239 7.071068e-011 7.071068e-011 7.071068e-011 7.071068e-011
7255200000 -0.01306686 7.77896e-006 -0.0084615536 -0.018790867 7.071068e-011 7.071068e-011 7.071068e-011 7.071068e-011
7263600000 0.026989607 0.084095798 0.020797383 -0.0016633428 7.071068e-011 7.071068e-011 7.071068e-011 7.071068e-011
7272000000 0.078588106 0.0079299016 -0.0052478681 0.019991476 7.071068e-011 7.071068e-011 7.071068e-011 7.071068e-011
7280400000 -0.023494195 -0.006173817 -0.016878193 -0.01187632 7.071068e-011 7.071068e-011 7.071068e-011 7.071068e-011
7288800000 -0.0089271292 0.10304082 0.017274691 -0.011520487 7.071068e-011 7.071068e-011 7.071068e-011 7.071068e-011
7297200000 0.084842958 0.059952393 0.0049341759 0.020231543 7.071068e-011 7.071068e-011 7.071068e-011 7.071068e-011
7305600000 0.0088197291 0.0043730326 -0.020512745 -0.0025051248 7.071068e-011 7.071068e-011 7.071068e-011 7.071068e-011
7314000000 -0.0040787128 0.10622294 0.0094374763 -0.018838869 7.071068e-011 7.071068e-011 7.071068e-011 7.071068e-011
7322400000 0.1087807 0.08564391 0.014296979 0.015035149 7.071068e-011 7.071068e-011 7.071068e-011 7.071068e-011
7330800000 0.060329989 -0.011734374 -0.019421317 0.0077486481 7.071068e-011 7.071068e-011 7.071068e-011 7.071068e-011
7339200000 0.004106367 0.060768411 -0.00069719099 -0.021276489 7.071068e-011 7.071068e-011 7.071068e-011 7.071068e-011
7347600000 0.099084564 0.072099842 0.020049194 0.0064718677 7.071068e-011 7.071068e-011 7.071068e-011 7.071068e-011
7356000000 0.076094911 -0.033514787 -0.013122563 0.016267767 7.071068e-011 7.071068e-011 7.071068e-011 7.071068e-011
7364400000 -0.010110653 0.012244525 -0.010876084 -0.018207096 7.071068e-011 7.071068e-011 7.071068e-011 7.071068e-011
7372800000 0.054546028 0.054832306 0.020611392 -0.0039799889 7.071068e-011 7.071068e-011 7.071068e-011 7.071068e-011
7381200000 0.053087562 -0.030912274 -0.0039420561 0.020812457 7.071068e-011 7.071068e-011 7.071068e-011 7.071068e-011
7389600000 -0.040940464 0.00051920774 -0.018289581 -0.010878653 7.071068e-011 7.071068e-011 7.071068e-011 7.071068e-011
7398000000 0.0055289688 0.072025634 0.016554821 -0.013059264 7.071068e-011 7.071068e-011 7.071068e-011 7.071068e-011
7406400000 0.032954864 0.014886222 0.0064102062 0.020220531 7.071068e-011 7.071068e-011 7.071068e-011 7.071068e-011
7414800000 -0.037947774 0.02728969 -0.021367198 -0.0010111684 7.071068e-011 7.071068e-011 7.071068e-011 7.071068e-011
7423200000 -0.0017820749 0.1034923 0.0083539048 -0.019611353 7.071068e-011 7.071068e-011 7.071068e-011 7.071068e-011
7431600000 0.055579007 0.060771018 0.015308869 0.014931174 7.071068e-011 7.071068e-011 7.071068e-011 7.071068e-011
7440000000 0.013397354 0.038272794 -0.01935477 0.0092977863 7.071068e-011 7.071068e-011 7.071068e-011 7.071068e-011
7448400000 0.024002194 0.085644118 -0.0017725115 -0.021167094 7.071068e-011 7.071068e-011 7.071068e-011 7.071068e-011
7456800000 0.07753703 0.055359885 0.02044999 0.0059215957 7.071068e-011 7.071068e-011 7.071068e-011 7.071068e-011
7465200000 0.046055701 0.013904087 -0.012741857 0.017128386 7.071068e-011 7.071068e-011 7.071068e-011 7.071068e-011
7473600000 0.028635556 0.036959652 -0.011469156 -0.017790589 7.071068e-011 7.071068e-011 7.071068e-011 7.071068e-011
7482000000 0.058275942 0.033190817 0.020668527 -0.0041238894 7.071068e-011 7.071068e-011 7.071068e-011 7.071068e-011
7490400000 0.04368604 -0.010735725 -0.0034939742 0.020850144 7.071068e-011 7.071068e-011 7.071068e-011 7.071068e-011
7498800000 -0.00076254091 -0.0016633667 -0.01808423 -0.010621868 7.071068e-011 7.071068e-011 7.071068e-011 7.071068e-011
7507200000 0.00045317636 0.031030277 0.016377218 -0.013095775 7.071068e-011 7.071068e-011 7.071068e-011 7.071068e-011
7515600000 0.020731404 0.015321631 0.0063551436 0.019868324 7.071068e-011 7.071068e-011 7.071068e-011 7.071068e-011
7524000000 -0.021108799 0.0031543663 -0.020699669 -0.0012506857 7.071068e-011 7.071068e-011 7.071068e-011 7.071068e-011
7532400000 -0.034063298 0.06003217 0.0087147048 -0.018761285 7.071068e-011 7.071068e-011 7.071068e-011 7.071068e-011
7540800000 0.022642693 0.07327088 0.014447905 0.014725786 7.071068e-011 7.071068e-011 7.071068e-011 7.071068e-011
7549200000 0.019646535 0.022391755 -0.018582776 0.0078263758 7.071068e-011 7.071068e-011 7.071068e-011 7.071068e-011
7557600000 -0.018485395 0.060890365 -0.00040484485 -0.020275896 7.071068e-011 7.071068e-011 7.071068e-011 7.071068e-011
7566000000 0.047858678 0.083712608 0.018870478 0.006929602 7.071068e-011 7.071068e-011 7.071068e-011 7.071068e-011
7574400000 0.061009016 0.0077536153 -0.01351431 0.014880042 7.071068e-011 7.071068e-011 7.071068e-011 7.071068e-011
7582800000 -0.0099812103 0.015418896 -0.0089023821 -0.018029056 7.071068e-011 7.071068e-011 7.071068e-011 7.071068e-011
7591200000 0.036729243 0.064326674 0.019780634 -0.0017988778 7.071068e-011 7.071068e-011 7.071068e-011 7.071068e-011
7599600000 0.059128188 -0.015036027 -0.0057077999 0.018706914 7.071068e-011 7.071068e-011 7.071068e-011 7.071068e-011
7608000000 -0.030860011 -0.020576216 -0.015506934 -0.012643712 7.071068e-011 7.071068e-011 7.071068e-011 7.071068e-011
7616400000 -0.015097078 0.056682996 0.017223883 -0.010052031 7.071068e-011 7.071068e-011 7.071068e-011 7.071068e-011
7624800000 0.031578109 0.0051926542 0.0027245772 0.019579679 7.071068e-011 7.071068e-011 7.071068e-011 7.071068e-011
7633200000 -0.052664414 -0.0063592549 -0.01915686 -0.0046439576 7.071068e-011 7.071068e-011 7.071068e-011 7.071068e-011
7641600000 -0.038375799 0.086927146 0.01139832 -0.015898032 7.071068e-011 7.071068e-011 7.071068e-011 7.071068e-011
7650000000 0.037825175 0.053076267 0.010501811 0.016604198 7.071068e-011 7.071068e-011 7.071068e-011 7.071068e-011
7658400000 -0.020971967 0.011719967 -0.019557916 0.0037646953 7.071068e-011 7.071068e-011 7.071068e-011 7.071068e-011
7666800000 -0.022714458 0.095779814 0.0034575583 -0.019295551 7.071068e-011 7.071068e-011 7.071068e-011 7.071068e-011
7675200000 0.06948898 0.071663827 0.016188551 0.010766212 7.071068e-011 7.071068e-011 7.071068e-011 7.071068e-011
7683600000 0.032098129 -0.0040328261 -0.016283294 0.011293708 7.071068e-011 7.071068e-011 7.071068e-011 7.071068e-011
7692000000 -0.0053364998 0.046783585 -0.004587383 -0.019173395 7.071068e-011 7.071068e-011 7.071068e-011 7.071068e-011
7700400000 0.065755561 0.043968081 0.019487683 0.0028110726 7.071068e-011 7.071068e-011 7.071068e-011 7.071068e-011
7708800000 0.0357242 -0.039860085 -0.0099866278 0.016966844 7.071068e-011 7.071068e-011 7.071068e-011 7.071068e-011
7717200000 -0.033748906 0.00079660246 -0.012053963 -0.015638378 7.071068e-011 7.071068e-011 7.071068e-011 7.071068e-011
7725600000 0.016954601 0.033767302 0.019012334 -0.0051242565 7.071068e-011 7.071068e-011 7.071068e-011 7.071068e-011
7734000000 0.01396648 -0.035613764 -0.0021461216 0.019781841 7.071068e-011 7.071068e-011 7.071068e-011 7.071068e-011
7742400000 -0.070615813 -0.012256199 -0.017325385 -0.0091722906 7.071068e-011 7.071068e-011 7.071068e-011 7.071068e-011
7750800000 -0.040711984 0.062359538 0.015239527 -0.012580469 7.071068e-011 7.071068e-011 7.071068e-011 7.071068e-011
7759200000 0.0016052257 0.025434097 0.006061377 0.018910939 7.071068e-011 7.071068e-011 7.071068e-011 7.071068e-011
7767600000 -0.053338222 0.019332316 -0.019811735 -0.0014594275 7.071068e-011 7.071068e-011 7.071068e-011 7.071068e-011
7776000000 -0.037838183 0.091080792 0.0087423446 -0.017654512 7.071068e-011 7.071068e-011 7.071068e-011 7.071068e-011
7784400000 0.031572592 0.067972779 0.013140464 0.014764596 7.071068e-011 7.071068e-011 7.071068e-011 7.071068e-011
7792800000 0.0011552933 0.024833608 -0.018474396 0.0065602567 7.071068e-011 7.071068e-011 7.071068e-011 7.071068e-011
7801200000 -0.0074972226 0.070197195 0.0010820804 -0.019865908 7.071068e-011 7.071068e-011 7.071068e-011 7.071068e-011
7809600000 0.052969389 0.058430497 0.018072363 0.0082226014 7.071068e-011 7.071068e-011 7.071068e-011 7.071068e-011
7818000000 0.035455402 -0.0042207432 -0.014426123 0.013353685 7.071068e-011 7.071068e-011 7.071068e-011 7.071068e-011
7826400000 -0.0056163464 0.020673526 -0.0070160618 -0.018481819 7.071068e-011 7.071068e-011 7.071068e-011 7.071068e-011
7834800000 0.032540038 0.031751297 0.01975959 0.00042320581 7.071068e-011 7.071068e-011 7.071068e-011 7.071068e-011
7843200000 0.025359975 -0.019820997 -0.0078487331 0.018195825 7.071068e-011 7.071068e-011 7.071068e-011 7.071068e-011
7851600000 -0.026907181 -0.0045350678 -0.013903008 -0.014197321 7.071068e-011 7.071068e-011 7.071068e-011 7.071068e-011
7860000000 -0.0040044934 0.030719662 0.018279551 -0.0076001575 7.071068e-011 7.071068e-011 7.071068e-011 7.071068e-011
7868400000 0.010218366 -0.0035022083 -4.1027604e-005 0.019747561 7.071068e-011 7.071068e-011 7.071068e-011 7.071068e-011
7876800000 -0.036049917 -0.0037650594 -0.018501168 -0.0074690706 7.071068e-011 7.071068e-011 7.071068e-011 7.071068e-011
7885200000 -0.030683635 0.043346152 0.013676658 -0.014370428 7.071068e-011 7.071068e-011 7.071068e-011 7.071068e-011
7893600000 0.0089007504 0.036335345 0.0080110319 0.017876543 7.071068e-011 7.071068e-011 7.071068e-011 7.071068e-011
7902000000 -0.0082506305 0.0091410885 -0.01968503 0.00041079824 7.071068e-011 7.071068e-011 7.071068e-011 7.071068e-011
7910400000 -0.021470983 0.03918929 0.0069323876 -0.018541966 7.071068e-011 7.071068e-011 7.071068e-011 7.071068e-011
7918800000 0.017200964 0.048892383 0.014385062 0.013206486 7.071068e-011 7.071068e-011 7.071068e-011 7.071068e-011
7927200000 0.028451484 0.0074511506 -0.017664915 0.0082111293 7.071068e-011 7.071068e-011 7.071068e-011 7.071068e-011
7935600000 -0.0078315707 0.0058017708 -0.00086604065 -0.019343922 7.071068e-011 7.071068e-011 7.071068e-011 7.071068e-011
7944000000 0.010790328 0.033121396 0.018172089 0.0066768248 7.071068e-011 7.071068e-011 7.071068e-011 7.071068e-011
7952400000 0.037637524 -0.0054516336 -0.013116262 0.01424474 7.071068e-011 7.071068e-011 7.071068e-011 7.071068e-011
7960800000 -0.015061733 -0.033550017 -0.0082930969 -0.017477959 7.071068e-011 7.071068e-011 7.071068e-011 7.071068e-011
7969200000 -0.029255547 0.020968033 0.019030059 -0.0009240614 7.071068e-011 7.071068e-011 7.071068e-011 7.071068e-011
7977600000 0.020095114 0.0067235138 -0.006538264 0.01793159 7.071068e-011 7.071068e-011 7.071068e-011 7.071068e-011
7986000000 -0.024308229 -0.039656926 -0.014108712 -0.012834433 7.071068e-011 7.071068e-011 7.071068e-011 7.071068e-011
7994400000 -0.065217555 0.0247228 0.017152557 -0.0081668152 7.071068e-011 7.071068e-011 7.071068e-011 7.071068e-011
