!Keysight Technologies,N5235B,MY61252044,A.15.00.15
!Date: Friday, January 20, 2023 23:12:17
!Correction: S11(Off) 
!S21(Off) 
!S12(Off) 
!S22(Off) 
!S2P File: Measurements: S11, S21, S12, S22:
# Hz S  RI   R 50
6600000000 0.018329332 -0.17537837 0.015462789 -0.0031679452 7.071068e-011 7.071068e-011 7.071068e-011 7.071068e-011
6608408408.4084 -0.12432674 0.16583608 0.0054002116 0.010812294 7.071068e-011 7.071068e-011 7.071068e-011 7.071068e-011
6616816816.8168 0.30599275 0.092403963 -0.0088958191 0.0037651793 7.071068e-011 7.071068e-011 7.071068e-011 7.071068e-011
6625225225.2252 0.024437984 -0.2728236 -0.0018557525 -0.0093075139 7.071068e-011 7.071068e-011 7.071068e-011 7.071068e-011
6633633633.6336 -0.16559306 0.16144824 0.0093493257 -0.00046321441 7.071068e-011 7.071068e-011 7.071068e-011 7.071068e-011
6642042042.042 0.28998032 0.11313559 -0.0017843689 0.0093477881 7.071068e-011 7.071068e-011 7.071068e-011 7.071068e-011
6650450450.4505 0.038992815 -0.2522198 -0.010769259 -0.0040131086 7.071068e-011 7.071068e-011 7.071068e-011 7.071068e-011
6658858858.8589 -0.14839393 0.13467973 0.0058972491 -0.011553092 7.071068e-011 7.071068e-011 7.071068e-011 7.071068e-011
6667267267.2673 0.22869076 0.10100667 0.012284072 0.0090888329 7.071068e-011 7.071068e-011 7.071068e-011 7.071068e-011
6675675675.6757 0.042596795 -0.15098539 -0.011455788 0.01392786 7.071068e-011 7.071068e-011 7.071068e-011 7.071068e-011
6684084084.0841 -0.044114433 0.084101796 -0.0147269 -0.013268799 7.071068e-011 7.071068e-011 7.071068e-011 7.071068e-011
6692492492.4925 0.10555043 0.047647391 0.014721148 -0.015068368 7.071068e-011 7.071068e-011 7.071068e-011 7.071068e-011
6700900900.9009 0.086227097 0.018067278 0.014906161 0.015312747 7.071068e-011 7.071068e-011 7.071068e-011 7.071068e-011
6709309309.3093 0.076941073 -0.041640397 -0.015465577 0.013241214 7.071068e-011 7.071068e-011 7.071068e-011 7.071068e-011
6717717717.7177 -0.030908883 0.034236152 -0.010279237 -0.01641978 7.071068e-011 7.071068e-011 7.071068e-011 7.071068e-011
6726126126.1261 0.15487415 0.11633663 0.016769087 -0.0072201369 7.071068e-011 7.071068e-011 7.071068e-011 7.071068e-011
6734534534.5345 0.12878841 -0.14067806 0.0036844697 0.016228726 7.071068e-011 7.071068e-011 7.071068e-011 7.071068e-011
6742942942.9429 -0.10807744 0.026663331 -0.015941465 -0.00015232307 7.071068e-011 7.071068e-011 7.071068e-011 7.071068e-011
6751351351.3514 0.17174572 0.15264496 0.0034985268 -0.015423973 7.071068e-011 7.071068e-011 7.071068e-011 7.071068e-011
6759759759.7598 0.15047297 -0.1717099 0.013257303 0.0069690626 7.071068e-011 7.071068e-011 7.071068e-011 7.071068e-011
6768168168.1682 -0.14678641 -0.0052734632 -0.010782816 0.010510473 7.071068e-011 7.071068e-011 7.071068e-011 7.071068e-011
6776576576.5766 0.13400653 0.17869008 -0.008120873 -0.013421729 7.071068e-011 7.071068e-011 7.071068e-011 7.071068e-011
6784984984.985 0.15119126 -0.14597894 0.014539194 -0.0041358229 7.071068e-011 7.071068e-011 7.071068e-011 7.071068e-011
6793393393.3934 -0.14737247 -0.0067976415 -0.00022480222 0.01554073 7.071068e-011 7.071068e-011 7.071068e-011 7.071068e-011
6801801801.8018 0.10145108 0.20287724 -0.015768569 -0.004176971 7.071068e-011 7.071068e-011 7.071068e-011 7.071068e-011
6810210210.2102 0.17257909 -0.095106699 0.008571445 -0.014517859 7.071068e-011 7.071068e-011 7.071068e-011 7.071068e-011
6818618618.6186 -0.10550329 -0.010210879 0.012263632 0.013152371 7.071068e-011 7.071068e-011 7.071068e-011 7.071068e-011
6827027027.027 0.088058628 0.18540174 -0.01590284 0.00934768 7.071068e-011 7.071068e-011 7.071068e-011 7.071068e-011
6835435435.4354 0.1812225 -0.048800692 -0.0046314094 -0.017875481 7.071068e-011 7.071068e-011 7.071068e-011 7.071068e-011
6843843843.8438 -0.045162816 -0.027921749 0.020191176 7.9737059e-005 7.071068e-011 7.071068e-011 7.071068e-011 7.071068e-011
6852252252.2523 0.074485093 0.12907656 -0.0044196816 0.020350184 7.071068e-011 7.071068e-011 7.071068e-011 7.071068e-011
6860660660.6607 0.14534003 -0.020040663 -0.018693246 -0.0094633112 7.071068e-011 7.071068e-011 7.071068e-011 7.071068e-011
6869069069.0691 0.0039813328 -0.027303079 0.014400961 -0.016213369 7.071068e-011 7.071068e-011 7.071068e-011 7.071068e-011
6877477477.4775 0.054149423 0.072843879 0.012832532 0.018009579 7.071068e-011 7.071068e-011 7.071068e-011 7.071068e-011
6885885885.8859 0.090346478 0.0066164895 -0.020409618 0.0078754984 7.071068e-011 7.071068e-011 7.071068e-011 7.071068e-011
6894294294.2943 0.047168422 -0.00073265436 -0.0024899642 -0.022022102 7.071068e-011 7.071068e-011 7.071068e-011 7.071068e-011
6902702702.7027 0.038401149 0.019116778 0.022040114 0.0030643623 7.071068e-011 7.071068e-011 7.071068e-011 7.071068e-011
6911111111.1111 0.030756416 0.037886214 -0.0086105317 0.02030405 7.071068e-011 7.071068e-011 7.071068e-011 7.071068e-011
6919519519.5195 0.078565277 0.049748894 -0.017067198 -0.013479646 7.071068e-011 7.071068e-011 7.071068e-011 7.071068e-011
6927927927.9279 0.050430849 -0.012294047 0.017143263 -0.012921856 7.071068e-011 7.071068e-011 7.071068e-011 7.071068e-011
6936336336.3363 -0.0018620663 0.062193725 0.0074327285 0.01942298 7.071068e-011 7.071068e-011 7.071068e-011 7.071068e-011
6944744744.7447 0.11218803 0.089271225 -0.020840701 0.001314013 7.071068e-011 7.071068e-011 7.071068e-011 7.071068e-011
6953153153.1532 0.084485695 -0.045391165 0.0043312567 -0.020043902 7.071068e-011 7.071068e-011 7.071068e-011 7.071068e-011
6961561561.5616 -0.028471965 0.054250166 0.017436003 0.0098195365 7.071068e-011 7.071068e-011 7.071068e-011 7.071068e-011
6969969969.97 0.12477299 0.10613005 -0.014412053 0.013686073 7.071068e-011 7.071068e-011 7.071068e-011 7.071068e-011
6978378378.3784 0.10164753 -0.071115769 -0.0085422406 -0.017309694 7.071068e-011 7.071068e-011 7.071068e-011 7.071068e-011
6986786786.7868 -0.064147159 0.033084434 0.018717645 -0.0024510331 7.071068e-011 7.071068e-011 7.071068e-011 7.071068e-011
6995195195.1952 0.10319987 0.13364194 -0.0033916987 0.01895389 7.071068e-011 7.071068e-011 7.071068e-011 7.071068e-011
7003603603.6036 0.1086416 -0.057788141 -0.016682459 -0.008766464 7.071068e-011 7.071068e-011 7.071068e-011 7.071068e-011
7012012012.012 -0.072452247 0.032494947 0.01402035 -0.012590822 7.071068e-011 7.071068e-011 7.071068e-011 7.071068e-011
7020420420.4204 0.087874755 0.16139306 0.007935958 0.017273141 7.071068e-011 7.071068e-011 7.071068e-011 7.071068e-011
7028828828.8288 0.13278508 -0.028991172 -0.018525301 0.0019817704 7.071068e-011 7.071068e-011 7.071068e-011 7.071068e-011
7037237237.2372 -0.054196216 0.030625198 0.0042620786 -0.018698312 7.071068e-011 7.071068e-011 7.071068e-011 7.071068e-011
7045645645.6456 0.090249449 0.17108509 0.016545098 0.0096629588 7.071068e-011 7.071068e-011 7.071068e-011 7.071068e-011
7054054054.0541 0.16751607 -0.0034059521 -0.014575522 0.012182044 7.071068e-011 7.071068e-011 7.071068e-011 7.071068e-011
7062462462.4625 -0.0082359007 -0.0036662377 -0.0070019928 -0.018416382 7.071068e-011 7.071068e-011 7.071068e-011 7.071068e-011
7070870870.8709 0.078507714 0.1401636 0.019764755 -0.0013698081 7.071068e-011 7.071068e-011 7.071068e-011 7.071068e-011
7079279279.2793 0.1680956 0.007452101 -0.0053876671 0.018844575 7.071068e-011 7.071068e-011 7.071068e-011 7.071068e-011
7087687687.6877 0.032742284 -0.027037136 -0.016744101 -0.011350325 7.071068e-011 7.071068e-011 7.071068e-011 7.071068e-011
7096096096.0961 0.059303548 0.089326099 0.015843924 -0.012619729 7.071068e-011 7.071068e-011 7.071068e-011 7.071068e-011
7104504504.5045 0.14801461 0.010371435 0.0067000925 0.019095935 7.071068e-011 7.071068e-011 7.071068e-011 7.071068e-011
7112912912.9129 0.050614234 -0.044756986 -0.020656595 5.1336181e-005 7.071068e-011 7.071068e-011 7.071068e-011 7.071068e-011
7121321321.3213 0.034553763 0.032129694 0.0061366702 -0.019912003 7.071068e-011 7.071068e-011 7.071068e-011 7.071068e-011
7129729729.7297 0.089273266 0.014196613 0.016564038 0.011938039 7.071068e-011 7.071068e-011 7.071068e-011 7.071068e-011
7138138138.1381 0.043327056 -0.037532095 -0.017085312 0.011860361 7.071068e-011 7.071068e-011 7.071068e-011 7.071068e-011
7146546546.5465 -0.00036875877 0.013394917 -0.0060304641 -0.020066373 7.071068e-011 7.071068e-011 7.071068e-011 7.071068e-011
7154954954.955 0.030450376 0.041529268 0.020809218 0.00067269959 7.071068e-011 7.071068e-011 7.071068e-011 7.071068e-011
7163363363.3634 0.045206856 0.015574235 -0.007497903 0.019163797 7.071068e-011 7.071068e-011 7.071068e-011 7.071068e-011
7171771771.7718 0.00089410698 0.020347616 -0.015864128 -0.013353133 7.071068e-011 7.071068e-011 7.071068e-011 7.071068e-011
7180180180.1802 0.018742435 0.072559334 0.017544923 -0.010549036 7.071068e-011 7.071068e-011 7.071068e-011 7.071068e-011
7188588588.5886 0.067551613 0.056019936 0.0040642745 0.020432379 7.071068e-011 7.071068e-011 7.071068e-011 7.071068e-011
7196996996.997 0.040012013 0.010305797 -0.020646753 -0.002557883 7.071068e-011 7.071068e-011 7.071068e-011 7.071068e-011
7205405405.4054 0.012250124 0.066906318 0.0093853977 -0.01809353 7.071068e-011 7.071068e-011 7.071068e-011 7.071068e-011
7213813813.8138 0.083186746 0.067475066 0.01398869 0.015067683 7.071068e-011 7.071068e-011 7.071068e-011 7.071068e-011
7222222222.2222 0.066325881 -0.0057483804 -0.018915826 0.008393839 7.071068e-011 7.071068e-011 7.071068e-011 7.071068e-011
7230630630.6306 -0.0015079674 0.035363294 -0.0016176067 -0.020477796 7.071068e-011 7.071068e-011 7.071068e-011 7.071068e-011
7239039039.039 0.071796864 0.075440571 0.020000838 0.005685363 7.071068e-011 7.071068e-011 7.071068e-011 7.071068e-011
7247447447.4474 0.074962564 -0.01476464 -0.011876915 0.017089067 7.071068e-011 7.071068e-011 7.071068e-011 7.071068e-011
7255855855.8559 -0.016342616 0.0074007423 -0.011746701 -0.016932081 7.071068e-011 7.071068e-011 7.071068e-011 7.071068e-011
7264264264.2643 0.034669552 0.083927281 0.020091068 -0.0055292547 7.071068e-011 7.071068e-011 7.071068e-011 7.071068e-011
7272672672.6727 0.07452707 0.00083751132 -0.0013308577 0.020562848 7.071068e-011 7.071068e-011 7.071068e-011 7.071068e-011
7281081081.0811 -0.029934339 0.00056913507 -0.0188087 -0.0082837036 7.071068e-011 7.071068e-011 7.071068e-011 7.071068e-011
7289489489.4895 -3.2761589e-005 0.1078527 0.01456307 -0.014751337 7.071068e-011 7.071068e-011 7.071068e-011 7.071068e-011
7297897897.8979 0.085088603 0.05041321 0.0089728162 0.018745031 7.071068e-011 7.071068e-011 7.071068e-011 7.071068e-011
7306306306.3063 0.00087656383 0.0090417499 -0.020558855 0.0017550552 7.071068e-011 7.071068e-011 7.071068e-011 7.071068e-011
7314714714.7147 0.0043537426 0.11271139 0.0052256188 -0.020336062 7.071068e-011 7.071068e-011 7.071068e-011 7.071068e-011
7323123123.1231 0.11242124 0.075355038 0.01710875 0.011596452 7.071068e-011 7.071068e-011 7.071068e-011 7.071068e-011
7331531531.5315 0.05147513 -0.01173441 -0.01724237 0.011865238 7.071068e-011 7.071068e-011 7.071068e-011 7.071068e-011
7339939939.9399 0.0077125281 0.068491258 -0.0055080783 -0.020521494 7.071068e-011 7.071068e-011 7.071068e-011 7.071068e-011
7348348348.3483 0.10563522 0.063887775 0.020953668 0.0017324269 7.071068e-011 7.071068e-011 7.071068e-011 7.071068e-011
7356756756.7568 0.066093914 -0.037231602 -0.0090280101 0.01887753 7.071068e-011 7.071068e-011 7.071068e-011 7.071068e-011
7365165165.1652 -0.010277352 0.021119282 -0.014881524 -0.015053457 7.071068e-011 7.071068e-011 7.071068e-011 7.071068e-011
7373573573.5736 0.061679963 0.04962194 0.018926149 -0.0087363636 7.071068e-011 7.071068e-011 7.071068e-011 7.071068e-011
7381981981.982 0.043738272 -0.035247102 0.0012471954 0.02110639 7.071068e-011 7.071068e-011 7.071068e-011 7.071068e-011
7390390390.3904 -0.042831182 0.0096233869 -0.020389361 -0.0059848079 7.071068e-011 7.071068e-011 7.071068e-011 7.071068e-011
7398798798.7988 0.012711267 0.07117866 0.012753277 -0.016817437 7.071068e-011 7.071068e-011 7.071068e-011 7.071068e-011
7407207207.2072 0.0281718 0.0099540818 0.011354635 0.017897446 7.071068e-011 7.071068e-011 7.071068e-011 7.071068e-011
7415615615.6156 -0.041118238 0.03516487 -0.020845888 0.0045854547 7.071068e-011 7.071068e-011 7.071068e-011 7.071068e-011
7424024024.024 0.0068617132 0.10524221 0.0028613159 -0.021074288 7.071068e-011 7.071068e-011 7.071068e-011 7.071068e-011
7432432432.4324 0.05471826 0.053893603 0.01877453 0.010244667 7.071068e-011 7.071068e-011 7.071068e-011 7.071068e-011
7440840840.8408 0.0097091552 0.042560089 -0.016001964 0.014207827 7.071068e-011 7.071068e-011 7.071068e-011 7.071068e-011
7449249249.2492 0.030429909 0.086939454 -0.0075105517 -0.019797366 7.071068e-011 7.071068e-011 7.071068e-011 7.071068e-011
7457657657.6577 0.077715226 0.049084466 0.021252422 -2.1580609e-005 7.071068e-011 7.071068e-011 7.071068e-011 7.071068e-011
7466066066.0661 0.042026091 0.014057945 -0.0073403874 0.019999504 7.071068e-011 7.071068e-011 7.071068e-011 7.071068e-011
7474474474.4745 0.030243371 0.03922778 -0.016061535 -0.013694612 7.071068e-011 7.071068e-011 7.071068e-011 7.071068e-011
7482882882.8829 0.060075536 0.029267516 0.018549453 -0.0099692913 7.071068e-011 7.071068e-011 7.071068e-011 7.071068e-011
7491291291.2913 0.038788449 -0.013584657 0.0028347608 0.020914389 7.071068e-011 7.071068e-011 7.071068e-011 7.071068e-011
7499699699.6997 -0.0032840918 0.0026130839 -0.02041338 -0.0047347997 7.071068e-011 7.071068e-011 7.071068e-011 7.071068e-011
7508108108.1081 0.003330746 0.031729177 0.011587738 -0.017430177 7.071068e-011 7.071068e-011 7.071068e-011 7.071068e-011
7516516516.5165 0.01925694 0.012124135 0.012148087 0.016877677 7.071068e-011 7.071068e-011 7.071068e-011 7.071068e-011
7524924924.9249 -0.026174555 0.0064766756 -0.019977652 0.0052563376 7.071068e-011 7.071068e-011 7.071068e-011 7.071068e-011
7533333333.3333 -0.030077061 0.066003233 0.0023555998 -0.020513643 7.071068e-011 7.071068e-011 7.071068e-011 7.071068e-011
7541741741.7417 0.028090306 0.068952903 0.018326558 0.0093270028 7.071068e-011 7.071068e-011 7.071068e-011 7.071068e-011
7550150150.1502 0.012813643 0.020455943 -0.015099423 0.013347566 7.071068e-011 7.071068e-011 7.071068e-011 7.071068e-011
7558558558.5586 -0.015187105 0.068612061 -0.0070120394 -0.018981373 7.071068e-011 7.071068e-011 7.071068e-011 7.071068e-011
7566966966.967 0.055524137 0.077910461 0.020009845 0.00031408577 7.071068e-011 7.071068e-011 7.071068e-011 7.071068e-011
7575375375.3754 0.053581666 0.0011738726 -0.0077512995 0.018529935 7.071068e-011 7.071068e-011 7.071068e-011 7.071068e-011
7583783783.7838 -0.011769095 0.023807338 -0.014520788 -0.013952339 7.071068e-011 7.071068e-011 7.071068e-011 7.071068e-011
7592192192.1922 0.045282815 0.060758028 0.017929824 -0.0084711611 7.071068e-011 7.071068e-011 7.071068e-011 7.071068e-011
7600600600.6006 0.052022342 -0.024362298 0.0010428064 0.019466881 7.071068e-011 7.071068e-011 7.071068e-011 7.071068e-011
7609009009.009 -0.03818617 -0.010869761 -0.018923132 -0.0063737095 7.071068e-011 7.071068e-011 7.071068e-011 7.071068e-011
7617417417.4174 -0.0050145201 0.05825131 0.012489055 -0.015412298 7.071068e-011 7.071068e-011 7.071068e-011 7.071068e-011
7625825825.8258 0.026295543 -0.0042368257 0.0095585249 0.017314205 7.071068e-011 7.071068e-011 7.071068e-011 7.071068e-011
7634234234.2342 -0.060556155 0.0041553904 -0.019525632 0.0025969537 7.071068e-011 7.071068e-011 7.071068e-011 7.071068e-011
7642642642.6426 -0.026620083 0.091413125 0.0048356247 -0.018944753 7.071068e-011 7.071068e-011 7.071068e-011 7.071068e-011
7651051051.0511 0.037446469 0.042742305 0.015853161 0.011573318 7.071068e-011 7.071068e-011 7.071068e-011 7.071068e-011
7659459459.4595 -0.029612439 0.01793123 -0.016680947 0.010810694 7.071068e-011 7.071068e-011 7.071068e-011 7.071068e-011
7667867867.8679 -0.011811413 0.10249605 -0.0040613343 -0.0190764 7.071068e-011 7.071068e-011 7.071068e-011 7.071068e-011
7676276276.2763 0.074032776 0.059080176 0.019111771 0.003794499 7.071068e-011 7.071068e-011 7.071068e-011 7.071068e-011
7684684684.6847 0.02130365 -0.0040418231 -0.010623277 0.0166912 7.071068e-011 7.071068e-011 7.071068e-011 7.071068e-011
7693093093.0931 0.00073816878 0.054501932 -0.011599466 -0.015863404 7.071068e-011 7.071068e-011 7.071068e-011 7.071068e-011
7701501501.5015 0.071003817 0.032429341 0.018979359 -0.0049821688 7.071068e-011 7.071068e-011 7.071068e-011 7.071068e-011
7709909909.9099 0.023367299 -0.042280521 -0.0024494617 0.019535339 7.071068e-011 7.071068e-011 7.071068e-011 7.071068e-011
7718318318.3183 -0.033081844 0.010594993 -0.017299214 -0.0094504552 7.071068e-011 7.071068e-011 7.071068e-011 7.071068e-011
7726726726.7267 0.024190817 0.028007822 0.01534059 -0.012378967 7.071068e-011 7.071068e-011 7.071068e-011 7.071068e-011
7735135135.1351 0.0031274885 -0.041345201 0.0061117709 0.018899687 7.071068e-011 7.071068e-011 7.071068e-011 7.071068e-011
7743543543.5435 -0.075206026 -0.00029327869 -0.019535959 -0.0012781 7.071068e-011 7.071068e-011 7.071068e-011 7.071068e-011
7751951951.952 -0.030287107 0.064401634 0.0085638855 -0.017752796 7.071068e-011 7.071068e-011 7.071068e-011 7.071068e-011
7760360360.3604 -0.0027055268 0.017373299 0.013372141 0.014534436 7.071068e-011 7.071068e-011 7.071068e-011 7.071068e-011
7768768768.7688 -0.058233004 0.028538477 -0.018516084 0.0070219054 7.071068e-011 7.071068e-011 7.071068e-011 7.071068e-011
7777177177.1772 -0.027289651 0.095343634 0.00042741589 -0.019720582 7.071068e-011 7.071068e-011 7.071068e-011 7.071068e-011
7785585585.5856 0.03375826 0.058264807 0.018195353 0.0076638483 7.071068e-011 7.071068e-011 7.071068e-011 7.071068e-011
7793993993.994 -0.0053273593 0.027615441 -0.01379227 0.013818191 7.071068e-011 7.071068e-011 7.071068e-011 7.071068e-011
7802402402.4024 -0.00073564489 0.074927248 -0.0077457749 -0.018308463 7.071068e-011 7.071068e-011 7.071068e-011 7.071068e-011
7810810810.8108 0.058217388 0.04900074 0.019768409 -0.00063584419 7.071068e-011 7.071068e-011 7.071068e-011 7.071068e-011
7819219219.2192 0.025910588 -0.0065247556 -0.0069653918 0.018393919 7.071068e-011 7.071068e-011 7.071068e-011 7.071068e-011
7827627627.6276 -0.0035441511 0.026915239 -0.014519442 -0.013318012 7.071068e-011 7.071068e-011 7.071068e-011 7.071068e-011
7836036036.036 0.037410915 0.025642321 0.017760003 -0.0084946128 7.071068e-011 7.071068e-011 7.071068e-011 7.071068e-011
7844444444.4444 0.016572708 -0.023578959 0.0012879514 0.019700306 7.071068e-011 7.071068e-011 7.071068e-011 7.071068e-011
7852852852.8529 -0.028185491 0.0027710272 -0.018844157 -0.0061923498 7.071068e-011 7.071068e-011 7.071068e-011 7.071068e-011
7861261261.2613 0.0014834128 0.029660672 0.012642888 -0.015160361 7.071068e-011 7.071068e-011 7.071068e-011 7.071068e-011
7869669669.6697 0.0057272017 -0.0092633981 0.0091740238 0.017479924 7.071068e-011 7.071068e-011 7.071068e-011 7.071068e-011
7878078078.0781 -0.040571727 0.0033195801 -0.019790715 0.002147241 7.071068e-011 7.071068e-011 7.071068e-011 7.071068e-011
7886486486.4865 -0.024295514 0.047007602 0.005202787 -0.019066665 7.071068e-011 7.071068e-011 7.071068e-011 7.071068e-011
7894894894.8949 0.010803656 0.030190863 0.015508967 0.011839758 7.071068e-011 7.071068e-011 7.071068e-011 7.071068e-011
7903303303.3033 -0.013411095 0.011259347 -0.016989157 0.0098433075 7.071068e-011 7.071068e-011 7.071068e-011 7.071068e-011
7911711711.7117 -0.017843911 0.043704022 -0.0029381246 -0.019446956 7.071068e-011 7.071068e-011 7.071068e-011 7.071068e-011
7920120120.1201 0.022961341 0.045110952 0.018927444 0.0045619756 7.071068e-011 7.071068e-011 7.071068e-011 7.071068e-011
7928528528.5285 0.023828028 0.0018463898 -0.011319163 0.015820993 7.071068e-011 7.071068e-011 7.071068e-011 7.071068e-011
7936936936.9369 -0.010147932 0.011167124 -0.010299164 -0.016296051 7.071068e-011 7.071068e-011 7.071068e-011 7.071068e-011
7945345345.3453 0.017970648 0.032151628 0.018993745 -0.0032560478 7.071068e-011 7.071068e-011 7.071068e-011 7.071068e-011
