!Keysight Technologies,N5235B,MY61252044,A.15.00.15
!Date: Friday, January 20, 2023 18:58:42
!Correction: S11(Off) 
!S21(Off) 
!S12(Off) 
!S22(Off) 
!S2P File: Measurements: S11, S21, S12, S22:
# Hz S  RI   R 50
6600000000 0.016403992 -0.17433783 0.014911039 -0.0052320813 7.071068e-011 7.071068e-011 7.071068e-011 7.071068e-011
6608400000 -0.12315423 0.16714831 0.00678962 0.010005128 7.071068e-011 7.071068e-011 7.071068e-011 7.071068e-011
6616800000 0.30715349 0.09097302 -0.0083321668 0.0048721409 7.071068e-011 7.071068e-011 7.071068e-011 7.071068e-011
6625200000 0.022861406 -0.27299389 -0.0030013549 -0.0089990133 7.071068e-011 7.071068e-011 7.071068e-011 7.071068e-011
6633600000 -0.16541034 0.1622013 0.0092096245 -0.001596407 7.071068e-011 7.071068e-011 7.071068e-011 7.071068e-011
6642000000 0.29071042 0.1132895 -0.00067199877 0.0094612176 7.071068e-011 7.071068e-011 7.071068e-011 7.071068e-011
6650400000 0.038983144 -0.25280467 -0.011119884 -0.0027913514 7.071068e-011 7.071068e-011 7.071068e-011 7.071068e-011
6658800000 -0.14885709 0.13401839 0.0046036532 -0.012109999 7.071068e-011 7.071068e-011 7.071068e-011 7.071068e-011
6667200000 0.22838452 0.10300715 0.013098197 0.0077284365 7.071068e-011 7.071068e-011 7.071068e-011 7.071068e-011
6675600000 0.043992575 -0.15277347 -0.0100346 0.014903381 7.071068e-011 7.071068e-011 7.071068e-011 7.071068e-011
6684000000 -0.045249287 0.084427528 -0.015874457 -0.011846571 7.071068e-011 7.071068e-011 7.071068e-011 7.071068e-011
6692400000 0.10559458 0.048419598 0.013276621 -0.016301492 7.071068e-011 7.071068e-011 7.071068e-011 7.071068e-011
6700800000 0.086067192 0.017073426 0.016087973 0.014004016 7.071068e-011 7.071068e-011 7.071068e-011 7.071068e-011
6709200000 0.077701822 -0.040029958 -0.014427088 0.014447532 7.071068e-011 7.071068e-011 7.071068e-011 7.071068e-011
6717600000 -0.031294007 0.032075036 -0.011544938 -0.015604445 7.071068e-011 7.071068e-011 7.071068e-011 7.071068e-011
6726000000 0.15323982 0.11774001 0.016178166 -0.0084293541 7.071068e-011 7.071068e-011 7.071068e-011 7.071068e-011
6734400000 0.13138999 -0.13876134 0.0048100515 0.01592114 7.071068e-011 7.071068e-011 7.071068e-011 7.071068e-011
6742800000 -0.10806239 0.022284633 -0.015940934 0.00090456021 7.071068e-011 7.071068e-011 7.071068e-011 7.071068e-011
6751200000 0.16777183 0.15550411 0.0025614502 -0.015626246 7.071068e-011 7.071068e-011 7.071068e-011 7.071068e-011
6759600000 0.15545475 -0.16902903 0.013652277 0.00621178 7.071068e-011 7.071068e-011 7.071068e-011 7.071068e-011
6768000000 -0.146905 -0.011472899 -0.010201747 0.011049001 7.071068e-011 7.071068e-011 7.071068e-011 7.071068e-011
6776400000 0.12907027 0.18173066 -0.0087526059 -0.01301668 7.071068e-011 7.071068e-011 7.071068e-011 7.071068e-011
6784800000 0.15633065 -0.14243649 0.014310051 -0.0048096133 7.071068e-011 7.071068e-011 7.071068e-011 7.071068e-011
6793200000 -0.14669494 -0.0140821 0.00042103272 0.015512257 7.071068e-011 7.071068e-011 7.071068e-011 7.071068e-011
6801600000 0.095364571 0.20561832 -0.015921175 -0.0036057676 7.071068e-011 7.071068e-011 7.071068e-011 7.071068e-011
6810000000 0.17686121 -0.090650752 0.0081043812 -0.014795699 7.071068e-011 7.071068e-011 7.071068e-011 7.071068e-011
6818400000 -0.10309773 -0.01744711 0.012564743 0.012772432 7.071068e-011 7.071068e-011 7.071068e-011 7.071068e-011
6826800000 0.080734812 0.18788715 -0.015643988 0.0096813478 7.071068e-011 7.071068e-011 7.071068e-011 7.071068e-011
6835200000 0.18549235 -0.044636246 -0.0049773892 -0.01776151 7.071068e-011 7.071068e-011 7.071068e-011 7.071068e-011
6843600000 -0.042699654 -0.03298907 0.020184733 -0.00020631863 7.071068e-011 7.071068e-011 7.071068e-011 7.071068e-011
6852000000 0.068719432 0.13012974 -0.0042023854 0.020402186 7.071068e-011 7.071068e-011 7.071068e-011 7.071068e-011
6860400000 0.14836639 -0.016704153 -0.018729055 -0.0093371114 7.071068e-011 7.071068e-011 7.071068e-011 7.071068e-011
6868800000 0.0059339777 -0.030080872 0.014378958 -0.016213855 7.071068e-011 7.071068e-011 7.071068e-011 7.071068e-011
6877200000 0.050879244 0.072551914 0.012787207 0.01806012 7.071068e-011 7.071068e-011 7.071068e-011 7.071068e-011
6885600000 0.09192802 0.0086819734 -0.020458303 0.0077674426 7.071068e-011 7.071068e-011 7.071068e-011 7.071068e-011
6894000000 0.047658488 -0.0018254451 -0.0022532472 -0.022053594 7.071068e-011 7.071068e-011 7.071068e-011 7.071068e-011
6902400000 0.03834255 0.019279893 0.021999845 0.0034190535 7.071068e-011 7.071068e-011 7.071068e-011 7.071068e-011
6910800000 0.030955976 0.03624063 -0.0090240454 0.020143889 7.071068e-011 7.071068e-011 7.071068e-011 7.071068e-011
6919200000 0.076609537 0.051457688 -0.016780762 -0.013883227 7.071068e-011 7.071068e-011 7.071068e-011 7.071068e-011
6927600000 0.053529404 -0.011709367 0.017521968 -0.01247499 7.071068e-011 7.071068e-011 7.071068e-011 7.071068e-011
6936000000 -0.0030978492 0.057839651 0.0068719978 0.019704085 7.071068e-011 7.071068e-011 7.071068e-011 7.071068e-011
6944400000 0.10818423 0.093111441 -0.02089306 0.00058141554 7.071068e-011 7.071068e-011 7.071068e-011 7.071068e-011
6952800000 0.089961961 -0.043424945 0.0051138708 -0.01989191 7.071068e-011 7.071068e-011 7.071068e-011 7.071068e-011
6961200000 -0.029090095 0.04779258 0.017024532 0.010559203 7.071068e-011 7.071068e-011 7.071068e-011 7.071068e-011
6969600000 0.11819257 0.11050928 -0.015068188 0.013011022 7.071068e-011 7.071068e-011 7.071068e-011 7.071068e-011
6978000000 0.1097399 -0.066792697 -0.0076823332 -0.017747894 7.071068e-011 7.071068e-011 7.071068e-011 7.071068e-011
6986400000 -0.063940682 0.023545902 0.018828245 -0.0014568281 7.071068e-011 7.071068e-011 7.071068e-011 7.071068e-011
6994800000 0.09470433 0.13776898 -0.0045500607 0.018756779 7.071068e-011 7.071068e-011 7.071068e-011 7.071068e-011
7003200000 0.11703759 -0.051913474 -0.016170286 -0.0098456526 7.071068e-011 7.071068e-011 7.071068e-011 7.071068e-011
7011600000 -0.071451768 0.021584513 0.014800834 -0.011630803 7.071068e-011 7.071068e-011 7.071068e-011 7.071068e-011
7020000000 0.078310236 0.16476262 0.0067043975 0.017798105 7.071068e-011 7.071068e-011 7.071068e-011 7.071068e-011
7028400000 0.13954669 -0.021750528 -0.018644195 0.00063780072 7.071068e-011 7.071068e-011 7.071068e-011 7.071068e-011
7036800000 -0.051036306 0.019970335 0.0057476009 -0.018302308 7.071068e-011 7.071068e-011 7.071068e-011 7.071068e-011
7045200000 0.079091929 0.17307821 0.015713666 0.011032343 7.071068e-011 7.071068e-011 7.071068e-011 7.071068e-011
7053600000 0.17285991 0.0057147434 -0.015569068 0.010878079 7.071068e-011 7.071068e-011 7.071068e-011 7.071068e-011
7062000000 -0.0029328547 -0.01246446 -0.0052547283 -0.018990595 7.071068e-011 7.071068e-011 7.071068e-011 7.071068e-011
7070400000 0.068535201 0.14028756 0.01985622 0.00053832197 7.071068e-011 7.071068e-011 7.071068e-011 7.071068e-011
7078800000 0.17132071 0.015882995 -0.0071930457 0.018204371 7.071068e-011 7.071068e-011 7.071068e-011 7.071068e-011
7087200000 0.038613133 -0.032298952 -0.015461566 -0.013042368 7.071068e-011 7.071068e-011 7.071068e-011 7.071068e-011
7095600000 0.052213829 0.087453976 0.017176019 -0.010854026 7.071068e-011 7.071068e-011 7.071068e-011 7.071068e-011
7104000000 0.14885762 0.017258625 0.0045282166 0.019761305 7.071068e-011 7.071068e-011 7.071068e-011 7.071068e-011
7112400000 0.056622393 -0.046454243 -0.020492559 -0.0023416192 7.071068e-011 7.071068e-011 7.071068e-011 7.071068e-011
7120800000 0.031014204 0.028490715 0.0085175717 -0.01902632 7.071068e-011 7.071068e-011 7.071068e-011 7.071068e-011
7129200000 0.089100808 0.018785981 0.014982675 0.01391747 7.071068e-011 7.071068e-011 7.071068e-011 7.071068e-011
7137600000 0.047400251 -0.037989039 -0.018513076 0.0095593259 7.071068e-011 7.071068e-011 7.071068e-011 7.071068e-011
7146000000 -0.00012723489 0.0096978387 -0.0033238993 -0.020746941 7.071068e-011 7.071068e-011 7.071068e-011 7.071068e-011
7154400000 0.02817869 0.041935991 0.020532861 0.0035060663 7.071068e-011 7.071068e-011 7.071068e-011 7.071068e-011
7162800000 0.046272717 0.017052861 -0.010111941 0.01791984 7.071068e-011 7.071068e-011 7.071068e-011 7.071068e-011
7171200000 0.0032987115 0.017909193 -0.013780023 -0.015546297 7.071068e-011 7.071068e-011 7.071068e-011 7.071068e-011
7179600000 0.014864116 0.070209526 0.018971981 -0.0079036895 7.071068e-011 7.071068e-011 7.071068e-011 7.071068e-011
7188000000 0.066386677 0.0597682 0.00087744242 0.020816885 7.071068e-011 7.071068e-011 7.071068e-011 7.071068e-011
7196400000 0.043772746 0.01028474 -0.019998794 -0.0058002947 7.071068e-011 7.071068e-011 7.071068e-011 7.071068e-011
7204800000 0.010114032 0.062639102 0.012150045 -0.016341688 7.071068e-011 7.071068e-011 7.071068e-011 7.071068e-011
7213200000 0.079127207 0.071498573 0.01133624 0.017175235 7.071068e-011 7.071068e-011 7.071068e-011 7.071068e-011
7221600000 0.071718059 -0.0027453299 -0.020127522 0.0051066475 7.071068e-011 7.071068e-011 7.071068e-011 7.071068e-011
7230000000 -0.00084042834 0.028849369 0.0019202316 -0.020523032 7.071068e-011 7.071068e-011 7.071068e-011 7.071068e-011
7238400000 0.065064855 0.078622155 0.018669585 0.009140118 7.071068e-011 7.071068e-011 7.071068e-011 7.071068e-011
7246800000 0.080967568 -0.0095539484 -0.014820042 0.014659835 7.071068e-011 7.071068e-011 7.071068e-011 7.071068e-011
7255200000 -0.013000866 0.00022185969 -0.0084516909 -0.018782016 7.071068e-011 7.071068e-011 7.071068e-011 7.071068e-011
7263600000 0.02705342 0.0840244 0.020772604 -0.0016585193 7.071068e-011 7.071068e-011 7.071068e-011 7.071068e-011
7272000000 0.078609139 0.0078804716 -0.0052451584 0.019976193 7.071068e-011 7.071068e-011 7.071068e-011 7.071068e-011
7280400000 -0.023710597 -0.0062039602 -0.016861614 -0.011867105 7.071068e-011 7.071068e-011 7.071068e-011 7.071068e-011
7288800000 -0.0087712761 0.10331838 0.017248323 -0.011490905 7.071068e-011 7.071068e-011 7.071068e-011 7.071068e-011
7297200000 0.084942654 0.059589542 0.0049148207 0.020203274 7.071068e-011 7.071068e-011 7.071068e-011 7.071068e-011
7305600000 0.0084813591 0.0045561898 -0.020474551 -0.0025164213 7.071068e-011 7.071068e-011 7.071068e-011 7.071068e-011
7314000000 -0.0038163711 0.10634349 0.009434998 -0.018805062 7.071068e-011 7.071068e-011 7.071068e-011 7.071068e-011
7322400000 0.10871761 0.085472412 0.014268657 0.015025717 7.071068e-011 7.071068e-011 7.071068e-011 7.071068e-011
7330800000 0.060259759 -0.011682462 -0.019406794 0.0077336649 7.071068e-011 7.071068e-011 7.071068e-011 7.071068e-011
7339200000 0.0040463931 0.06087834 -0.00069297955 -0.021256983 7.071068e-011 7.071068e-011 7.071068e-011 7.071068e-011
7347600000 0.099323168 0.072142124 0.020015324 0.0064695999 7.071068e-011 7.071068e-011 7.071068e-011 7.071068e-011
7356000000 0.075920239 -0.033748813 -0.013119691 0.016237523 7.071068e-011 7.071068e-011 7.071068e-011 7.071068e-011
7364400000 -0.010160493 0.012614652 -0.010860032 -0.018180938 7.071068e-011 7.071068e-011 7.071068e-011 7.071068e-011
7372800000 0.054852851 0.054639716 0.020569727 -0.0039638281 7.071068e-011 7.071068e-011 7.071068e-011 7.071068e-011
7381200000 0.052819286 -0.030954991 -0.0039460459 0.020766929 7.071068e-011 7.071068e-011 7.071068e-011 7.071068e-011
7389600000 -0.040842965 0.00065792672 -0.018253919 -0.010884147 7.071068e-011 7.071068e-011 7.071068e-011 7.071068e-011
7398000000 0.0055199908 0.071983166 0.016544977 -0.013031735 7.071068e-011 7.071068e-011 7.071068e-011 7.071068e-011
7406400000 0.033034474 0.014825454 0.0063934894 0.020202177 7.071068e-011 7.071068e-011 7.071068e-011 7.071068e-011
7414800000 -0.03815224 0.027275927 -0.021334877 -0.0010235327 7.071068e-011 7.071068e-011 7.071068e-011 7.071068e-011
7423200000 -0.0016171352 0.10370958 0.0083451765 -0.019590188 7.071068e-011 7.071068e-011 7.071068e-011 7.071068e-011
7431600000 0.055594526 0.060463708 0.015279585 0.014902894 7.071068e-011 7.071068e-011 7.071068e-011 7.071068e-011
7440000000 0.013186241 0.038487028 -0.019339442 0.00927174 7.071068e-011 7.071068e-011 7.071068e-011 7.071068e-011
7448400000 0.024204016 0.085611664 -0.0017695007 -0.021127265 7.071068e-011 7.071068e-011 7.071068e-011 7.071068e-011
7456800000 0.077416375 0.055338737 0.020421792 0.0059250756 7.071068e-011 7.071068e-011 7.071068e-011 7.071068e-011
7465200000 0.046107773 0.01393726 -0.012750013 0.017075947 7.071068e-011 7.071068e-011 7.071068e-011 7.071068e-011
7473600000 0.028527858 0.036991809 -0.011434994 -0.017792452 7.071068e-011 7.071068e-011 7.071068e-011 7.071068e-011
7482000000 0.058461122 0.033277601 0.020649528 -0.0041116872 7.071068e-011 7.071068e-011 7.071068e-011 7.071068e-011
7490400000 0.043589246 -0.010947742 -0.0034964022 0.020833539 7.071068e-011 7.071068e-011 7.071068e-011 7.071068e-011
7498800000 -0.00080108462 -0.001416409 -0.018050954 -0.01062471 7.071068e-011 7.071068e-011 7.071068e-011 7.071068e-011
7507200000 0.00060218759 0.030908262 0.016367177 -0.013059837 7.071068e-011 7.071068e-011 7.071068e-011 7.071068e-011
7515600000 0.020604867 0.01535846 0.0063407375 0.019839909 7.071068e-011 7.071068e-011 7.071068e-011 7.071068e-011
7524000000 -0.021049881 0.0031129979 -0.020669101 -0.0012402885 7.071068e-011 7.071068e-011 7.071068e-011 7.071068e-011
7532400000 -0.034183789 0.060135126 0.008707501 -0.018730108 7.071068e-011 7.071068e-011 7.071068e-011 7.071068e-011
7540800000 0.022863241 0.073221773 0.014382605 0.014726824 7.071068e-011 7.071068e-011 7.071068e-011 7.071068e-011
7549200000 0.019400265 0.022252785 -0.018574709 0.0077824066 7.071068e-011 7.071068e-011 7.071068e-011 7.071068e-011
7557600000 -0.01842097 0.061169729 -0.0003976895 -0.020248773 7.071068e-011 7.071068e-011 7.071068e-011 7.071068e-011
7566000000 0.047951665 0.083512671 0.018854542 0.0069210273 7.071068e-011 7.071068e-011 7.071068e-011 7.071068e-011
7574400000 0.060808759 0.0078169405 -0.013515735 0.014858012 7.071068e-011 7.071068e-011 7.071068e-011 7.071068e-011
7582800000 -0.0099301459 0.015461073 -0.0088621983 -0.018025486 7.071068e-011 7.071068e-011 7.071068e-011 7.071068e-011
7591200000 0.036727928 0.064390734 0.019757997 -0.0017808956 7.071068e-011 7.071068e-011 7.071068e-011 7.071068e-011
7599600000 0.059218157 -0.015186739 -0.0056892619 0.018678958 7.071068e-011 7.071068e-011 7.071068e-011 7.071068e-011
7608000000 -0.03112036 -0.020495299 -0.015484425 -0.012628921 7.071068e-011 7.071068e-011 7.071068e-011 7.071068e-011
7616400000 -0.014799479 0.056822024 0.017211672 -0.010017322 7.071068e-011 7.071068e-011 7.071068e-011 7.071068e-011
7624800000 0.031466495 0.0048760278 0.0026884638 0.01956417 7.071068e-011 7.071068e-011 7.071068e-011 7.071068e-011
7633200000 -0.052796151 -0.0060966923 -0.019126201 -0.0046596099 7.071068e-011 7.071068e-011 7.071068e-011 7.071068e-011
7641600000 -0.038177833 0.086871415 0.011384271 -0.015873447 7.071068e-011 7.071068e-011 7.071068e-011 7.071068e-011
7650000000 0.037729949 0.053027939 0.010485018 0.016593982 7.071068e-011 7.071068e-011 7.071068e-011 7.071068e-011
7658400000 -0.021006087 0.01170901 -0.01953847 0.0037524076 7.071068e-011 7.071068e-011 7.071068e-011 7.071068e-011
7666800000 -0.022767646 0.095949523 0.003477395 -0.019265324 7.071068e-011 7.071068e-011 7.071068e-011 7.071068e-011
7675200000 0.069713756 0.071578339 0.016145559 0.010750561 7.071068e-011 7.071068e-011 7.071068e-011 7.071068e-011
7683600000 0.031784076 -0.0041426746 -0.016265027 0.011262316 7.071068e-011 7.071068e-011 7.071068e-011 7.071068e-011
7692000000 -0.005198074 0.047115874 -0.0045538745 -0.019142317 7.071068e-011 7.071068e-011 7.071068e-011 7.071068e-011
7700400000 0.065872289 0.043705169 0.019451439 0.0028346204 7.071068e-011 7.071068e-011 7.071068e-011 7.071068e-011
7708800000 0.035526019 -0.039761133 -0.0099972272 0.016943417 7.071068e-011 7.071068e-011 7.071068e-011 7.071068e-011
7717200000 -0.033627842 0.00085860054 -0.012034719 -0.015639717 7.071068e-011 7.071068e-011 7.071068e-011 7.071068e-011
7725600000 0.016990811 0.033789191 0.018996919 -0.0051127076 7.071068e-011 7.071068e-011 7.071068e-011 7.071068e-011
7734000000 0.014020893 -0.035752822 -0.0021486934 0.019751996 7.071068e-011 7.071068e-011 7.071068e-011 7.071068e-011
7742400000 -0.070838273 -0.012179692 -0.017295895 -0.0091674197 7.071068e-011 7.071068e-011 7.071068e-011 7.071068e-011
7750800000 -0.040442813 0.06249962 0.015216971 -0.01254968 7.071068e-011 7.071068e-011 7.071068e-011 7.071068e-011
7759200000 0.0015117315 0.025120921 0.006036303 0.018889351 7.071068e-011 7.071068e-011 7.071068e-011 7.071068e-011
7767600000 -0.053472813 0.0195824 -0.019767998 -0.0014732223 7.071068e-011 7.071068e-011 7.071068e-011 7.071068e-011
7776000000 -0.037697017 0.090996966 0.0087530892 -0.01761915 7.071068e-011 7.071068e-011 7.071068e-011 7.071068e-011
7784400000 0.031462155 0.067975961 0.01310289 0.014763669 7.071068e-011 7.071068e-011 7.071068e-011 7.071068e-011
7792800000 0.0011756439 0.024800876 -0.018467396 0.0065406235 7.071068e-011 7.071068e-011 7.071068e-011 7.071068e-011
7801200000 -0.007612898 0.070330821 0.0010864355 -0.01985071 7.071068e-011 7.071068e-011 7.071068e-011 7.071068e-011
7809600000 0.053209741 0.058425687 0.018043246 0.008210877 7.071068e-011 7.071068e-011 7.071068e-011 7.071068e-011
7818000000 0.035221454 -0.0043651788 -0.014423089 0.013319448 7.071068e-011 7.071068e-011 7.071068e-011 7.071068e-011
7826400000 -0.0055551063 0.020963553 -0.0070024575 -0.018452289 7.071068e-011 7.071068e-011 7.071068e-011 7.071068e-011
7834800000 0.032671038 0.031546004 0.019728681 0.00043664713 7.071068e-011 7.071068e-011 7.071068e-011 7.071068e-011
7843200000 0.0252111 -0.019734308 -0.0078551983 0.018157577 7.071068e-011 7.071068e-011 7.071068e-011 7.071068e-011
7851600000 -0.026818084 -0.0045477706 -0.013855157 -0.014199949 7.071068e-011 7.071068e-011 7.071068e-011 7.071068e-011
7860000000 -0.0040680105 0.030765427 0.018277597 -0.0075720628 7.071068e-011 7.071068e-011 7.071068e-011 7.071068e-011
7868400000 0.010365639 -0.0036104247 -4.8598584e-005 0.019733721 7.071068e-011 7.071068e-011 7.071068e-011 7.071068e-011
7876800000 -0.036298353 -0.0037674247 -0.018473854 -0.0074855704 7.071068e-011 7.071068e-011 7.071068e-011 7.071068e-011
7885200000 -0.030487781 0.043537684 0.013662879 -0.014342934 7.071068e-011 7.071068e-011 7.071068e-011 7.071068e-011
7893600000 0.0088658016 0.036090676 0.0079867495 0.01786083 7.071068e-011 7.071068e-011 7.071068e-011 7.071068e-011
7902000000 -0.0083856974 0.0093104942 -0.019647781 0.00039609251 7.071068e-011 7.071068e-011 7.071068e-011 7.071068e-011
7910400000 -0.021391097 0.039124686 0.00693744 -0.018512262 7.071068e-011 7.071068e-011 7.071068e-011 7.071068e-011
7918800000 0.017148476 0.048976932 0.014352544 0.013218785 7.071068e-011 7.071068e-011 7.071068e-011 7.071068e-011
7927200000 0.028536187 0.0073699765 -0.017651277 0.0081827883 7.071068e-011 7.071068e-011 7.071068e-011 7.071068e-011
7935600000 -0.0080491444 0.005890856 -0.00084332773 -0.019320812 7.071068e-011 7.071068e-011 7.071068e-011 7.071068e-011
7944000000 0.011057266 0.033244696 0.018141916 0.0066948221 7.071068e-011 7.071068e-011 7.071068e-011 7.071068e-011
7952400000 0.037525397 -0.005691994 -0.013125845 0.014217461 7.071068e-011 7.071068e-011 7.071068e-011 7.071068e-011
7960800000 -0.015122708 -0.03332936 -0.0082599716 -0.017467998 7.071068e-011 7.071068e-011 7.071068e-011 7.071068e-011
7969200000 -0.029124588 0.020894099 0.019004494 -0.00090577174 7.071068e-011 7.071068e-011 7.071068e-011 7.071068e-011
7977600000 0.020064445 0.0067467657 -0.0065472736 0.017890107 7.071068e-011 7.071068e-011 7.071068e-011 7.071068e-011
7986000000 -0.024316229 -0.039757349 -0.014076679 -0.01283374 7.071068e-011 7.071068e-011 7.071068e-011 7.071068e-011
7994400000 -0.065344997 0.02490134 0.017137939 -0.0081290705 7.071068e-011 7.071068e-011 7.071068e-011 7.071068e-011
