!Keysight Technologies,N5235B,MY61252044,A.15.00.15
!Date: Friday, January 20, 2023 19:35:40
!Correction: S11(Off) 
!S21(Off) 
!S12(Off) 
!S22(Off) 
!S2P File: Measurements: S11, S21, S12, S22:
# Hz S  RI   R 50
6600000000 0.017250709 -0.17457332 0.014894792 -0.0052202079 7.071068e-011 7.071068e-011 7.071068e-011 7.071068e-011
6608400000 -0.12384696 0.1662982 0.0067798458 0.010003282 7.071068e-011 7.071068e-011 7.071068e-011 7.071068e-011
6616800000 0.30669713 0.092072539 -0.0083305668 0.0048646317 7.071068e-011 7.071068e-011 7.071068e-011 7.071068e-011
6625200000 0.024152881 -0.27299836 -0.0029824669 -0.0089962184 7.071068e-011 7.071068e-011 7.071068e-011 7.071068e-011
6633600000 -0.16605654 0.16109104 0.0092080934 -0.0015770651 7.071068e-011 7.071068e-011 7.071068e-011 7.071068e-011
6642000000 0.29007787 0.1143655 -0.00068961142 0.0094606094 7.071068e-011 7.071068e-011 7.071068e-011 7.071068e-011
6650400000 0.04018005 -0.2527054 -0.011116763 -0.0028051073 7.071068e-011 7.071068e-011 7.071068e-011 7.071068e-011
6658800000 -0.14933777 0.1330364 0.0046181865 -0.012104005 7.071068e-011 7.071068e-011 7.071068e-011 7.071068e-011
6667200000 0.22780988 0.10378198 0.013083071 0.0077443114 7.071068e-011 7.071068e-011 7.071068e-011 7.071068e-011
6675600000 0.044782069 -0.15265624 -0.010054003 0.01488445 7.071068e-011 7.071068e-011 7.071068e-011 7.071068e-011
6684000000 -0.045450415 0.083904445 -0.01585616 -0.011868237 7.071068e-011 7.071068e-011 7.071068e-011 7.071068e-011
6692400000 0.10532387 0.048608568 0.013292277 -0.016263844 7.071068e-011 7.071068e-011 7.071068e-011 7.071068e-011
6700800000 0.086127184 0.017265972 0.016051605 0.014009122 7.071068e-011 7.071068e-011 7.071068e-011 7.071068e-011
6709200000 0.078016341 -0.040012497 -0.014431808 0.014414014 7.071068e-011 7.071068e-011 7.071068e-011 7.071068e-011
6717600000 -0.031398792 0.031614158 -0.01150601 -0.015617125 7.071068e-011 7.071068e-011 7.071068e-011 7.071068e-011
6726000000 0.15274505 0.11810678 0.016182058 -0.0084006293 7.071068e-011 7.071068e-011 7.071068e-011 7.071068e-011
6734400000 0.13206249 -0.1384314 0.0047838003 0.015933175 7.071068e-011 7.071068e-011 7.071068e-011 7.071068e-011
6742800000 -0.10808697 0.021452203 -0.01591859 0.00088055461 7.071068e-011 7.071068e-011 7.071068e-011 7.071068e-011
6751200000 0.16701527 0.15594169 0.0025815491 -0.015607446 7.071068e-011 7.071068e-011 7.071068e-011 7.071068e-011
6759600000 0.15620916 -0.16851506 0.013626083 0.006230623 7.071068e-011 7.071068e-011 7.071068e-011 7.071068e-011
6768000000 -0.14676468 -0.012401226 -0.010217157 0.0110358 7.071068e-011 7.071068e-011 7.071068e-011 7.071068e-011
6776400000 0.12818217 0.18206365 -0.0087266257 -0.01301839 7.071068e-011 7.071068e-011 7.071068e-011 7.071068e-011
6784800000 0.15703318 -0.14181194 0.014315325 -0.0047829323 7.071068e-011 7.071068e-011 7.071068e-011 7.071068e-011
6793200000 -0.14644165 -0.014969646 0.00039704787 0.015502831 7.071068e-011 7.071068e-011 7.071068e-011 7.071068e-011
6801600000 0.094486296 0.20579238 -0.015905606 -0.0036411046 7.071068e-011 7.071068e-011 7.071068e-011 7.071068e-011
6810000000 0.17740184 -0.08995948 0.0081312666 -0.01476976 7.071068e-011 7.071068e-011 7.071068e-011 7.071068e-011
6818400000 -0.10274487 -0.018180575 0.012547724 0.012783311 7.071068e-011 7.071068e-011 7.071068e-011 7.071068e-011
6826800000 0.079995334 0.18791465 -0.015653072 0.0096505554 7.071068e-011 7.071068e-011 7.071068e-011 7.071068e-011
6835200000 0.18581708 -0.044018149 -0.0049449364 -0.01775836 7.071068e-011 7.071068e-011 7.071068e-011 7.071068e-011
6843600000 -0.042330887 -0.033473901 0.020175289 -0.0001632838 7.071068e-011 7.071068e-011 7.071068e-011 7.071068e-011
6852000000 0.06820453 0.13005754 -0.004243549 0.020384692 7.071068e-011 7.071068e-011 7.071068e-011 7.071068e-011
6860400000 0.14851491 -0.016288487 -0.018701706 -0.0093737943 7.071068e-011 7.071068e-011 7.071068e-011 7.071068e-011
6868800000 0.0061997543 -0.030334422 0.014397253 -0.016175639 7.071068e-011 7.071068e-011 7.071068e-011 7.071068e-011
6877200000 0.050607573 0.07243672 0.012749999 0.018071985 7.071068e-011 7.071068e-011 7.071068e-011 7.071068e-011
6885600000 0.091928966 0.0088843871 -0.020456612 0.0077328901 7.071068e-011 7.071068e-011 7.071068e-011 7.071068e-011
6894000000 0.047777928 -0.0018311811 -0.0022109174 -0.022035901 7.071068e-011 7.071068e-011 7.071068e-011 7.071068e-011
6902400000 0.038353615 0.019202963 0.021978429 0.0034593521 7.071068e-011 7.071068e-011 7.071068e-011 7.071068e-011
6910800000 0.030869173 0.036166776 -0.0090499455 0.020118892 7.071068e-011 7.071068e-011 7.071068e-011 7.071068e-011
6919200000 0.076533288 0.051601719 -0.016736442 -0.013892085 7.071068e-011 7.071068e-011 7.071068e-011 7.071068e-011
6927600000 0.053757321 -0.011687033 0.017533775 -0.012441542 7.071068e-011 7.071068e-011 7.071068e-011 7.071068e-011
6936000000 -0.0031748873 0.057568174 0.0068284115 0.019699104 7.071068e-011 7.071068e-011 7.071068e-011 7.071068e-011
6944400000 0.1079189 0.093351923 -0.020881712 0.00054024643 7.071068e-011 7.071068e-011 7.071068e-011 7.071068e-011
6952800000 0.090348221 -0.043274343 0.005137655 -0.019868108 7.071068e-011 7.071068e-011 7.071068e-011 7.071068e-011
6961200000 -0.029127883 0.047326535 0.016986588 0.010586582 7.071068e-011 7.071068e-011 7.071068e-011 7.071068e-011
6969600000 0.11778671 0.11075854 -0.015088183 0.012965481 7.071068e-011 7.071068e-011 7.071068e-011 7.071068e-011
6978000000 0.11018175 -0.066501923 -0.0076466897 -0.01775481 7.071068e-011 7.071068e-011 7.071068e-011 7.071068e-011
6986400000 -0.063873783 0.022975124 0.018827496 -0.0014255692 7.071068e-011 7.071068e-011 7.071068e-011 7.071068e-011
6994800000 0.094165549 0.13796622 -0.004578582 0.01873016 7.071068e-011 7.071068e-011 7.071068e-011 7.071068e-011
7003200000 0.11744025 -0.051519096 -0.016128775 -0.0098685473 7.071068e-011 7.071068e-011 7.071068e-011 7.071068e-011
7011600000 -0.071270965 0.021008365 0.014820148 -0.011593069 7.071068e-011 7.071068e-011 7.071068e-011 7.071068e-011
7020000000 0.077728122 0.16489404 0.006666183 0.01780219 7.071068e-011 7.071068e-011 7.071068e-011 7.071068e-011
7028400000 0.13991162 -0.02127297 -0.018624164 0.0005985396 7.071068e-011 7.071068e-011 7.071068e-011 7.071068e-011
7036800000 -0.050764788 0.019434955 0.0057865595 -0.018287482 7.071068e-011 7.071068e-011 7.071068e-011 7.071068e-011
7045200000 0.078541167 0.17308725 0.01568651 0.011062282 7.071068e-011 7.071068e-011 7.071068e-011 7.071068e-011
7053600000 0.17305344 0.0062308279 -0.015587451 0.010836662 7.071068e-011 7.071068e-011 7.071068e-011 7.071068e-011
7062000000 -0.0025625811 -0.012863809 -0.0052122883 -0.01898055 7.071068e-011 7.071068e-011 7.071068e-011 7.071068e-011
7070400000 0.068052769 0.14015792 0.019844702 0.00058400608 7.071068e-011 7.071068e-011 7.071068e-011 7.071068e-011
7078800000 0.17137608 0.016313285 -0.0072204499 0.018179813 7.071068e-011 7.071068e-011 7.071068e-011 7.071068e-011
7087200000 0.038960829 -0.032522317 -0.015426475 -0.013068035 7.071068e-011 7.071068e-011 7.071068e-011 7.071068e-011
7095600000 0.051899098 0.08722984 0.017187525 -0.010830869 7.071068e-011 7.071068e-011 7.071068e-011 7.071068e-011
7104000000 0.14878824 0.017596625 0.004492145 0.019753123 7.071068e-011 7.071068e-011 7.071068e-011 7.071068e-011
7112400000 0.056889486 -0.046524983 -0.020474711 -0.0023748253 7.071068e-011 7.071068e-011 7.071068e-011 7.071068e-011
7120800000 0.030862765 0.028274443 0.0085510761 -0.01899741 7.071068e-011 7.071068e-011 7.071068e-011 7.071068e-011
7129200000 0.08895088 0.018977107 0.014949505 0.013945232 7.071068e-011 7.071068e-011 7.071068e-011 7.071068e-011
7137600000 0.047583099 -0.037928879 -0.018523941 0.009522466 7.071068e-011 7.071068e-011 7.071068e-011 7.071068e-011
7146000000 -0.00012800588 0.0095352046 -0.0032723162 -0.020737456 7.071068e-011 7.071068e-011 7.071068e-011 7.071068e-011
7154400000 0.028031331 0.041968536 0.020520179 0.0035452165 7.071068e-011 7.071068e-011 7.071068e-011 7.071068e-011
7162800000 0.04633712 0.017196216 -0.010127808 0.017894145 7.071068e-011 7.071068e-011 7.071068e-011 7.071068e-011
7171200000 0.0034294401 0.017810741 -0.013746181 -0.015565839 7.071068e-011 7.071068e-011 7.071068e-011 7.071068e-011
7179600000 0.014743152 0.070126295 0.018984154 -0.0078622987 7.071068e-011 7.071068e-011 7.071068e-011 7.071068e-011
7188000000 0.066346258 0.059938092 0.00084444945 0.020803226 7.071068e-011 7.071068e-011 7.071068e-011 7.071068e-011
7196400000 0.043977004 0.010295405 -0.019979047 -0.0058389278 7.071068e-011 7.071068e-011 7.071068e-011 7.071068e-011
7204800000 0.010045583 0.062445298 0.012176237 -0.016311301 7.071068e-011 7.071068e-011 7.071068e-011 7.071068e-011
7213200000 0.078956857 0.071645439 0.011293081 0.017180838 7.071068e-011 7.071068e-011 7.071068e-011 7.071068e-011
7221600000 0.071921013 -0.0026287544 -0.02011567 0.0050643994 7.071068e-011 7.071068e-011 7.071068e-011 7.071068e-011
7230000000 -0.0008040971 0.028584268 0.0019633591 -0.020507364 7.071068e-011 7.071068e-011 7.071068e-011 7.071068e-011
7238400000 0.064799055 0.078693554 0.018638588 0.009175309 7.071068e-011 7.071068e-011 7.071068e-011 7.071068e-011
7246800000 0.081153959 -0.0093399202 -0.014832807 0.014620344 7.071068e-011 7.071068e-011 7.071068e-011 7.071068e-011
7255200000 -0.012861774 -3.5770503e-005 -0.0084047988 -0.018789724 7.071068e-011 7.071068e-011 7.071068e-011 7.071068e-011
7263600000 0.026735062 0.083995916 0.020764602 -0.0016034907 7.071068e-011 7.071068e-011 7.071068e-011 7.071068e-011
7272000000 0.078713909 0.0081849135 -0.005286945 0.019953668 7.071068e-011 7.071068e-011 7.071068e-011 7.071068e-011
7280400000 -0.023453556 -0.0064038001 -0.016825374 -0.011890352 7.071068e-011 7.071068e-011 7.071068e-011 7.071068e-011
7288800000 -0.0090544848 0.10316647 0.017257122 -0.011454577 7.071068e-011 7.071068e-011 7.071068e-011 7.071068e-011
7297200000 0.084899202 0.05994276 0.0048758513 0.020195937 7.071068e-011 7.071068e-011 7.071068e-011 7.071068e-011
7305600000 0.0087960325 0.004448852 -0.020457031 -0.0025535366 7.071068e-011 7.071068e-011 7.071068e-011 7.071068e-011
7314000000 -0.0040154411 0.10607992 0.0094759325 -0.018773206 7.071068e-011 7.071068e-011 7.071068e-011 7.071068e-011
7322400000 0.10855502 0.085757434 0.014227344 0.015043082 7.071068e-011 7.071068e-011 7.071068e-011 7.071068e-011
7330800000 0.060593091 -0.01166343 -0.019413427 0.0076855957 7.071068e-011 7.071068e-011 7.071068e-011 7.071068e-011
7339200000 0.003953604 0.060556423 -0.0006483515 -0.021246765 7.071068e-011 7.071068e-011 7.071068e-011 7.071068e-011
7347600000 0.099069484 0.072318926 0.020007998 0.0065097497 7.071068e-011 7.071068e-011 7.071068e-011 7.071068e-011
7356000000 0.076185703 -0.033632107 -0.013138947 0.016207125 7.071068e-011 7.071068e-011 7.071068e-011 7.071068e-011
7364400000 -0.010170262 0.012304488 -0.010805819 -0.018198017 7.071068e-011 7.071068e-011 7.071068e-011 7.071068e-011
7372800000 0.054557204 0.054739401 0.020576514 -0.003917479 7.071068e-011 7.071068e-011 7.071068e-011 7.071068e-011
7381200000 0.053012084 -0.030749371 -0.003984795 0.020755481 7.071068e-011 7.071068e-011 7.071068e-011 7.071068e-011
7389600000 -0.040741667 0.00040005078 -0.018222019 -0.010908074 7.071068e-011 7.071068e-011 7.071068e-011 7.071068e-011
7398000000 0.0052544684 0.072005071 0.016569773 -0.012988625 7.071068e-011 7.071068e-011 7.071068e-011 7.071068e-011
7406400000 0.033137888 0.015056741 0.0063370885 0.020210788 7.071068e-011 7.071068e-011 7.071068e-011 7.071068e-011
7414800000 -0.037989486 0.027092917 -0.021331947 -0.0010573199 7.071068e-011 7.071068e-011 7.071068e-011 7.071068e-011
7423200000 -0.0018343849 0.10363377 0.0083774421 -0.01955853 7.071068e-011 7.071068e-011 7.071068e-011 7.071068e-011
7431600000 0.055604815 0.06067891 0.015239289 0.014933439 7.071068e-011 7.071068e-011 7.071068e-011 7.071068e-011
7440000000 0.013368175 0.038391653 -0.019338775 0.0092285778 7.071068e-011 7.071068e-011 7.071068e-011 7.071068e-011
7448400000 0.024071947 0.085492052 -0.0017103676 -0.021126501 7.071068e-011 7.071068e-011 7.071068e-011 7.071068e-011
7456800000 0.077356368 0.055482827 0.020391976 0.0059670275 7.071068e-011 7.071068e-011 7.071068e-011 7.071068e-011
7465200000 0.046266906 0.01390521 -0.0127698 0.017051155 7.071068e-011 7.071068e-011 7.071068e-011 7.071068e-011
7473600000 0.028453503 0.036852259 -0.011396899 -0.017791662 7.071068e-011 7.071068e-011 7.071068e-011 7.071068e-011
7482000000 0.058341745 0.033349633 0.020641791 -0.0040579839 7.071068e-011 7.071068e-011 7.071068e-011 7.071068e-011
7490400000 0.043665741 -0.010865259 -0.003549268 0.020805396 7.071068e-011 7.071068e-011 7.071068e-011 7.071068e-011
7498800000 -0.0007581067 -0.001531472 -0.018022003 -0.010652685 7.071068e-011 7.071068e-011 7.071068e-011 7.071068e-011
7507200000 0.00046648769 0.030859185 0.016372513 -0.013033227 7.071068e-011 7.071068e-011 7.071068e-011 7.071068e-011
7515600000 0.020604467 0.015495291 0.0062980247 0.019838545 7.071068e-011 7.071068e-011 7.071068e-011 7.071068e-011
7524000000 -0.020905508 0.0030586552 -0.020650284 -0.0013066233 7.071068e-011 7.071068e-011 7.071068e-011 7.071068e-011
7532400000 -0.034273554 0.059989814 0.0087513914 -0.018693049 7.071068e-011 7.071068e-011 7.071068e-011 7.071068e-011
7540800000 0.022747796 0.073359907 0.014364976 0.014743062 7.071068e-011 7.071068e-011 7.071068e-011 7.071068e-011
7549200000 0.019586449 0.022310546 -0.018569088 0.007753565 7.071068e-011 7.071068e-011 7.071068e-011 7.071068e-011
7557600000 -0.018433593 0.060964983 -0.00034113653 -0.020244924 7.071068e-011 7.071068e-011 7.071068e-011 7.071068e-011
7566000000 0.047777437 0.083589166 0.018826567 0.0069769616 7.071068e-011 7.071068e-011 7.071068e-011 7.071068e-011
7574400000 0.061007421 0.0079628658 -0.013538204 0.014821836 7.071068e-011 7.071068e-011 7.071068e-011 7.071068e-011
7582800000 -0.0098433141 0.015212689 -0.0088352971 -0.018024843 7.071068e-011 7.071068e-011 7.071068e-011 7.071068e-011
7591200000 0.03648093 0.064418845 0.019752258 -0.0017517379 7.071068e-011 7.071068e-011 7.071068e-011 7.071068e-011
7599600000 0.059338015 -0.014967076 -0.0057452964 0.018655196 7.071068e-011 7.071068e-011 7.071068e-011 7.071068e-011
7608000000 -0.030961072 -0.020705624 -0.015442922 -0.012661628 7.071068e-011 7.071068e-011 7.071068e-011 7.071068e-011
7616400000 -0.01507724 0.056765523 0.017221767 -0.0099786818 7.071068e-011 7.071068e-011 7.071068e-011 7.071068e-011
7624800000 0.031522118 0.0051486571 0.0026543541 0.019549048 7.071068e-011 7.071068e-011 7.071068e-011 7.071068e-011
7633200000 -0.052575096 -0.0062725544 -0.019107645 -0.0046981978 7.071068e-011 7.071068e-011 7.071068e-011 7.071068e-011
7641600000 -0.038424924 0.086728886 0.011433438 -0.01584061 7.071068e-011 7.071068e-011 7.071068e-011 7.071068e-011
7650000000 0.03769907 0.053306583 0.010440994 0.016611213 7.071068e-011 7.071068e-011 7.071068e-011 7.071068e-011
7658400000 -0.020740973 0.011614397 -0.019531626 0.0037095163 7.071068e-011 7.071068e-011 7.071068e-011 7.071068e-011
7666800000 -0.022954419 0.095721602 0.0034959416 -0.019246034 7.071068e-011 7.071068e-011 7.071068e-011 7.071068e-011
7675200000 0.069600962 0.071814783 0.016121989 0.010787178 7.071068e-011 7.071068e-011 7.071068e-011 7.071068e-011
7683600000 0.032065317 -0.0041335882 -0.01627643 0.01122246 7.071068e-011 7.071068e-011 7.071068e-011 7.071068e-011
7692000000 -0.0052923355 0.04684988 -0.0045195408 -0.019142123 7.071068e-011 7.071068e-011 7.071068e-011 7.071068e-011
7700400000 0.065677248 0.043861877 0.019439546 0.0028727984 7.071068e-011 7.071068e-011 7.071068e-011 7.071068e-011
7708800000 0.035762608 -0.039687596 -0.010029096 0.016901661 7.071068e-011 7.071068e-011 7.071068e-011 7.071068e-011
7717200000 -0.033654291 0.0005797621 -0.011981831 -0.015657702 7.071068e-011 7.071068e-011 7.071068e-011 7.071068e-011
7725600000 0.016719308 0.033866998 0.018996974 -0.0050645918 7.071068e-011 7.071068e-011 7.071068e-011 7.071068e-011
7734000000 0.014178504 -0.035550416 -0.0021876637 0.019739831 7.071068e-011 7.071068e-011 7.071068e-011 7.071068e-011
7742400000 -0.070725217 -0.012408785 -0.017270936 -0.0091981962 7.071068e-011 7.071068e-011 7.071068e-011 7.071068e-011
7750800000 -0.040690359 0.062456898 0.015231246 -0.012508869 7.071068e-011 7.071068e-011 7.071068e-011 7.071068e-011
7759200000 0.0015611607 0.025350025 0.0059852106 0.018892394 7.071068e-011 7.071068e-011 7.071068e-011 7.071068e-011
7767600000 -0.053269163 0.019461101 -0.019753512 -0.001518416 7.071068e-011 7.071068e-011 7.071068e-011 7.071068e-011
7776000000 -0.037856307 0.090861388 0.0087829512 -0.017593559 7.071068e-011 7.071068e-011 7.071068e-011 7.071068e-011
7784400000 0.031427715 0.068173811 0.013067986 0.014784678 7.071068e-011 7.071068e-011 7.071068e-011 7.071068e-011
7792800000 0.0013812938 0.024753934 -0.018476292 0.0064893574 7.071068e-011 7.071068e-011 7.071068e-011 7.071068e-011
7801200000 -0.0077133458 0.070135064 0.0011400165 -0.019839272 7.071068e-011 7.071068e-011 7.071068e-011 7.071068e-011
7809600000 0.053080585 0.058557831 0.018018356 0.0082458546 7.071068e-011 7.071068e-011 7.071068e-011 7.071068e-011
7818000000 0.035408638 -0.0043300372 -0.014432738 0.013277164 7.071068e-011 7.071068e-011 7.071068e-011 7.071068e-011
7826400000 -0.0055709626 0.020762181 -0.0069443085 -0.018453151 7.071068e-011 7.071068e-011 7.071068e-011 7.071068e-011
7834800000 0.032490034 0.031605579 0.019708565 0.00048664602 7.071068e-011 7.071068e-011 7.071068e-011 7.071068e-011
7843200000 0.025336977 -0.019625252 -0.0078967037 0.018125881 7.071068e-011 7.071068e-011 7.071068e-011 7.071068e-011
7851600000 -0.026766719 -0.0047182227 -0.013823952 -0.014213193 7.071068e-011 7.071068e-011 7.071068e-011 7.071068e-011
7860000000 -0.0042325011 0.030781733 0.018277846 -0.0075281276 7.071068e-011 7.071068e-011 7.071068e-011 7.071068e-011
7868400000 0.010410554 -0.0034474272 -0.00010720563 0.019710936 7.071068e-011 7.071068e-011 7.071068e-011 7.071068e-011
7876800000 -0.036169998 -0.0038809171 -0.018451182 -0.0075161033 7.071068e-011 7.071068e-011 7.071068e-011 7.071068e-011
7885200000 -0.030621674 0.043441467 0.013690598 -0.014292353 7.071068e-011 7.071068e-011 7.071068e-011 7.071068e-011
7893600000 0.008824951 0.036219448 0.0079444256 0.017864179 7.071068e-011 7.071068e-011 7.071068e-011 7.071068e-011
7902000000 -0.0082188556 0.0093053142 -0.019638836 0.00035070244 7.071068e-011 7.071068e-011 7.071068e-011 7.071068e-011
7910400000 -0.021409534 0.038970701 0.0069655152 -0.018480189 7.071068e-011 7.071068e-011 7.071068e-011 7.071068e-011
7918800000 0.017034879 0.049025979 0.014310736 0.013233869 7.071068e-011 7.071068e-011 7.071068e-011 7.071068e-011
7927200000 0.028651293 0.0074338522 -0.017659828 0.0081375139 7.071068e-011 7.071068e-011 7.071068e-011 7.071068e-011
7935600000 -0.0079741087 0.005727442 -0.00079206901 -0.019309828 7.071068e-011 7.071068e-011 7.071068e-011 7.071068e-011
7944000000 0.010880223 0.033191547 0.018125676 0.0067205052 7.071068e-011 7.071068e-011 7.071068e-011 7.071068e-011
7952400000 0.037544563 -0.0055405581 -0.013136562 0.014180816 7.071068e-011 7.071068e-011 7.071068e-011 7.071068e-011
7960800000 -0.014955296 -0.033422127 -0.0082267663 -0.017462365 7.071068e-011 7.071068e-011 7.071068e-011 7.071068e-011
7969200000 -0.029286759 0.020737728 0.019001227 -0.00085682562 7.071068e-011 7.071068e-011 7.071068e-011 7.071068e-011
7977600000 0.019975357 0.0069475952 -0.0065801754 0.017868778 7.071068e-011 7.071068e-011 7.071068e-011 7.071068e-011
7986000000 -0.024077307 -0.039764117 -0.014035736 -0.012856303 7.071068e-011 7.071068e-011 7.071068e-011 7.071068e-011
7994400000 -0.065433852 0.024671286 0.017144555 -0.0080832103 7.071068e-011 7.071068e-011 7.071068e-011 7.071068e-011
