!Keysight Technologies,N5235B,MY61252044,A.15.00.15
!Date: Friday, January 20, 2023 19:09:42
!Correction: S11(Off) 
!S21(Off) 
!S12(Off) 
!S22(Off) 
!S2P File: Measurements: S11, S21, S12, S22:
# Hz S  RI   R 50
6600000000 0.017069865 -0.17444119 0.014901494 -0.0052121081 7.071068e-011 7.071068e-011 7.071068e-011 7.071068e-011
6608400000 -0.12368049 0.16643064 0.0067719743 0.010010043 7.071068e-011 7.071068e-011 7.071068e-011 7.071068e-011
6616800000 0.30672505 0.091845259 -0.008337657 0.0048623565 7.071068e-011 7.071068e-011 7.071068e-011 7.071068e-011
6625200000 0.023888489 -0.27299476 -0.0029849503 -0.0090007139 7.071068e-011 7.071068e-011 7.071068e-011 7.071068e-011
6633600000 -0.16589811 0.16129664 0.0092083206 -0.0015786954 7.071068e-011 7.071068e-011 7.071068e-011 7.071068e-011
6642000000 0.29019332 0.11413213 -0.00068385625 0.0094573153 7.071068e-011 7.071068e-011 7.071068e-011 7.071068e-011
6650400000 0.039932895 -0.25272501 -0.011119178 -0.0027958876 7.071068e-011 7.071068e-011 7.071068e-011 7.071068e-011
6658800000 -0.14923283 0.13322724 0.0046267989 -0.012101277 7.071068e-011 7.071068e-011 7.071068e-011 7.071068e-011
6667200000 0.2279333 0.103613 0.013079237 0.0077502928 7.071068e-011 7.071068e-011 7.071068e-011 7.071068e-011
6675600000 0.044629768 -0.15270506 -0.010054205 0.014887895 7.071068e-011 7.071068e-011 7.071068e-011 7.071068e-011
6684000000 -0.045435283 0.084028579 -0.015853388 -0.011867279 7.071068e-011 7.071068e-011 7.071068e-011 7.071068e-011
6692400000 0.10542443 0.048572186 0.013302845 -0.016268779 7.071068e-011 7.071068e-011 7.071068e-011 7.071068e-011
6700800000 0.086084165 0.017183667 0.016064601 0.014024959 7.071068e-011 7.071068e-011 7.071068e-011 7.071068e-011
6709200000 0.07792823 -0.039979052 -0.014439783 0.014419438 7.071068e-011 7.071068e-011 7.071068e-011 7.071068e-011
6717600000 -0.031334482 0.031706437 -0.011506742 -0.015619745 7.071068e-011 7.071068e-011 7.071068e-011 7.071068e-011
6726000000 0.15281825 0.11801355 0.016187642 -0.0083983699 7.071068e-011 7.071068e-011 7.071068e-011 7.071068e-011
6734400000 0.13192187 -0.13848373 0.0047867647 0.015934749 7.071068e-011 7.071068e-011 7.071068e-011 7.071068e-011
6742800000 -0.10807618 0.021625496 -0.015919978 0.00087312399 7.071068e-011 7.071068e-011 7.071068e-011 7.071068e-011
6751200000 0.16715279 0.15581293 0.0025879829 -0.015616822 7.071068e-011 7.071068e-011 7.071068e-011 7.071068e-011
6759600000 0.1560318 -0.16858597 0.013626589 0.0062258961 7.071068e-011 7.071068e-011 7.071068e-011 7.071068e-011
6768000000 -0.14677693 -0.012211359 -0.010216978 0.011028374 7.071068e-011 7.071068e-011 7.071068e-011 7.071068e-011
6776400000 0.12836941 0.18197848 -0.0087332986 -0.013019397 7.071068e-011 7.071068e-011 7.071068e-011 7.071068e-011
6784800000 0.15687369 -0.1419307 0.014318243 -0.004775255 7.071068e-011 7.071068e-011 7.071068e-011 7.071068e-011
6793200000 -0.14648713 -0.014770997 0.00039923529 0.01549823 7.071068e-011 7.071068e-011 7.071068e-011 7.071068e-011
6801600000 0.094678268 0.20573764 -0.015904944 -0.0036341432 7.071068e-011 7.071068e-011 7.071068e-011 7.071068e-011
6810000000 0.17727479 -0.090097718 0.008123423 -0.014777 7.071068e-011 7.071068e-011 7.071068e-011 7.071068e-011
6818400000 -0.10281897 -0.018032439 0.012549556 0.012786951 7.071068e-011 7.071068e-011 7.071068e-011 7.071068e-011
6826800000 0.080146447 0.18787612 -0.01565592 0.0096510937 7.071068e-011 7.071068e-011 7.071068e-011 7.071068e-011
6835200000 0.18572585 -0.044150908 -0.0049440311 -0.017758183 7.071068e-011 7.071068e-011 7.071068e-011 7.071068e-011
6843600000 -0.042423707 -0.033368852 0.020178361 -0.00016488889 7.071068e-011 7.071068e-011 7.071068e-011 7.071068e-011
6852000000 0.068308055 0.13007198 -0.0042428849 0.020387024 7.071068e-011 7.071068e-011 7.071068e-011 7.071068e-011
6860400000 0.14848845 -0.016400896 -0.018710328 -0.0093686897 7.071068e-011 7.071068e-011 7.071068e-011 7.071068e-011
6868800000 0.006138843 -0.030294199 0.014408968 -0.016183009 7.071068e-011 7.071068e-011 7.071068e-011 7.071068e-011
6877200000 0.05067163 0.072483987 0.01275159 0.018077424 7.071068e-011 7.071068e-011 7.071068e-011 7.071068e-011
6885600000 0.091938712 0.0088287909 -0.02045178 0.0077346517 7.071068e-011 7.071068e-011 7.071068e-011 7.071068e-011
6894000000 0.047747426 -0.0018278748 -0.0022135864 -0.022044551 7.071068e-011 7.071068e-011 7.071068e-011 7.071068e-011
6902400000 0.038355481 0.019233845 0.021987533 0.0034521525 7.071068e-011 7.071068e-011 7.071068e-011 7.071068e-011
6910800000 0.030893251 0.03617036 -0.009054739 0.020121155 7.071068e-011 7.071068e-011 7.071068e-011 7.071068e-011
6919200000 0.076547131 0.051577337 -0.016747007 -0.013898655 7.071068e-011 7.071068e-011 7.071068e-011 7.071068e-011
6927600000 0.053711206 -0.011681989 0.01753162 -0.01243481 7.071068e-011 7.071068e-011 7.071068e-011 7.071068e-011
6936000000 -0.0031548725 0.057629887 0.0068375352 0.019707609 7.071068e-011 7.071068e-011 7.071068e-011 7.071068e-011
6944400000 0.10795611 0.093294054 -0.020882308 0.00053500757 7.071068e-011 7.071068e-011 7.071068e-011 7.071068e-011
6952800000 0.090257354 -0.043286573 0.0051461048 -0.019860448 7.071068e-011 7.071068e-011 7.071068e-011 7.071068e-011
6961200000 -0.02911205 0.047430176 0.016982967 0.010587091 7.071068e-011 7.071068e-011 7.071068e-011 7.071068e-011
6969600000 0.11785271 0.11069079 -0.015086014 0.012962596 7.071068e-011 7.071068e-011 7.071068e-011 7.071068e-011
6978000000 0.11007608 -0.066552758 -0.0076558255 -0.017758099 7.071068e-011 7.071068e-011 7.071068e-011 7.071068e-011
6986400000 -0.063881278 0.023086349 0.018829858 -0.0014257358 7.071068e-011 7.071068e-011 7.071068e-011 7.071068e-011
6994800000 0.094269179 0.13789093 -0.0045685288 0.018741803 7.071068e-011 7.071068e-011 7.071068e-011 7.071068e-011
7003200000 0.11733501 -0.051595017 -0.016137926 -0.0098740337 7.071068e-011 7.071068e-011 7.071068e-011 7.071068e-011
7011600000 -0.071294449 0.021124344 0.014820876 -0.011592699 7.071068e-011 7.071068e-011 7.071068e-011 7.071068e-011
7020000000 0.077848271 0.16484033 0.0066697989 0.017798482 7.071068e-011 7.071068e-011 7.071068e-011 7.071068e-011
7028400000 0.13982201 -0.02137064 -0.018628547 0.00059390202 7.071068e-011 7.071068e-011 7.071068e-011 7.071068e-011
7036800000 -0.050813191 0.019541619 0.0057826419 -0.018289609 7.071068e-011 7.071068e-011 7.071068e-011 7.071068e-011
7045200000 0.07864558 0.17306662 0.0156858 0.011058437 7.071068e-011 7.071068e-011 7.071068e-011 7.071068e-011
7053600000 0.17299633 0.0061153038 -0.015588179 0.010838861 7.071068e-011 7.071068e-011 7.071068e-011 7.071068e-011
7062000000 -0.0026427845 -0.012784348 -0.0052151908 -0.018994041 7.071068e-011 7.071068e-011 7.071068e-011 7.071068e-011
7070400000 0.068147063 0.14018442 0.019847978 0.00057810039 7.071068e-011 7.071068e-011 7.071068e-011 7.071068e-011
7078800000 0.1713451 0.016215507 -0.007219445 0.018180739 7.071068e-011 7.071068e-011 7.071068e-011 7.071068e-011
7087200000 0.038883001 -0.032475941 -0.015430979 -0.013064329 7.071068e-011 7.071068e-011 7.071068e-011 7.071068e-011
7095600000 0.051963553 0.087281786 0.017187852 -0.010825012 7.071068e-011 7.071068e-011 7.071068e-011 7.071068e-011
7104000000 0.1487961 0.017526705 0.0044994745 0.019752773 7.071068e-011 7.071068e-011 7.071068e-011 7.071068e-011
7112400000 0.05682769 -0.046524115 -0.020475084 -0.0023795855 7.071068e-011 7.071068e-011 7.071068e-011 7.071068e-011
7120800000 0.030884931 0.028319713 0.0085376343 -0.018996328 7.071068e-011 7.071068e-011 7.071068e-011 7.071068e-011
7129200000 0.08897461 0.018936224 0.014952104 0.013937729 7.071068e-011 7.071068e-011 7.071068e-011 7.071068e-011
7137600000 0.047532324 -0.037937988 -0.018525898 0.0095332805 7.071068e-011 7.071068e-011 7.071068e-011 7.071068e-011
7146000000 -0.00013947714 0.0095807044 -0.0032752336 -0.020744445 7.071068e-011 7.071068e-011 7.071068e-011 7.071068e-011
7154400000 0.028056309 0.041962713 0.020523094 0.0035421746 7.071068e-011 7.071068e-011 7.071068e-011 7.071068e-011
7162800000 0.046322163 0.017157717 -0.010130531 0.017897179 7.071068e-011 7.071068e-011 7.071068e-011 7.071068e-011
7171200000 0.0033912784 0.017826581 -0.013746363 -0.015568364 7.071068e-011 7.071068e-011 7.071068e-011 7.071068e-011
7179600000 0.014776948 0.070124991 0.018981099 -0.0078636054 7.071068e-011 7.071068e-011 7.071068e-011 7.071068e-011
7188000000 0.066332482 0.059880339 0.00085274986 0.020800123 7.071068e-011 7.071068e-011 7.071068e-011 7.071068e-011
7196400000 0.043915365 0.010308518 -0.019976087 -0.0058491025 7.071068e-011 7.071068e-011 7.071068e-011 7.071068e-011
7204800000 0.010060566 0.062485527 0.012174569 -0.01631037 7.071068e-011 7.071068e-011 7.071068e-011 7.071068e-011
7213200000 0.078993939 0.071600154 0.011290266 0.017186066 7.071068e-011 7.071068e-011 7.071068e-011 7.071068e-011
7221600000 0.07185366 -0.0026465568 -0.02012503 0.0050708763 7.071068e-011 7.071068e-011 7.071068e-011 7.071068e-011
7230000000 -0.00081484881 0.028636327 0.0019543304 -0.020500312 7.071068e-011 7.071068e-011 7.071068e-011 7.071068e-011
7238400000 0.064849123 0.078660525 0.018652687 0.0091652889 7.071068e-011 7.071068e-011 7.071068e-011 7.071068e-011
7246800000 0.081106782 -0.0093849758 -0.014839696 0.014624405 7.071068e-011 7.071068e-011 7.071068e-011 7.071068e-011
7255200000 -0.012888918 1.8766459e-005 -0.0084000556 -0.018790314 7.071068e-011 7.071068e-011 7.071068e-011 7.071068e-011
7263600000 0.026816711 0.083994649 0.020762142 -0.0016144487 7.071068e-011 7.071068e-011 7.071068e-011 7.071068e-011
7272000000 0.078681089 0.0081066489 -0.0052788793 0.01995345 7.071068e-011 7.071068e-011 7.071068e-011 7.071068e-011
7280400000 -0.023505189 -0.0063597891 -0.016829537 -0.01189436 7.071068e-011 7.071068e-011 7.071068e-011 7.071068e-011
7288800000 -0.0089916307 0.10317355 0.017270226 -0.011449114 7.071068e-011 7.071068e-011 7.071068e-011 7.071068e-011
7297200000 0.084906854 0.05985542 0.0048785317 0.020201517 7.071068e-011 7.071068e-011 7.071068e-011 7.071068e-011
7305600000 0.0087237516 0.0044776294 -0.02046209 -0.0025523917 7.071068e-011 7.071068e-011 7.071068e-011 7.071068e-011
7314000000 -0.0039527053 0.10612605 0.009466731 -0.018774999 7.071068e-011 7.071068e-011 7.071068e-011 7.071068e-011
7322400000 0.10858322 0.085698619 0.014236039 0.015034835 7.071068e-011 7.071068e-011 7.071068e-011 7.071068e-011
7330800000 0.060514469 -0.011664826 -0.019419491 0.0076865479 7.071068e-011 7.071068e-011 7.071068e-011 7.071068e-011
7339200000 0.0039810808 0.060625255 -0.00064615329 -0.021245159 7.071068e-011 7.071068e-011 7.071068e-011 7.071068e-011
7347600000 0.09910997 0.072266683 0.020012712 0.0065020849 7.071068e-011 7.071068e-011 7.071068e-011 7.071068e-011
7356000000 0.076119184 -0.033634655 -0.013129427 0.016210848 7.071068e-011 7.071068e-011 7.071068e-011 7.071068e-011
7364400000 -0.010168622 0.012376781 -0.01081013 -0.018201599 7.071068e-011 7.071068e-011 7.071068e-011 7.071068e-011
7372800000 0.054623317 0.054721225 0.020582426 -0.0039227335 7.071068e-011 7.071068e-011 7.071068e-011 7.071068e-011
7381200000 0.052959565 -0.030794777 -0.0039994912 0.020751053 7.071068e-011 7.071068e-011 7.071068e-011 7.071068e-011
7389600000 -0.040771559 0.0004552794 -0.018227046 -0.010909104 7.071068e-011 7.071068e-011 7.071068e-011 7.071068e-011
7398000000 0.0053086835 0.072002582 0.016570641 -0.012999392 7.071068e-011 7.071068e-011 7.071068e-011 7.071068e-011
7406400000 0.033111598 0.014995129 0.0063527906 0.020209609 7.071068e-011 7.071068e-011 7.071068e-011 7.071068e-011
7414800000 -0.03802602 0.027136644 -0.021334173 -0.0010626025 7.071068e-011 7.071068e-011 7.071068e-011 7.071068e-011
7423200000 -0.0017878619 0.10364595 0.0083668586 -0.019570243 7.071068e-011 7.071068e-011 7.071068e-011 7.071068e-011
7431600000 0.055602483 0.060628198 0.015243881 0.014938185 7.071068e-011 7.071068e-011 7.071068e-011 7.071068e-011
7440000000 0.013328398 0.038400125 -0.019337377 0.0092369299 7.071068e-011 7.071068e-011 7.071068e-011 7.071068e-011
7448400000 0.024116876 0.085501969 -0.0017201279 -0.021118172 7.071068e-011 7.071068e-011 7.071068e-011 7.071068e-011
7456800000 0.077377759 0.05544889 0.020393148 0.0059516216 7.071068e-011 7.071068e-011 7.071068e-011 7.071068e-011
7465200000 0.046233326 0.013904592 -0.012767257 0.017056651 7.071068e-011 7.071068e-011 7.071068e-011 7.071068e-011
7473600000 0.028468322 0.036875017 -0.011395711 -0.017794175 7.071068e-011 7.071068e-011 7.071068e-011 7.071068e-011
7482000000 0.058364492 0.033336427 0.02065382 -0.0040587885 7.071068e-011 7.071068e-011 7.071068e-011 7.071068e-011
7490400000 0.043649066 -0.010882179 -0.0035470945 0.020806698 7.071068e-011 7.071068e-011 7.071068e-011 7.071068e-011
7498800000 -0.00077493524 -0.0015002087 -0.018017804 -0.010650428 7.071068e-011 7.071068e-011 7.071068e-011 7.071068e-011
7507200000 0.00049557106 0.030859876 0.016376073 -0.01303922 7.071068e-011 7.071068e-011 7.071068e-011 7.071068e-011
7515600000 0.020605879 0.015465777 0.0062983385 0.019839462 7.071068e-011 7.071068e-011 7.071068e-011 7.071068e-011
7524000000 -0.02094394 0.0030790144 -0.020643622 -0.0013051858 7.071068e-011 7.071068e-011 7.071068e-011 7.071068e-011
7532400000 -0.034242295 0.060020942 0.0087592602 -0.018691372 7.071068e-011 7.071068e-011 7.071068e-011 7.071068e-011
7540800000 0.022772163 0.073329315 0.014373257 0.014725899 7.071068e-011 7.071068e-011 7.071068e-011 7.071068e-011
7549200000 0.019536451 0.022296349 -0.018579425 0.0077621252 7.071068e-011 7.071068e-011 7.071068e-011 7.071068e-011
7557600000 -0.018436443 0.061006635 -0.00034506057 -0.020236652 7.071068e-011 7.071068e-011 7.071068e-011 7.071068e-011
7566000000 0.047810342 0.083555438 0.018823773 0.0069766175 7.071068e-011 7.071068e-011 7.071068e-011 7.071068e-011
7574400000 0.060949791 0.0079362402 -0.013534481 0.014830107 7.071068e-011 7.071068e-011 7.071068e-011 7.071068e-011
7582800000 -0.0098581733 0.015258234 -0.0088368943 -0.018022515 7.071068e-011 7.071068e-011 7.071068e-011 7.071068e-011
7591200000 0.036532313 0.06441319 0.019757725 -0.0017446137 7.071068e-011 7.071068e-011 7.071068e-011 7.071068e-011
7599600000 0.059297837 -0.015018496 -0.0057468172 0.018644391 7.071068e-011 7.071068e-011 7.071068e-011 7.071068e-011
7608000000 -0.030992899 -0.020650713 -0.01544342 -0.012651362 7.071068e-011 7.071068e-011 7.071068e-011 7.071068e-011
7616400000 -0.01500581 0.056766175 0.01722745 -0.0099942517 7.071068e-011 7.071068e-011 7.071068e-011 7.071068e-011
7624800000 0.03149974 0.0050833724 0.0026609853 0.019552074 7.071068e-011 7.071068e-011 7.071068e-011 7.071068e-011
7633200000 -0.05261685 -0.0062334533 -0.019102782 -0.0047008302 7.071068e-011 7.071068e-011 7.071068e-011 7.071068e-011
7641600000 -0.03835658 0.086762168 0.011436231 -0.015850643 7.071068e-011 7.071068e-011 7.071068e-011 7.071068e-011
7650000000 0.037714187 0.05323251 0.010449394 0.016603108 7.071068e-011 7.071068e-011 7.071068e-011 7.071068e-011
7658400000 -0.020785538 0.011644607 -0.019537721 0.0037132667 7.071068e-011 7.071068e-011 7.071068e-011 7.071068e-011
7666800000 -0.022909105 0.095764346 0.0034935672 -0.019249069 7.071068e-011 7.071068e-011 7.071068e-011 7.071068e-011
7675200000 0.069638789 0.071765743 0.016129825 0.010780268 7.071068e-011 7.071068e-011 7.071068e-011 7.071068e-011
7683600000 0.031991653 -0.0041316017 -0.016287744 0.011226627 7.071068e-011 7.071068e-011 7.071068e-011 7.071068e-011
7692000000 -0.0052677095 0.046912037 -0.0045302212 -0.019149611 7.071068e-011 7.071068e-011 7.071068e-011 7.071068e-011
7700400000 0.065725379 0.043826599 0.019436363 0.002859938 7.071068e-011 7.071068e-011 7.071068e-011 7.071068e-011
7708800000 0.035701487 -0.03970097 -0.010032034 0.016901072 7.071068e-011 7.071068e-011 7.071068e-011 7.071068e-011
7717200000 -0.033637132 0.00064984476 -0.011996476 -0.015653003 7.071068e-011 7.071068e-011 7.071068e-011 7.071068e-011
7725600000 0.016778104 0.033849347 0.019001937 -0.0050677015 7.071068e-011 7.071068e-011 7.071068e-011 7.071068e-011
7734000000 0.014137745 -0.035593465 -0.0021876073 0.019744318 7.071068e-011 7.071068e-011 7.071068e-011 7.071068e-011
7742400000 -0.070759289 -0.012352316 -0.01727174 -0.009196992 7.071068e-011 7.071068e-011 7.071068e-011 7.071068e-011
7750800000 -0.040629104 0.062470835 0.015231141 -0.012521902 7.071068e-011 7.071068e-011 7.071068e-011 7.071068e-011
7759200000 0.0015424659 0.025293812 0.0059849652 0.018890683 7.071068e-011 7.071068e-011 7.071068e-011 7.071068e-011
7767600000 -0.053325079 0.019485477 -0.019762201 -0.001512009 7.071068e-011 7.071068e-011 7.071068e-011 7.071068e-011
7776000000 -0.037810277 0.090893358 0.0087808976 -0.017595844 7.071068e-011 7.071068e-011 7.071068e-011 7.071068e-011
7784400000 0.03142184 0.068123691 0.013075512 0.014787103 7.071068e-011 7.071068e-011 7.071068e-011 7.071068e-011
7792800000 0.0013316141 0.024760142 -0.018473415 0.0065007326 7.071068e-011 7.071068e-011 7.071068e-011 7.071068e-011
7801200000 -0.0076834713 0.070173718 0.0011229633 -0.019845728 7.071068e-011 7.071068e-011 7.071068e-011 7.071068e-011
7809600000 0.0531158 0.058523446 0.018013777 0.008246921 7.071068e-011 7.071068e-011 7.071068e-011 7.071068e-011
7818000000 0.035349429 -0.0043425406 -0.014432555 0.013282974 7.071068e-011 7.071068e-011 7.071068e-011 7.071068e-011
7826400000 -0.0055669127 0.020805694 -0.006947929 -0.018454768 7.071068e-011 7.071068e-011 7.071068e-011 7.071068e-011
7834800000 0.032539144 0.031585183 0.019704714 0.00048108477 7.071068e-011 7.071068e-011 7.071068e-011 7.071068e-011
7843200000 0.025295906 -0.019652771 -0.0078861043 0.018137373 7.071068e-011 7.071068e-011 7.071068e-011 7.071068e-011
7851600000 -0.026767433 -0.0046690409 -0.013828015 -0.014207679 7.071068e-011 7.071068e-011 7.071068e-011 7.071068e-011
7860000000 -0.0041875835 0.030775784 0.018279482 -0.007532326 7.071068e-011 7.071068e-011 7.071068e-011 7.071068e-011
7868400000 0.01039145 -0.0034748095 -9.7898512e-005 0.019713476 7.071068e-011 7.071068e-011 7.071068e-011 7.071068e-011
7876800000 -0.036199562 -0.0038490254 -0.018441252 -0.0075117247 7.071068e-011 7.071068e-011 7.071068e-011 7.071068e-011
7885200000 -0.030586075 0.043456648 0.013696196 -0.014309012 7.071068e-011 7.071068e-011 7.071068e-011 7.071068e-011
7893600000 0.0088427458 0.036174256 0.0079480801 0.017864563 7.071068e-011 7.071068e-011 7.071068e-011 7.071068e-011
7902000000 -0.0082441727 0.0093137706 -0.019641072 0.00036156125 7.071068e-011 7.071068e-011 7.071068e-011 7.071068e-011
7910400000 -0.021402419 0.039007269 0.0069724014 -0.018481778 7.071068e-011 7.071068e-011 7.071068e-011 7.071068e-011
7918800000 0.017062906 0.049010657 0.014311422 0.013236517 7.071068e-011 7.071068e-011 7.071068e-011 7.071068e-011
7927200000 0.028607039 0.0074252193 -0.017663442 0.0081490101 7.071068e-011 7.071068e-011 7.071068e-011 7.071068e-011
7935600000 -0.0079987738 0.0057652513 -0.00080138509 -0.019324563 7.071068e-011 7.071068e-011 7.071068e-011 7.071068e-011
7944000000 0.010917599 0.033210278 0.018136842 0.0067283381 7.071068e-011 7.071068e-011 7.071068e-011 7.071068e-011
7952400000 0.037527971 -0.0055672126 -0.013138608 0.014176726 7.071068e-011 7.071068e-011 7.071068e-011 7.071068e-011
7960800000 -0.015001504 -0.033385385 -0.0082194693 -0.017469384 7.071068e-011 7.071068e-011 7.071068e-011 7.071068e-011
7969200000 -0.029254723 0.020780159 0.018998547 -0.00086008263 7.071068e-011 7.071068e-011 7.071068e-011 7.071068e-011
7977600000 0.019990478 0.0068995138 -0.0065686195 0.017867966 7.071068e-011 7.071068e-011 7.071068e-011 7.071068e-011
7986000000 -0.024143951 -0.03975223 -0.014031871 -0.012854815 7.071068e-011 7.071068e-011 7.071068e-011 7.071068e-011
7994400000 -0.065402351 0.024719179 0.017147571 -0.0080853365 7.071068e-011 7.071068e-011 7.071068e-011 7.071068e-011
