!Keysight Technologies,N5235B,MY61252044,A.15.00.15
!Date: Friday, January 20, 2023 23:21:18
!Correction: S11(Off) 
!S21(Off) 
!S12(Off) 
!S22(Off) 
!S2P File: Measurements: S11, S21, S12, S22:
# Hz S  RI   R 50
6600000000 0.018552938 -0.17530882 0.015480777 -0.0030618485 7.071068e-011 7.071068e-011 7.071068e-011 7.071068e-011
6608408408.4084 -0.12453642 0.16563077 0.0053235898 0.010848969 7.071068e-011 7.071068e-011 7.071068e-011 7.071068e-011
6616816816.8168 0.30595395 0.092647374 -0.0089219874 0.0037062669 7.071068e-011 7.071068e-011 7.071068e-011 7.071068e-011
6625225225.2252 0.024634382 -0.2728917 -0.0017901532 -0.0093209771 7.071068e-011 7.071068e-011 7.071068e-011 7.071068e-011
6633633633.6336 -0.16569257 0.1613301 0.0093531078 -0.00039647266 7.071068e-011 7.071068e-011 7.071068e-011 7.071068e-011
6642042042.042 0.28985065 0.11322493 -0.0018493488 0.009338052 7.071068e-011 7.071068e-011 7.071068e-011 7.071068e-011
6650450450.4505 0.03919699 -0.25211272 -0.01074411 -0.0040917508 7.071068e-011 7.071068e-011 7.071068e-011 7.071068e-011
6658858858.8589 -0.1484594 0.13441509 0.0059780478 -0.011515033 7.071068e-011 7.071068e-011 7.071068e-011 7.071068e-011
6667267267.2673 0.22855632 0.10122047 0.012226643 0.0091741905 7.071068e-011 7.071068e-011 7.071068e-011 7.071068e-011
6675675675.6757 0.042816769 -0.15105291 -0.011552436 0.013850477 7.071068e-011 7.071068e-011 7.071068e-011 7.071068e-011
6684084084.0841 -0.044277623 0.084117427 -0.01463375 -0.013367716 7.071068e-011 7.071068e-011 7.071068e-011 7.071068e-011
6692492492.4925 0.10565841 0.047528367 0.014834161 -0.0149605 7.071068e-011 7.071068e-011 7.071068e-011 7.071068e-011
6700900900.9009 0.086101152 0.018279718 0.014803124 0.015426051 7.071068e-011 7.071068e-011 7.071068e-011 7.071068e-011
6709309309.3093 0.077113725 -0.041807793 -0.015564363 0.013142835 7.071068e-011 7.071068e-011 7.071068e-011 7.071068e-011
6717717717.7177 -0.031039488 0.034282774 -0.0101695 -0.016495906 7.071068e-011 7.071068e-011 7.071068e-011 7.071068e-011
6726126126.1261 0.15490261 0.11632403 0.016823795 -0.0071080569 7.071068e-011 7.071068e-011 7.071068e-011 7.071068e-011
6734534534.5345 0.12878667 -0.14058462 0.0035738943 0.016256567 7.071068e-011 7.071068e-011 7.071068e-011 7.071068e-011
6742942942.9429 -0.10796241 0.026508259 -0.015940852 -0.00026572685 7.071068e-011 7.071068e-011 7.071068e-011 7.071068e-011
6751351351.3514 0.17149155 0.15270574 0.003610645 -0.01540158 7.071068e-011 7.071068e-011 7.071068e-011 7.071068e-011
6759759759.7598 0.15072419 -0.17156513 0.013212444 0.0070683849 7.071068e-011 7.071068e-011 7.071068e-011 7.071068e-011
6768168168.1682 -0.14686286 -0.0055302614 -0.010863842 0.010437221 7.071068e-011 7.071068e-011 7.071068e-011 7.071068e-011
6776576576.5766 0.13390455 0.17886354 -0.0080283936 -0.01348696 7.071068e-011 7.071068e-011 7.071068e-011 7.071068e-011
6784984984.985 0.15127264 -0.14598893 0.014575031 -0.0040347585 7.071068e-011 7.071068e-011 7.071068e-011 7.071068e-011
6793393393.3934 -0.14731884 -0.0068232832 -0.00033254662 0.015546945 7.071068e-011 7.071068e-011 7.071068e-011 7.071068e-011
6801801801.8018 0.10130521 0.20277703 -0.015745135 -0.004290564 7.071068e-011 7.071068e-011 7.071068e-011 7.071068e-011
6810210210.2102 0.17262493 -0.094862193 0.0086770719 -0.01446161 7.071068e-011 7.071068e-011 7.071068e-011 7.071068e-011
6818618618.6186 -0.10536522 -0.010436025 0.012175208 0.013244985 7.071068e-011 7.071068e-011 7.071068e-011 7.071068e-011
6827027027.027 0.087816812 0.18546781 -0.015977994 0.0092351316 7.071068e-011 7.071068e-011 7.071068e-011 7.071068e-011
6835435435.4354 0.18141425 -0.048700724 -0.0045035388 -0.017920081 7.071068e-011 7.071068e-011 7.071068e-011 7.071068e-011
6843843843.8438 -0.045252196 -0.028046357 0.020204149 0.00022839058 7.071068e-011 7.071068e-011 7.071068e-011 7.071068e-011
6852252252.2523 0.074554771 0.12913573 -0.0045689777 0.020334683 7.071068e-011 7.071068e-011 7.071068e-011 7.071068e-011
6860660660.6607 0.14519891 -0.020054912 -0.018640487 -0.0096029676 7.071068e-011 7.071068e-011 7.071068e-011 7.071068e-011
6869069069.0691 0.0041707391 -0.027233122 0.014523808 -0.016123792 7.071068e-011 7.071068e-011 7.071068e-011 7.071068e-011
6877477477.4775 0.053990811 0.072688967 0.012713262 0.018109437 7.071068e-011 7.071068e-011 7.071068e-011 7.071068e-011
6885885885.8859 0.09040045 0.0067902259 -0.020475937 0.0077345786 7.071068e-011 7.071068e-011 7.071068e-011 7.071068e-011
6894294294.2943 0.047195185 -0.00088235229 -0.0023307898 -0.022049885 7.071068e-011 7.071068e-011 7.071068e-011 7.071068e-011
6902702702.7027 0.038343839 0.019255374 0.022029713 0.0032268541 7.071068e-011 7.071068e-011 7.071068e-011 7.071068e-011
6911111111.1111 0.030841203 0.037728008 -0.0087692691 0.020255433 7.071068e-011 7.071068e-011 7.071068e-011 7.071068e-011
6919519519.5195 0.078428403 0.049916405 -0.01698548 -0.013618815 7.071068e-011 7.071068e-011 7.071068e-011 7.071068e-011
6927927927.9279 0.050624423 -0.01239246 0.017252635 -0.012811854 7.071068e-011 7.071068e-011 7.071068e-011 7.071068e-011
6936336336.3363 -0.0020320485 0.062206753 0.0073038475 0.019492194 7.071068e-011 7.071068e-011 7.071068e-011 7.071068e-011
6944744744.7447 0.11228345 0.089316256 -0.020865256 0.0011674706 7.071068e-011 7.071068e-011 7.071068e-011 7.071068e-011
6953153153.1532 0.084437273 -0.045418844 0.0044746362 -0.020029897 7.071068e-011 7.071068e-011 7.071068e-011 7.071068e-011
6961561561.5616 -0.028383218 0.054268658 0.017375685 0.0099469703 7.071068e-011 7.071068e-011 7.071068e-011 7.071068e-011
6969969969.97 0.12462724 0.10605466 -0.014523566 0.01358704 7.071068e-011 7.071068e-011 7.071068e-011 7.071068e-011
6978378378.3784 0.10176563 -0.070919208 -0.0084221158 -0.017385282 7.071068e-011 7.071068e-011 7.071068e-011 7.071068e-011
6986786786.7868 -0.064146176 0.03283184 0.018754365 -0.0023137417 7.071068e-011 7.071068e-011 7.071068e-011 7.071068e-011
6995195195.1952 0.10306384 0.13382211 -0.0035339789 0.018948203 7.071068e-011 7.071068e-011 7.071068e-011 7.071068e-011
7003603603.6036 0.10879762 -0.057833288 -0.016635999 -0.0088932049 7.071068e-011 7.071068e-011 7.071068e-011 7.071068e-011
7012012012.012 -0.072536997 0.032462541 0.0141222 -0.012504546 7.071068e-011 7.071068e-011 7.071068e-011 7.071068e-011
7020420420.4204 0.087896727 0.16138329 0.007823837 0.01734308 7.071068e-011 7.071068e-011 7.071068e-011 7.071068e-011
7028828828.8288 0.13273358 -0.028926579 -0.018553212 0.0018527817 7.071068e-011 7.071068e-011 7.071068e-011 7.071068e-011
7037237237.2372 -0.054045197 0.030572115 0.0044006114 -0.018681496 7.071068e-011 7.071068e-011 7.071068e-011 7.071068e-011
7045645645.6456 0.090076201 0.17101499 0.016489288 0.0097942706 7.071068e-011 7.071068e-011 7.071068e-011 7.071068e-011
7054054054.0541 0.16760182 -0.0032106827 -0.014680782 0.012086743 7.071068e-011 7.071068e-011 7.071068e-011 7.071068e-011
7062462462.4625 -0.008174099 -0.0038725671 -0.0068790792 -0.018489093 7.071068e-011 7.071068e-011 7.071068e-011 7.071068e-011
7070870870.8709 0.078383908 0.1402877 0.019799845 -0.0012265589 7.071068e-011 7.071068e-011 7.071068e-011 7.071068e-011
7079279279.2793 0.16821222 0.0074113775 -0.0055270791 0.018830903 7.071068e-011 7.071068e-011 7.071068e-011 7.071068e-011
7087687687.6877 0.032687541 -0.02698414 -0.016686846 -0.011476005 7.071068e-011 7.071068e-011 7.071068e-011 7.071068e-011
7096096096.0961 0.059372079 0.089230061 0.015952641 -0.012519113 7.071068e-011 7.071068e-011 7.071068e-011 7.071068e-011
7104504504.5045 0.14790106 0.010454423 0.0065737823 0.019161161 7.071068e-011 7.071068e-011 7.071068e-011 7.071068e-011
7112912912.9129 0.050766286 -0.044756588 -0.020678245 -9.4259252e-005 7.071068e-011 7.071068e-011 7.071068e-011 7.071068e-011
7121321321.3213 0.034444906 0.032024164 0.0062920311 -0.019886883 7.071068e-011 7.071068e-011 7.071068e-011 7.071068e-011
7129729729.7297 0.089291625 0.014334923 0.01649666 0.012069798 7.071068e-011 7.071068e-011 7.071068e-011 7.071068e-011
7138138138.1381 0.043362379 -0.03765665 -0.017193133 0.011750819 7.071068e-011 7.071068e-011 7.071068e-011 7.071068e-011
7146546546.5465 -0.00041512822 0.013502865 -0.0058898041 -0.02014227 7.071068e-011 7.071068e-011 7.071068e-011 7.071068e-011
7154954954.955 0.030506669 0.041400149 0.020836737 0.00081836077 7.071068e-011 7.071068e-011 7.071068e-011 7.071068e-011
7163363363.3634 0.045120828 0.015719155 -0.0076394617 0.019137964 7.071068e-011 7.071068e-011 7.071068e-011 7.071068e-011
7171771771.7718 0.0010351802 0.020243417 -0.015788371 -0.01347783 7.071068e-011 7.071068e-011 7.071068e-011 7.071068e-011
7180180180.1802 0.018595729 0.07259056 0.017635275 -0.010434967 7.071068e-011 7.071068e-011 7.071068e-011 7.071068e-011
7188588588.5886 0.067655876 0.056055903 0.0039184103 0.020479763 7.071068e-011 7.071068e-011 7.071068e-011 7.071068e-011
7196996996.997 0.039963655 0.010252186 -0.020651279 -0.0027125196 7.071068e-011 7.071068e-011 7.071068e-011 7.071068e-011
7205405405.4054 0.012278685 0.066961668 0.0095290216 -0.018048508 7.071068e-011 7.071068e-011 7.071068e-011 7.071068e-011
7213813813.8138 0.08315289 0.067384653 0.013898216 0.015189594 7.071068e-011 7.071068e-011 7.071068e-011 7.071068e-011
7222222222.2222 0.066334158 -0.0055981195 -0.019001981 0.0082690865 7.071068e-011 7.071068e-011 7.071068e-011 7.071068e-011
7230630630.6306 -0.0014433335 0.035185277 -0.0014750845 -0.020520037 7.071068e-011 7.071068e-011 7.071068e-011 7.071068e-011
7239039039.039 0.071661867 0.07556425 0.019989559 0.0058265375 7.071068e-011 7.071068e-011 7.071068e-011 7.071068e-011
7247447447.4474 0.075114086 -0.014804989 -0.012007852 0.017024877 7.071068e-011 7.071068e-011 7.071068e-011 7.071068e-011
7255855855.8559 -0.016440691 0.0073772441 -0.011641102 -0.017031051 7.071068e-011 7.071068e-011 7.071068e-011 7.071068e-011
7264264264.2643 0.034723978 0.083948508 0.020148207 -0.0053931409 7.071068e-011 7.071068e-011 7.071068e-011 7.071068e-011
7272672672.6727 0.074467644 0.00083059521 -0.0014850978 0.020577373 7.071068e-011 7.071068e-011 7.071068e-011 7.071068e-011
7281081081.0811 -0.029837031 0.00061653351 -0.018773433 -0.0084306207 7.071068e-011 7.071068e-011 7.071068e-011 7.071068e-011
7289489489.4895 -0.00010867562 0.10772873 0.014687931 -0.014668691 7.071068e-011 7.071068e-011 7.071068e-011 7.071068e-011
7297897897.8979 0.085075296 0.050590813 0.0088504246 0.01883677 7.071068e-011 7.071068e-011 7.071068e-011 7.071068e-011
7306306306.3063 0.00098325778 0.0089210104 -0.020599835 0.0016177341 7.071068e-011 7.071068e-011 7.071068e-011 7.071068e-011
7314714714.7147 0.004224028 0.11274567 0.0053707422 -0.020328028 7.071068e-011 7.071068e-011 7.071068e-011 7.071068e-011
7323123123.1231 0.11251466 0.075375974 0.017049439 0.011727683 7.071068e-011 7.071068e-011 7.071068e-011 7.071068e-011
7331531531.5315 0.051416688 -0.011744867 -0.017342661 0.011759859 7.071068e-011 7.071068e-011 7.071068e-011 7.071068e-011
7339939939.9399 0.0078010163 0.068473727 -0.0053674728 -0.020582734 7.071068e-011 7.071068e-011 7.071068e-011 7.071068e-011
7348348348.3483 0.10550626 0.063861474 0.020965574 0.0018897648 7.071068e-011 7.071068e-011 7.071068e-011 7.071068e-011
7356756756.7568 0.066208668 -0.037136931 -0.0091768187 0.018838694 7.071068e-011 7.071068e-011 7.071068e-011 7.071068e-011
7365165165.1652 -0.01030426 0.020966623 -0.014797407 -0.015179664 7.071068e-011 7.071068e-011 7.071068e-011 7.071068e-011
7373573573.5736 0.061612912 0.049742945 0.019020421 -0.0086148502 7.071068e-011 7.071068e-011 7.071068e-011 7.071068e-011
7381981981.982 0.043846268 -0.035295475 0.0011057972 0.02114428 7.071068e-011 7.071068e-011 7.071068e-011 7.071068e-011
7390390390.3904 -0.042921484 0.0096298978 -0.020374984 -0.0061326986 7.071068e-011 7.071068e-011 7.071068e-011 7.071068e-011
7398798798.7988 0.012782317 0.071173623 0.012885672 -0.016748797 7.071068e-011 7.071068e-011 7.071068e-011 7.071068e-011
7407207207.2072 0.028085491 0.0099804513 0.011241967 0.017996868 7.071068e-011 7.071068e-011 7.071068e-011 7.071068e-011
7415615615.6156 -0.040999021 0.035173073 -0.020903692 0.0044416967 7.071068e-011 7.071068e-011 7.071068e-011 7.071068e-011
7424024024.024 0.0067540999 0.10517249 0.0030179985 -0.021082437 7.071068e-011 7.071068e-011 7.071068e-011 7.071068e-011
7432432432.4324 0.05476521 0.054014176 0.018728772 0.01039096 7.071068e-011 7.071068e-011 7.071068e-011 7.071068e-011
7440840840.8408 0.0097439829 0.042448983 -0.016127452 0.014111788 7.071068e-011 7.071068e-011 7.071068e-011 7.071068e-011
7449249249.2492 0.030361893 0.087006502 -0.00738254 -0.019881578 7.071068e-011 7.071068e-011 7.071068e-011 7.071068e-011
7457657657.6577 0.077796064 0.049047325 0.021286208 0.00012665933 7.071068e-011 7.071068e-011 7.071068e-011 7.071068e-011
7466066066.0661 0.041955508 0.014085612 -0.0074926191 0.019977611 7.071068e-011 7.071068e-011 7.071068e-011 7.071068e-011
7474474474.4745 0.030337363 0.039198685 -0.01599071 -0.013823329 7.071068e-011 7.071068e-011 7.071068e-011 7.071068e-011
7482882882.8829 0.059956644 0.029262828 0.018643051 -0.0098514613 7.071068e-011 7.071068e-011 7.071068e-011 7.071068e-011
7491291291.2913 0.038890798 -0.01352587 0.0026876195 0.020960996 7.071068e-011 7.071068e-011 7.071068e-011 7.071068e-011
7499699699.6997 -0.0033325902 0.0025304018 -0.020407705 -0.0048849536 7.071068e-011 7.071068e-011 7.071068e-011 7.071068e-011
7508108108.1081 0.003314822 0.031797994 0.011731336 -0.017372239 7.071068e-011 7.071068e-011 7.071068e-011 7.071068e-011
7516516516.5165 0.019288346 0.012086601 0.012044819 0.016991954 7.071068e-011 7.071068e-011 7.071068e-011 7.071068e-011
7524924924.9249 -0.026214931 0.0065165344 -0.020044273 0.0051271738 7.071068e-011 7.071068e-011 7.071068e-011 7.071068e-011
7533333333.3333 -0.030014897 0.065948643 0.0025041271 -0.020530298 7.071068e-011 7.071068e-011 7.071068e-011 7.071068e-011
7541741741.7417 0.027970875 0.068989791 0.018288329 0.0094679892 7.071068e-011 7.071068e-011 7.071068e-011 7.071068e-011
7550150150.1502 0.012952249 0.020470666 -0.015211292 0.013266003 7.071068e-011 7.071068e-011 7.071068e-011 7.071068e-011
7558558558.5586 -0.015284665 0.068543494 -0.0068902001 -0.019056732 7.071068e-011 7.071068e-011 7.071068e-011 7.071068e-011
7566966966.967 0.055560295 0.077988662 0.020032598 0.00045867506 7.071068e-011 7.071068e-011 7.071068e-011 7.071068e-011
7575375375.3754 0.053591471 0.0011328277 -0.0078933043 0.018502796 7.071068e-011 7.071068e-011 7.071068e-011 7.071068e-011
7583783783.7838 -0.011775556 0.023821902 -0.014444579 -0.01407762 7.071068e-011 7.071068e-011 7.071068e-011 7.071068e-011
7592192192.1922 0.045280125 0.060721874 0.018019352 -0.0083545195 7.071068e-011 7.071068e-011 7.071068e-011 7.071068e-011
7600600600.6006 0.051989112 -0.024291662 0.00090816111 0.019506771 7.071068e-011 7.071068e-011 7.071068e-011 7.071068e-011
7609009009.009 -0.038094688 -0.010927204 -0.018909821 -0.0065157558 7.071068e-011 7.071068e-011 7.071068e-011 7.071068e-011
7617417417.4174 -0.0051421798 0.058239501 0.012617601 -0.015349312 7.071068e-011 7.071068e-011 7.071068e-011 7.071068e-011
7625825825.8258 0.026381793 -0.0041506942 0.009458716 0.017407598 7.071068e-011 7.071068e-011 7.071068e-011 7.071068e-011
7634234234.2342 -0.060570266 0.0040495838 -0.019572968 0.0024674162 7.071068e-011 7.071068e-011 7.071068e-011 7.071068e-011
7642642642.6426 -0.026652116 0.091479622 0.0049776714 -0.018936407 7.071068e-011 7.071068e-011 7.071068e-011 7.071068e-011
7651051051.0511 0.037464075 0.042715948 0.015796056 0.011703207 7.071068e-011 7.071068e-011 7.071068e-011 7.071068e-011
7659459459.4595 -0.029591242 0.017976763 -0.016788239 0.010708118 7.071068e-011 7.071068e-011 7.071068e-011 7.071068e-011
7667867867.8679 -0.011810249 0.10242272 -0.0039314399 -0.019139906 7.071068e-011 7.071068e-011 7.071068e-011 7.071068e-011
7676276276.2763 0.073984101 0.059159391 0.019120898 0.003932829 7.071068e-011 7.071068e-011 7.071068e-011 7.071068e-011
7684684684.6847 0.021401783 -0.0040458371 -0.010759064 0.016646424 7.071068e-011 7.071068e-011 7.071068e-011 7.071068e-011
7693093093.0931 0.00067110744 0.054434415 -0.011508843 -0.015970115 7.071068e-011 7.071068e-011 7.071068e-011 7.071068e-011
7701501501.5015 0.071007565 0.03252029 0.019044051 -0.004861454 7.071068e-011 7.071068e-011 7.071068e-011 7.071068e-011
7709909909.9099 0.023404336 -0.042346202 -0.0025908081 0.019548047 7.071068e-011 7.071068e-011 7.071068e-011 7.071068e-011
7718318318.3183 -0.033113509 0.010620781 -0.017259631 -0.0095878737 7.071068e-011 7.071068e-011 7.071068e-011 7.071068e-011
7726726726.7267 0.024184249 0.027962191 0.015455707 -0.012289035 7.071068e-011 7.071068e-011 7.071068e-011 7.071068e-011
7735135135.1351 0.0031183835 -0.04126225 0.0059856861 0.018977016 7.071068e-011 7.071068e-011 7.071068e-011 7.071068e-011
7743543543.5435 -0.075145356 -0.000378586 -0.019562932 -0.001422079 7.071068e-011 7.071068e-011 7.071068e-011 7.071068e-011
7751951951.952 -0.030385723 0.064426698 0.0087027485 -0.017725801 7.071068e-011 7.071068e-011 7.071068e-011 7.071068e-011
7760360360.3604 -0.0026447999 0.017420959 0.013293548 0.014654628 7.071068e-011 7.071068e-011 7.071068e-011 7.071068e-011
7768768768.7688 -0.058231663 0.028483832 -0.01860084 0.0069060558 7.071068e-011 7.071068e-011 7.071068e-011 7.071068e-011
7777177177.1772 -0.027329003 0.095386758 0.00056310865 -0.019752124 7.071068e-011 7.071068e-011 7.071068e-011 7.071068e-011
7785585585.5856 0.033784326 0.058257826 0.018171199 0.0078039933 7.071068e-011 7.071068e-011 7.071068e-011 7.071068e-011
7793993993.994 -0.0053339629 0.027648337 -0.013912166 0.013741828 7.071068e-011 7.071068e-011 7.071068e-011 7.071068e-011
7802402402.4024 -0.00070865056 0.074861623 -0.0076252702 -0.018395931 7.071068e-011 7.071068e-011 7.071068e-011 7.071068e-011
7810810810.8108 0.058145024 0.049059737 0.019810474 -0.0004965227 7.071068e-011 7.071068e-011 7.071068e-011 7.071068e-011
7819219219.2192 0.026004378 -0.006540155 -0.0071081459 0.018379431 7.071068e-011 7.071068e-011 7.071068e-011 7.071068e-011
7827627627.6276 -0.0036012528 0.02687303 -0.014449636 -0.013449429 7.071068e-011 7.071068e-011 7.071068e-011 7.071068e-011
7836036036.036 0.037418015 0.02568833 0.017848309 -0.0083913766 7.071068e-011 7.071068e-011 7.071068e-011 7.071068e-011
7844444444.4444 0.016593022 -0.02360405 0.0011498766 0.019742602 7.071068e-011 7.071068e-011 7.071068e-011 7.071068e-011
7852852852.8529 -0.02819399 0.0027808289 -0.018830059 -0.0063403491 7.071068e-011 7.071068e-011 7.071068e-011 7.071068e-011
7861261261.2613 0.0014792376 0.029630039 0.012764087 -0.015100348 7.071068e-011 7.071068e-011 7.071068e-011 7.071068e-011
7869669669.6697 0.0057077855 -0.0092063919 0.0090609286 0.017576419 7.071068e-011 7.071068e-011 7.071068e-011 7.071068e-011
7878078078.0781 -0.040512618 0.0032799016 -0.019842107 0.0020041831 7.071068e-011 7.071068e-011 7.071068e-011 7.071068e-011
7886486486.4865 -0.024368985 0.04699897 0.0053433813 -0.019065069 7.071068e-011 7.071068e-011 7.071068e-011 7.071068e-011
7894894894.8949 0.010837287 0.03023305 0.015454158 0.011972523 7.071068e-011 7.071068e-011 7.071068e-011 7.071068e-011
7903303303.3033 -0.013409951 0.011223555 -0.017090088 0.0097386818 7.071068e-011 7.071068e-011 7.071068e-011 7.071068e-011
7911711711.7117 -0.017847752 0.043716777 -0.0028080142 -0.019501768 7.071068e-011 7.071068e-011 7.071068e-011 7.071068e-011
7920120120.1201 0.022946952 0.045083296 0.018928932 0.004701253 7.071068e-011 7.071068e-011 7.071068e-011 7.071068e-011
7928528528.5285 0.023835812 0.0018944142 -0.011451149 0.015766542 7.071068e-011 7.071068e-011 7.071068e-011 7.071068e-011
7936936936.9369 -0.010115778 0.01110729 -0.0102027 -0.016396873 7.071068e-011 7.071068e-011 7.071068e-011 7.071068e-011
7945345345.3453 0.017906422 0.032170616 0.019051464 -0.003126689 7.071068e-011 7.071068e-011 7.071068e-011 7.071068e-011
