!Keysight Technologies,N5235B,MY61252044,A.15.00.15
!Date: Friday, January 20, 2023 21:14:19
!Correction: S11(Off) 
!S21(Off) 
!S12(Off) 
!S22(Off) 
!S2P File: Measurements: S11, S21, S12, S22:
# Hz S  RI   R 50
6600000000 0.017138753 -0.17499687 0.015477732 -0.003199412 7.071068e-011 7.071068e-011 7.071068e-011 7.071068e-011
6608408408.4084 -0.12335106 0.16703793 0.0054447912 0.010821375 7.071068e-011 7.071068e-011 7.071068e-011 7.071068e-011
6616816816.8168 0.30682236 0.090951458 -0.0088937636 0.003797652 7.071068e-011 7.071068e-011 7.071068e-011 7.071068e-011
6625225225.2252 0.022678126 -0.27290043 -0.0018856411 -0.0093043391 7.071068e-011 7.071068e-011 7.071068e-011 7.071068e-011
6633633633.6336 -0.16473156 0.16307232 0.0093449214 -0.000495566 7.071068e-011 7.071068e-011 7.071068e-011 7.071068e-011
6642042042.042 0.29103306 0.1117302 -0.0017534611 0.0093519138 7.071068e-011 7.071068e-011 7.071068e-011 7.071068e-011
6650450450.4505 0.037330694 -0.25244772 -0.010778731 -0.0039763562 7.071068e-011 7.071068e-011 7.071068e-011 7.071068e-011
6658858858.8589 -0.14776599 0.13609181 0.0058590798 -0.011591882 7.071068e-011 7.071068e-011 7.071068e-011 7.071068e-011
6667267267.2673 0.22953846 0.10001837 0.012317882 0.0090520019 7.071068e-011 7.071068e-011 7.071068e-011 7.071068e-011
6675675675.6757 0.041571457 -0.15121125 -0.011407033 0.013964354 7.071068e-011 7.071068e-011 7.071068e-011 7.071068e-011
6684084084.0841 -0.043918047 0.084881179 -0.014763471 -0.013219246 7.071068e-011 7.071068e-011 7.071068e-011 7.071068e-011
6692492492.4925 0.1059949 0.047389682 0.014684687 -0.015105908 7.071068e-011 7.071068e-011 7.071068e-011 7.071068e-011
6700900900.9009 0.08606685 0.017769607 0.014954519 0.015271457 7.071068e-011 7.071068e-011 7.071068e-011 7.071068e-011
6709309309.3093 0.076554127 -0.04159005 -0.015450289 0.013302729 7.071068e-011 7.071068e-011 7.071068e-011 7.071068e-011
6717717717.7177 -0.030758373 0.034867309 -0.010348354 -0.01639696 7.071068e-011 7.071068e-011 7.071068e-011 7.071068e-011
6726126126.1261 0.15560609 0.1158095 0.016763238 -0.0072852969 7.071068e-011 7.071068e-011 7.071068e-011 7.071068e-011
6734534534.5345 0.1278283 -0.14112107 0.0037494984 0.016233424 7.071068e-011 7.071068e-011 7.071068e-011 7.071068e-011
6742942942.9429 -0.10795672 0.027855592 -0.015947852 -9.2896378e-005 7.071068e-011 7.071068e-011 7.071068e-011 7.071068e-011
6751351351.3514 0.17280683 0.1520326 0.0034349915 -0.015437801 7.071068e-011 7.071068e-011 7.071068e-011 7.071068e-011
6759759759.7598 0.14947258 -0.17241888 0.013289192 0.0069258264 7.071068e-011 7.071068e-011 7.071068e-011 7.071068e-011
6768168168.1682 -0.14694493 -0.0039898739 -0.010757219 0.010562636 7.071068e-011 7.071068e-011 7.071068e-011 7.071068e-011
6776576576.5766 0.13528244 0.17831056 -0.0081688548 -0.013400972 7.071068e-011 7.071068e-011 7.071068e-011 7.071068e-011
6784984984.985 0.1502683 -0.14691141 0.014539059 -0.0041922592 7.071068e-011 7.071068e-011 7.071068e-011 7.071068e-011
6793393393.3934 -0.1477333 -0.0055232951 -0.00016631369 0.01554857 7.071068e-011 7.071068e-011 7.071068e-011 7.071068e-011
6801801801.8018 0.10274269 0.20265806 -0.015801575 -0.0041219825 7.071068e-011 7.071068e-011 7.071068e-011 7.071068e-011
6810210210.2102 0.17180195 -0.096042611 0.0085166534 -0.014565228 7.071068e-011 7.071068e-011 7.071068e-011 7.071068e-011
6818618618.6186 -0.10592373 -0.0091585387 0.012324129 0.013115363 7.071068e-011 7.071068e-011 7.071068e-011 7.071068e-011
6827027027.027 0.08906731 0.18540965 -0.01587666 0.009407863 7.071068e-011 7.071068e-011 7.071068e-011 7.071068e-011
6835435435.4354 0.1808527 -0.049626552 -0.0046918802 -0.017861996 7.071068e-011 7.071068e-011 7.071068e-011 7.071068e-011
6843843843.8438 -0.04569979 -0.027226934 0.020195358 1.4665342e-005 7.071068e-011 7.071068e-011 7.071068e-011 7.071068e-011
6852252252.2523 0.075245589 0.12922266 -0.0043422929 0.020376528 7.071068e-011 7.071068e-011 7.071068e-011 7.071068e-011
6860660660.6607 0.14512765 -0.020663697 -0.018731497 -0.0093988804 7.071068e-011 7.071068e-011 7.071068e-011 7.071068e-011
6869069069.0691 0.0036062472 -0.02686342 0.014359654 -0.016273553 7.071068e-011 7.071068e-011 7.071068e-011 7.071068e-011
6877477477.4775 0.054547995 0.0729478 0.012905159 0.017974537 7.071068e-011 7.071068e-011 7.071068e-011 7.071068e-011
6885885885.8859 0.090334244 0.0064244666 -0.020390643 0.0079609649 7.071068e-011 7.071068e-011 7.071068e-011 7.071068e-011
6894294294.2943 0.047018081 -0.00075200538 -0.0025739337 -0.022032535 7.071068e-011 7.071068e-011 7.071068e-011 7.071068e-011
6902702702.7027 0.038359437 0.019304158 0.022063555 0.002986148 7.071068e-011 7.071068e-011 7.071068e-011 7.071068e-011
6911111111.1111 0.030936899 0.037942264 -0.0085455552 0.020339772 7.071068e-011 7.071068e-011 7.071068e-011 7.071068e-011
6919519519.5195 0.078591608 0.049524281 -0.017130874 -0.013427413 7.071068e-011 7.071068e-011 7.071068e-011 7.071068e-011
6927927927.9279 0.050147958 -0.012278207 0.017101502 -0.012988869 7.071068e-011 7.071068e-011 7.071068e-011 7.071068e-011
6936336336.3363 -0.0017617497 0.062559173 0.0075121601 0.019408954 7.071068e-011 7.071068e-011 7.071068e-011 7.071068e-011
6944744744.7447 0.11256771 0.088955626 -0.020853115 0.0013977861 7.071068e-011 7.071068e-011 7.071068e-011 7.071068e-011
6953153153.1532 0.08388377 -0.045590717 0.0042448482 -0.020076206 7.071068e-011 7.071068e-011 7.071068e-011 7.071068e-011
6961561561.5616 -0.028329145 0.054933358 0.017477674 0.0097633768 7.071068e-011 7.071068e-011 7.071068e-011 7.071068e-011
6969969969.97 0.12535433 0.10569067 -0.01437237 0.013751547 7.071068e-011 7.071068e-011 7.071068e-011 7.071068e-011
6978378378.3784 0.10098093 -0.071415715 -0.0086208591 -0.017287685 7.071068e-011 7.071068e-011 7.071068e-011 7.071068e-011
6986786786.7868 -0.064136088 0.033839136 0.018722048 -0.0025278614 7.071068e-011 7.071068e-011 7.071068e-011 7.071068e-011
6995195195.1952 0.1038859 0.13337469 -0.0033253226 0.018971177 7.071068e-011 7.071068e-011 7.071068e-011 7.071068e-011
7003603603.6036 0.10804666 -0.058296569 -0.016721005 -0.0087109096 7.071068e-011 7.071068e-011 7.071068e-011 7.071068e-011
7012012012.012 -0.072655991 0.033328261 0.013980654 -0.012655774 7.071068e-011 7.071068e-011 7.071068e-011 7.071068e-011
7020420420.4204 0.088737532 0.1612177 0.0080200899 0.017248219 7.071068e-011 7.071068e-011 7.071068e-011 7.071068e-011
7028828828.8288 0.13219805 -0.029652508 -0.018526476 0.0020603775 7.071068e-011 7.071068e-011 7.071068e-011 7.071068e-011
7037237237.2372 -0.054478392 0.031464119 0.0041885129 -0.018722288 7.071068e-011 7.071068e-011 7.071068e-011 7.071068e-011
7045645645.6456 0.091029152 0.17104335 0.016599733 0.0095952526 7.071068e-011 7.071068e-011 7.071068e-011 7.071068e-011
7054054054.0541 0.16719562 -0.0039995192 -0.014533102 0.0122439 7.071068e-011 7.071068e-011 7.071068e-011 7.071068e-011
7062462462.4625 -0.0086624632 -0.0030828482 -0.0070863594 -0.018394118 7.071068e-011 7.071068e-011 7.071068e-011 7.071068e-011
7070870870.8709 0.079167649 0.14035328 0.019757481 -0.0014507336 7.071068e-011 7.071068e-011 7.071068e-011 7.071068e-011
7079279279.2793 0.16802138 0.006828371 -0.0053113718 0.018873753 7.071068e-011 7.071068e-011 7.071068e-011 7.071068e-011
7087687687.6877 0.032227404 -0.026634447 -0.016808728 -0.011291232 7.071068e-011 7.071068e-011 7.071068e-011 7.071068e-011
7096096096.0961 0.05986242 0.089616865 0.01580387 -0.012699234 7.071068e-011 7.071068e-011 7.071068e-011 7.071068e-011
7104504504.5045 0.14803848 0.0098731834 0.0067760083 0.019079419 7.071068e-011 7.071068e-011 7.071068e-011 7.071068e-011
7112912912.9129 0.050276861 -0.044537343 -0.020675531 0.00013883448 7.071068e-011 7.071068e-011 7.071068e-011 7.071068e-011
7121321321.3213 0.034776732 0.032361366 0.0060604871 -0.01994356 7.071068e-011 7.071068e-011 7.071068e-011 7.071068e-011
7129729729.7297 0.089481682 0.013979101 0.016615123 0.011881483 7.071068e-011 7.071068e-011 7.071068e-011 7.071068e-011
7138138138.1381 0.043041941 -0.037649576 -0.01704384 0.011934774 7.071068e-011 7.071068e-011 7.071068e-011 7.071068e-011
7146546546.5465 -0.00037887759 0.01371149 -0.0061187525 -0.020052571 7.071068e-011 7.071068e-011 7.071068e-011 7.071068e-011
7154954954.955 0.030707842 0.041431215 0.020828092 0.00059580436 7.071068e-011 7.071068e-011 7.071068e-011 7.071068e-011
7163363363.3634 0.045023154 0.015387352 -0.0074241445 0.019209011 7.071068e-011 7.071068e-011 7.071068e-011 7.071068e-011
7171771771.7718 0.00078662112 0.020539965 -0.015944803 -0.013294093 7.071068e-011 7.071068e-011 7.071068e-011 7.071068e-011
7180180180.1802 0.018881369 0.072632745 0.017511711 -0.010633663 7.071068e-011 7.071068e-011 7.071068e-011 7.071068e-011
7188588588.5886 0.067655951 0.055826824 0.0041515739 0.020418447 7.071068e-011 7.071068e-011 7.071068e-011 7.071068e-011
7196996996.997 0.03966289 0.01028932 -0.020665936 -0.0024662495 7.071068e-011 7.071068e-011 7.071068e-011 7.071068e-011
7205405405.4054 0.01241318 0.067252964 0.0093092257 -0.018147318 7.071068e-011 7.071068e-011 7.071068e-011 7.071068e-011
7213813813.8138 0.083384484 0.067194439 0.014070175 0.015018516 7.071068e-011 7.071068e-011 7.071068e-011 7.071068e-011
7222222222.2222 0.065983512 -0.0057935934 -0.0188876 0.0084766466 7.071068e-011 7.071068e-011 7.071068e-011 7.071068e-011
7230630630.6306 -0.0014667307 0.035721149 -0.0017093314 -0.020491086 7.071068e-011 7.071068e-011 7.071068e-011 7.071068e-011
7239039039.039 0.072081804 0.075326048 0.020038132 0.0056060725 7.071068e-011 7.071068e-011 7.071068e-011 7.071068e-011
7247447447.4474 0.074742533 -0.01501717 -0.011810532 0.017133689 7.071068e-011 7.071068e-011 7.071068e-011 7.071068e-011
7255855855.8559 -0.01654586 0.0077820346 -0.011823507 -0.016892839 7.071068e-011 7.071068e-011 7.071068e-011 7.071068e-011
7264264264.2643 0.035175242 0.083949171 0.020086143 -0.0056142365 7.071068e-011 7.071068e-011 7.071068e-011 7.071068e-011
7272672672.6727 0.074282326 0.00038170168 -0.0012485961 0.020591604 7.071068e-011 7.071068e-011 7.071068e-011 7.071068e-011
7281081081.0811 -0.030220289 0.00098222576 -0.018854937 -0.0082135266 7.071068e-011 7.071068e-011 7.071068e-011 7.071068e-011
7289489489.4895 0.00039749476 0.10796726 0.014515276 -0.014814055 7.071068e-011 7.071068e-011 7.071068e-011 7.071068e-011
7297897897.8979 0.085030369 0.050008111 0.0090500209 0.018720105 7.071068e-011 7.071068e-011 7.071068e-011 7.071068e-011
7306306306.3063 0.00048635114 0.0091953538 -0.020566992 0.0018466125 7.071068e-011 7.071068e-011 7.071068e-011 7.071068e-011
7314714714.7147 0.0046470435 0.11307865 0.0051381039 -0.020382877 7.071068e-011 7.071068e-011 7.071068e-011 7.071068e-011
7323123123.1231 0.11265517 0.074940495 0.017170772 0.011540242 7.071068e-011 7.071068e-011 7.071068e-011 7.071068e-011
7331531531.5315 0.050932568 -0.011712378 -0.017192051 0.011943524 7.071068e-011 7.071068e-011 7.071068e-011 7.071068e-011
7339939939.9399 0.0079816626 0.068988435 -0.005604404 -0.020509455 7.071068e-011 7.071068e-011 7.071068e-011 7.071068e-011
7348348348.3483 0.10590444 0.06348639 0.02096734 0.0016444222 7.071068e-011 7.071068e-011 7.071068e-011 7.071068e-011
7356756756.7568 0.065691419 -0.037253562 -0.0089483727 0.018936243 7.071068e-011 7.071068e-011 7.071068e-011 7.071068e-011
7365165165.1652 -0.010186265 0.021488342 -0.014962077 -0.015010242 7.071068e-011 7.071068e-011 7.071068e-011 7.071068e-011
7373573573.5736 0.062028494 0.04948324 0.01890347 -0.0088229636 7.071068e-011 7.071068e-011 7.071068e-011 7.071068e-011
7381981981.982 0.043477517 -0.03553614 0.0013522017 0.021117635 7.071068e-011 7.071068e-011 7.071068e-011 7.071068e-011
7390390390.3904 -0.042975709 0.010036839 -0.020427793 -0.0058920621 7.071068e-011 7.071068e-011 7.071068e-011 7.071068e-011
7398798798.7988 0.013162056 0.071102142 0.012693812 -0.016880877 7.071068e-011 7.071068e-011 7.071068e-011 7.071068e-011
7407207207.2072 0.027894849 0.0096260626 0.011449049 0.017865218 7.071068e-011 7.071068e-011 7.071068e-011 7.071068e-011
7415615615.6156 -0.041250225 0.03552087 -0.020844862 0.0046756091 7.071068e-011 7.071068e-011 7.071068e-011 7.071068e-011
7424024024.024 0.0071341642 0.10522274 0.0027779723 -0.021107132 7.071068e-011 7.071068e-011 7.071068e-011 7.071068e-011
7432432432.4324 0.054636735 0.053710815 0.01883816 0.010178972 7.071068e-011 7.071068e-011 7.071068e-011 7.071068e-011
7440840840.8408 0.0094941938 0.042675927 -0.01595835 0.014290838 7.071068e-011 7.071068e-011 7.071068e-011 7.071068e-011
7449249249.2492 0.030589376 0.087168396 -0.0075970008 -0.019788276 7.071068e-011 7.071068e-011 7.071068e-011 7.071068e-011
7457657657.6577 0.077798173 0.048833143 0.021285472 -0.00011122057 7.071068e-011 7.071068e-011 7.071068e-011 7.071068e-011
7466066066.0661 0.041746262 0.014154631 -0.0072601009 0.020054473 7.071068e-011 7.071068e-011 7.071068e-011 7.071068e-011
7474474474.4745 0.030428583 0.039452922 -0.016146503 -0.013640405 7.071068e-011 7.071068e-011 7.071068e-011 7.071068e-011
7482882882.8829 0.060150091 0.029100765 0.018526481 -0.010050449 7.071068e-011 7.071068e-011 7.071068e-011 7.071068e-011
7491291291.2913 0.038681105 -0.013596132 0.0029254169 0.020922709 7.071068e-011 7.071068e-011 7.071068e-011 7.071068e-011
7499699699.6997 -0.0033374191 0.0027135147 -0.020452375 -0.0046512471 7.071068e-011 7.071068e-011 7.071068e-011 7.071068e-011
7508108108.1081 0.0035317929 0.031809535 0.011520975 -0.017490376 7.071068e-011 7.071068e-011 7.071068e-011 7.071068e-011
7516516516.5165 0.01924908 0.011856727 0.01223731 0.016837606 7.071068e-011 7.071068e-011 7.071068e-011 7.071068e-011
7524924924.9249 -0.026434712 0.0066467128 -0.019964742 0.0053462056 7.071068e-011 7.071068e-011 7.071068e-011 7.071068e-011
7533333333.3333 -0.029819842 0.066120498 0.0022682047 -0.020546159 7.071068e-011 7.071068e-011 7.071068e-011 7.071068e-011
7541741741.7417 0.028110854 0.068720825 0.018387046 0.0092508942 7.071068e-011 7.071068e-011 7.071068e-011 7.071068e-011
7550150150.1502 0.012579179 0.020469205 -0.015063201 0.013427855 7.071068e-011 7.071068e-011 7.071068e-011 7.071068e-011
7558558558.5586 -0.015147917 0.068860814 -0.0071052257 -0.018962102 7.071068e-011 7.071068e-011 7.071068e-011 7.071068e-011
7566966966.967 0.055774435 0.077791385 0.020034328 0.00022116939 7.071068e-011 7.071068e-011 7.071068e-011 7.071068e-011
7575375375.3754 0.053272754 0.00095717015 -0.0076819612 0.018573618 7.071068e-011 7.071068e-011 7.071068e-011 7.071068e-011
7583783783.7838 -0.011828978 0.024267172 -0.014593892 -0.013901779 7.071068e-011 7.071068e-011 7.071068e-011 7.071068e-011
7592192192.1922 0.045708537 0.060592096 0.017909277 -0.0085554998 7.071068e-011 7.071068e-011 7.071068e-011 7.071068e-011
7600600600.6006 0.051693149 -0.024589404 0.0011223414 0.019477546 7.071068e-011 7.071068e-011 7.071068e-011 7.071068e-011
7609009009.009 -0.03824259 -0.0105199 -0.018969413 -0.0062997513 7.071068e-011 7.071068e-011 7.071068e-011 7.071068e-011
7617417417.4174 -0.0047060591 0.0582304 0.012440031 -0.015481727 7.071068e-011 7.071068e-011 7.071068e-011 7.071068e-011
7625825825.8258 0.026199546 -0.0045400909 0.0096523762 0.01729046 7.071068e-011 7.071068e-011 7.071068e-011 7.071068e-011
7634234234.2342 -0.060877271 0.0044062627 -0.019536225 0.0026956662 7.071068e-011 7.071068e-011 7.071068e-011 7.071068e-011
7642642642.6426 -0.02623819 0.09160234 0.0047503705 -0.018981569 7.071068e-011 7.071068e-011 7.071068e-011 7.071068e-011
7651051051.0511 0.037405379 0.042273913 0.015919149 0.011514255 7.071068e-011 7.071068e-011 7.071068e-011 7.071068e-011
7659459459.4595 -0.030022636 0.018227778 -0.016655566 0.010882822 7.071068e-011 7.071068e-011 7.071068e-011 7.071068e-011
7667867867.8679 -0.011422284 0.1027014 -0.0041601062 -0.019082267 7.071068e-011 7.071068e-011 7.071068e-011 7.071068e-011
7676276276.2763 0.074026503 0.058712885 0.019143686 0.003712978 7.071068e-011 7.071068e-011 7.071068e-011 7.071068e-011
7684684684.6847 0.020999229 -0.0039200759 -0.010553948 0.016760625 7.071068e-011 7.071068e-011 7.071068e-011 7.071068e-011
7693093093.0931 0.00086470117 0.054801077 -0.011683175 -0.015810344 7.071068e-011 7.071068e-011 7.071068e-011 7.071068e-011
7701501501.5015 0.07125482 0.03220547 0.018969061 -0.0050781206 7.071068e-011 7.071068e-011 7.071068e-011 7.071068e-011
7709909909.9099 0.022991236 -0.042387672 -0.002361059 0.019564388 7.071068e-011 7.071068e-011 7.071068e-011 7.071068e-011
7718318318.3183 -0.032986324 0.011060275 -0.017364189 -0.0093749193 7.071068e-011 7.071068e-011 7.071068e-011 7.071068e-011
7726726726.7267 0.024545887 0.027738098 0.015298712 -0.012465457 7.071068e-011 7.071068e-011 7.071068e-011 7.071068e-011
7735135135.1351 0.0027741187 -0.041519642 0.0062150676 0.018897641 7.071068e-011 7.071068e-011 7.071068e-011 7.071068e-011
7743543543.5435 -0.075220153 3.7880924e-005 -0.019558886 -0.0011867994 7.071068e-011 7.071068e-011 7.071068e-011 7.071068e-011
7751951951.952 -0.030014051 0.064343125 0.0084683681 -0.017821286 7.071068e-011 7.071068e-011 7.071068e-011 7.071068e-011
7760360360.3604 -0.0028041883 0.017116182 0.013461002 0.014492815 7.071068e-011 7.071068e-011 7.071068e-011 7.071068e-011
7768768768.7688 -0.058541488 0.028721999 -0.018514143 0.0071273213 7.071068e-011 7.071068e-011 7.071068e-011 7.071068e-011
7777177177.1772 -0.026993604 0.09556555 0.00033269869 -0.019740429 7.071068e-011 7.071068e-011 7.071068e-011 7.071068e-011
7785585585.5856 0.033730131 0.057889469 0.018245229 0.0075870124 7.071068e-011 7.071068e-011 7.071068e-011 7.071068e-011
7793993993.994 -0.0056630443 0.027840508 -0.013727008 0.013884785 7.071068e-011 7.071068e-011 7.071068e-011 7.071068e-011
7802402402.4024 -0.00047172155 0.075102046 -0.0078271199 -0.018293232 7.071068e-011 7.071068e-011 7.071068e-011 7.071068e-011
7810810810.8108 0.058226544 0.048790965 0.019787874 -0.00072585704 7.071068e-011 7.071068e-011 7.071068e-011 7.071068e-011
7819219219.2192 0.025710754 -0.0064693801 -0.0068842373 0.018445926 7.071068e-011 7.071068e-011 7.071068e-011 7.071068e-011
7827627627.6276 -0.0035237614 0.02714834 -0.014594312 -0.01326518 7.071068e-011 7.071068e-011 7.071068e-011 7.071068e-011
7836036036.036 0.037661545 0.025583949 0.017733507 -0.0085973237 7.071068e-011 7.071068e-011 7.071068e-011 7.071068e-011
7844444444.4444 0.01632848 -0.023760015 0.0013855384 0.019714482 7.071068e-011 7.071068e-011 7.071068e-011 7.071068e-011
7852852852.8529 -0.028202407 0.0031268497 -0.018877603 -0.0060945372 7.071068e-011 7.071068e-011 7.071068e-011 7.071068e-011
7861261261.2613 0.0017678497 0.029520122 0.012568469 -0.015248686 7.071068e-011 7.071068e-011 7.071068e-011 7.071068e-011
7869669669.6697 0.0055224607 -0.0093966061 0.0092632137 0.017449716 7.071068e-011 7.071068e-011 7.071068e-011 7.071068e-011
7878078078.0781 -0.040629592 0.0034771231 -0.019806089 0.0022517496 7.071068e-011 7.071068e-011 7.071068e-011 7.071068e-011
7886486486.4865 -0.024190448 0.04709015 0.0051084063 -0.019120101 7.071068e-011 7.071068e-011 7.071068e-011 7.071068e-011
7894894894.8949 0.010895276 0.030010801 0.015593795 0.011787125 7.071068e-011 7.071068e-011 7.071068e-011 7.071068e-011
7903303303.3033 -0.013680131 0.011240402 -0.016965104 0.0099486737 7.071068e-011 7.071068e-011 7.071068e-011 7.071068e-011
7911711711.7117 -0.017736532 0.043987423 -0.0030480674 -0.019447381 7.071068e-011 7.071068e-011 7.071068e-011 7.071068e-011
7920120120.1201 0.023104262 0.044907428 0.018949356 0.004458243 7.071068e-011 7.071068e-011 7.071068e-011 7.071068e-011
7928528528.5285 0.023588687 0.0018564526 -0.011249557 0.015904702 7.071068e-011 7.071068e-011 7.071068e-011 7.071068e-011
7936936936.9369 -0.010120116 0.01136869 -0.010392658 -0.016255347 7.071068e-011 7.071068e-011 7.071068e-011 7.071068e-011
7945345345.3453 0.018133745 0.032183334 0.018991387 -0.0033586679 7.071068e-011 7.071068e-011 7.071068e-011 7.071068e-011
