!Keysight Technologies,N5235B,MY61252044,A.15.00.15
!Date: Friday, January 20, 2023 23:22:46
!Correction: S11(Off) 
!S21(Off) 
!S12(Off) 
!S22(Off) 
!S2P File: Measurements: S11, S21, S12, S22:
# Hz S  RI   R 50
6600000000 0.018583035 -0.17522231 0.015462992 -0.0030317148 7.071068e-011 7.071068e-011 7.071068e-011 7.071068e-011
6608408408.4084 -0.12457666 0.16553086 0.0052973689 0.010842147 7.071068e-011 7.071068e-011 7.071068e-011 7.071068e-011
6616816816.8168 0.30596104 0.092745237 -0.0089148683 0.0036835899 7.071068e-011 7.071068e-011 7.071068e-011 7.071068e-011
6625225225.2252 0.024679584 -0.27295929 -0.0017718824 -0.0093096662 7.071068e-011 7.071068e-011 7.071068e-011 7.071068e-011
6633633633.6336 -0.16573825 0.16136082 0.0093390392 -0.00037985851 7.071068e-011 7.071068e-011 7.071068e-011 7.071068e-011
6642042042.042 0.28986442 0.1132156 -0.0018658211 0.0093191117 7.071068e-011 7.071068e-011 7.071068e-011 7.071068e-011
6650450450.4505 0.039200835 -0.25205842 -0.010722074 -0.0041051642 7.071068e-011 7.071068e-011 7.071068e-011 7.071068e-011
6658858858.8589 -0.14842972 0.13433328 0.0059896833 -0.011490413 7.071068e-011 7.071068e-011 7.071068e-011 7.071068e-011
6667267267.2673 0.22847436 0.10129941 0.012192676 0.0091848997 7.071068e-011 7.071068e-011 7.071068e-011 7.071068e-011
6675675675.6757 0.042932559 -0.15109293 -0.011553423 0.013814007 7.071068e-011 7.071068e-011 7.071068e-011 7.071068e-011
6684084084.0841 -0.044402055 0.084132239 -0.014586822 -0.013368324 7.071068e-011 7.071068e-011 7.071068e-011 7.071068e-011
6692492492.4925 0.10579538 0.047497116 0.014840803 -0.014901565 7.071068e-011 7.071068e-011 7.071068e-011 7.071068e-011
6700900900.9009 0.08595407 0.018338569 0.014751872 0.015433154 7.071068e-011 7.071068e-011 7.071068e-011 7.071068e-011
6709309309.3093 0.07726825 -0.041853894 -0.015569163 0.013093757 7.071068e-011 7.071068e-011 7.071068e-011 7.071068e-011
6717717717.7177 -0.031176444 0.034302481 -0.010123949 -0.016494617 7.071068e-011 7.071068e-011 7.071068e-011 7.071068e-011
6726126126.1261 0.1550082 0.11633264 0.016810505 -0.0070712101 7.071068e-011 7.071068e-011 7.071068e-011 7.071068e-011
6734534534.5345 0.12870876 -0.14059584 0.0035436677 0.016237782 7.071068e-011 7.071068e-011 7.071068e-011 7.071068e-011
6742942942.9429 -0.10787535 0.026526 -0.015912745 -0.00029600001 7.071068e-011 7.071068e-011 7.071068e-011 7.071068e-011
6751351351.3514 0.17138501 0.15266512 0.0036303943 -0.015368151 7.071068e-011 7.071068e-011 7.071068e-011 7.071068e-011
6759759759.7598 0.15080959 -0.17146875 0.013177854 0.0070808656 7.071068e-011 7.071068e-011 7.071068e-011 7.071068e-011
6768168168.1682 -0.14689752 -0.0056534559 -0.01086951 0.010397865 7.071068e-011 7.071068e-011 7.071068e-011 7.071068e-011
6776576576.5766 0.13389528 0.17899255 -0.0079902858 -0.013477942 7.071068e-011 7.071068e-011 7.071068e-011 7.071068e-011
6784984984.985 0.15132831 -0.1460816 0.014561055 -0.0040034507 7.071068e-011 7.071068e-011 7.071068e-011 7.071068e-011
6793393393.3934 -0.14736749 -0.006750463 -0.00036460941 0.015520729 7.071068e-011 7.071068e-011 7.071068e-011 7.071068e-011
6801801801.8018 0.10135526 0.20271179 -0.015713504 -0.004312404 7.071068e-011 7.071068e-011 7.071068e-011 7.071068e-011
6810210210.2102 0.17254838 -0.094776817 0.0086890962 -0.01442335 7.071068e-011 7.071068e-011 7.071068e-011 7.071068e-011
6818618618.6186 -0.10525717 -0.010493622 0.012128657 0.013249507 7.071068e-011 7.071068e-011 7.071068e-011 7.071068e-011
6827027027.027 0.087675966 0.18547429 -0.015968898 0.0091917003 7.071068e-011 7.071068e-011 7.071068e-011 7.071068e-011
6835435435.4354 0.18153758 -0.048638068 -0.0044619124 -0.017897863 7.071068e-011 7.071068e-011 7.071068e-011 7.071068e-011
6843843843.8438 -0.045353875 -0.028143195 0.020168981 0.0002701531 7.071068e-011 7.071068e-011 7.071068e-011 7.071068e-011
6852252252.2523 0.074632198 0.1292467 -0.0046041925 0.020292683 7.071068e-011 7.071068e-011 7.071068e-011 7.071068e-011
6860660660.6607 0.14513721 -0.020182548 -0.018594433 -0.0096252654 7.071068e-011 7.071068e-011 7.071068e-011 7.071068e-011
6869069069.0691 0.0042199166 -0.027089767 0.01453363 -0.016073151 7.071068e-011 7.071068e-011 7.071068e-011 7.071068e-011
6877477477.4775 0.053976756 0.072529078 0.012659679 0.018102167 7.071068e-011 7.071068e-011 7.071068e-011 7.071068e-011
6885885885.8859 0.090368085 0.0069442708 -0.020456843 0.0076838923 7.071068e-011 7.071068e-011 7.071068e-011 7.071068e-011
6894294294.2943 0.047275282 -0.0010126198 -0.0022850051 -0.022014819 7.071068e-011 7.071068e-011 7.071068e-011 7.071068e-011
6902702702.7027 0.038232058 0.019361077 0.021981847 0.0032649522 7.071068e-011 7.071068e-011 7.071068e-011 7.071068e-011
6911111111.1111 0.030983746 0.03764743 -0.0087957894 0.020200245 7.071068e-011 7.071068e-011 7.071068e-011 7.071068e-011
6919519519.5195 0.078268714 0.049963471 -0.016928453 -0.013637217 7.071068e-011 7.071068e-011 7.071068e-011 7.071068e-011
6927927927.9279 0.050794456 -0.012394805 0.017254267 -0.012756649 7.071068e-011 7.071068e-011 7.071068e-011 7.071068e-011
6936336336.3363 -0.002186707 0.062161598 0.0072546941 0.019478474 7.071068e-011 7.071068e-011 7.071068e-011 7.071068e-011
6944744744.7447 0.11240288 0.089400485 -0.020835264 0.0011270912 7.071068e-011 7.071068e-011 7.071068e-011 7.071068e-011
6953153153.1532 0.084362499 -0.045525867 0.0045045791 -0.019986473 7.071068e-011 7.071068e-011 7.071068e-011 7.071068e-011
6961561561.5616 -0.028339436 0.054392748 0.017324677 0.0099613545 7.071068e-011 7.071068e-011 7.071068e-011 7.071068e-011
6969969969.97 0.12461446 0.10592932 -0.014523538 0.013529388 7.071068e-011 7.071068e-011 7.071068e-011 7.071068e-011
6978378378.3784 0.10174975 -0.070780747 -0.0083675617 -0.017373776 7.071068e-011 7.071068e-011 7.071068e-011 7.071068e-011
6986786786.7868 -0.064073265 0.032695711 0.018728001 -0.0022668287 7.071068e-011 7.071068e-011 7.071068e-011 7.071068e-011
6995195195.1952 0.1029484 0.13392662 -0.0035706211 0.018910112 7.071068e-011 7.071068e-011 7.071068e-011 7.071068e-011
7003603603.6036 0.10893997 -0.057873983 -0.016593525 -0.0089171305 7.071068e-011 7.071068e-011 7.071068e-011 7.071068e-011
7012012012.012 -0.072673172 0.032450158 0.014126218 -0.012458983 7.071068e-011 7.071068e-011 7.071068e-011 7.071068e-011
7020420420.4204 0.088008486 0.16143546 0.0077772429 0.017329773 7.071068e-011 7.071068e-011 7.071068e-011 7.071068e-011
7028828828.8288 0.13264205 -0.028995877 -0.018524807 0.0018160584 7.071068e-011 7.071068e-011 7.071068e-011 7.071068e-011
7037237237.2372 -0.053967405 0.030668058 0.0044327057 -0.018636411 7.071068e-011 7.071068e-011 7.071068e-011 7.071068e-011
7045645645.6456 0.0900269 0.1709047 0.016438002 0.0098111248 7.071068e-011 7.071068e-011 7.071068e-011 7.071068e-011
7054054054.0541 0.16759695 -0.0030633055 -0.014681282 0.012032339 7.071068e-011 7.071068e-011 7.071068e-011 7.071068e-011
7062462462.4625 -0.0081027579 -0.0040070843 -0.0068199234 -0.018475398 7.071068e-011 7.071068e-011 7.071068e-011 7.071068e-011
7070870870.8709 0.078261353 0.14039049 0.019769369 -0.0011819495 7.071068e-011 7.071068e-011 7.071068e-011 7.071068e-011
7079279279.2793 0.16834767 0.0073699937 -0.005560609 0.018788941 7.071068e-011 7.071068e-011 7.071068e-011 7.071068e-011
7087687687.6877 0.032540124 -0.026972851 -0.016635815 -0.011497181 7.071068e-011 7.071068e-011 7.071068e-011 7.071068e-011
7096096096.0961 0.059507862 0.089252651 0.015949491 -0.01246824 7.071068e-011 7.071068e-011 7.071068e-011 7.071068e-011
7104504504.5045 0.14776576 0.010402116 0.0065201581 0.019138899 7.071068e-011 7.071068e-011 7.071068e-011 7.071068e-011
7112912912.9129 0.050870527 -0.044647906 -0.020639461 -0.00013952838 7.071068e-011 7.071068e-011 7.071068e-011 7.071068e-011
7121321321.3213 0.034387466 0.03188704 0.0063203266 -0.019833971 7.071068e-011 7.071068e-011 7.071068e-011 7.071068e-011
7129729729.7297 0.089287564 0.014486337 0.016437279 0.012087656 7.071068e-011 7.071068e-011 7.071068e-011 7.071068e-011
7138138138.1381 0.043430198 -0.037791505 -0.01718845 0.011687321 7.071068e-011 7.071068e-011 7.071068e-011 7.071068e-011
7146546546.5465 -0.00052258297 0.013614146 -0.0058325534 -0.020122424 7.071068e-011 7.071068e-011 7.071068e-011 7.071068e-011
7154954954.955 0.030645413 0.041319963 0.020800987 0.00086780114 7.071068e-011 7.071068e-011 7.071068e-011 7.071068e-011
7163363363.3634 0.044954129 0.015763126 -0.007670796 0.019092686 7.071068e-011 7.071068e-011 7.071068e-011 7.071068e-011
7171771771.7718 0.0012034724 0.020249322 -0.015735721 -0.013488742 7.071068e-011 7.071068e-011 7.071068e-011 7.071068e-011
7180180180.1802 0.018440088 0.072534233 0.017624609 -0.010380962 7.071068e-011 7.071068e-011 7.071068e-011 7.071068e-011
7188588588.5886 0.0677711 0.056170668 0.0038675652 0.020447202 7.071068e-011 7.071068e-011 7.071068e-011 7.071068e-011
7196996996.997 0.039899528 0.010120767 -0.020602543 -0.0027555528 7.071068e-011 7.071068e-011 7.071068e-011 7.071068e-011
7205405405.4054 0.012282575 0.067106009 0.0095550949 -0.017990425 7.071068e-011 7.071068e-011 7.071068e-011 7.071068e-011
7213813813.8138 0.08319249 0.067249306 0.013832485 0.015198327 7.071068e-011 7.071068e-011 7.071068e-011 7.071068e-011
7222222222.2222 0.066237502 -0.0054697557 -0.018989803 0.0082079032 7.071068e-011 7.071068e-011 7.071068e-011 7.071068e-011
7230630630.6306 -0.0013060039 0.035091605 -0.0014261872 -0.020490197 7.071068e-011 7.071068e-011 7.071068e-011 7.071068e-011
7239039039.039 0.071491338 0.075613424 0.019945059 0.0058623669 7.071068e-011 7.071068e-011 7.071068e-011 7.071068e-011
7247447447.4474 0.075287879 -0.014780566 -0.012021253 0.016968586 7.071068e-011 7.071068e-011 7.071068e-011 7.071068e-011
7255855855.8559 -0.016589092 0.0073016151 -0.011584736 -0.017021239 7.071068e-011 7.071068e-011 7.071068e-011 7.071068e-011
7264264264.2643 0.034824006 0.084066026 0.020121407 -0.0053346637 7.071068e-011 7.071068e-011 7.071068e-011 7.071068e-011
7272672672.6727 0.074407972 0.0006956344 -0.0015313488 0.020532444 7.071068e-011 7.071068e-011 7.071068e-011 7.071068e-011
7281081081.0811 -0.029822804 0.00076410058 -0.018717006 -0.0084630372 7.071068e-011 7.071068e-011 7.071068e-011 7.071068e-011
7289489489.4895 -7.4396099e-005 0.10757962 0.014704741 -0.01460592 7.071068e-011 7.071068e-011 7.071068e-011 7.071068e-011
7297897897.8979 0.084971964 0.050724857 0.0087882001 0.018827945 7.071068e-011 7.071068e-011 7.071068e-011 7.071068e-011
7306306306.3063 0.0011283857 0.0088351509 -0.02057489 0.0015661814 7.071068e-011 7.071068e-011 7.071068e-011 7.071068e-011
7314714714.7147 0.0040502362 0.11276209 0.005408363 -0.020285916 7.071068e-011 7.071068e-011 7.071068e-011 7.071068e-011
7323123123.1231 0.11266112 0.075423263 0.016995894 0.011744763 7.071068e-011 7.071068e-011 7.071068e-011 7.071068e-011
7331531531.5315 0.051285427 -0.011834959 -0.01733535 0.011701203 7.071068e-011 7.071068e-011 7.071068e-011 7.071068e-011
7339939939.9399 0.0078963302 0.068598382 -0.0053090784 -0.020552102 7.071068e-011 7.071068e-011 7.071068e-011 7.071068e-011
7348348348.3483 0.10544346 0.063714102 0.020917732 0.0019412772 7.071068e-011 7.071068e-011 7.071068e-011 7.071068e-011
7356756756.7568 0.066214547 -0.036966842 -0.0092115458 0.018781647 7.071068e-011 7.071068e-011 7.071068e-011 7.071068e-011
7365165165.1652 -0.010240517 0.020810954 -0.014733969 -0.015199949 7.071068e-011 7.071068e-011 7.071068e-011 7.071068e-011
7373573573.5736 0.061491095 0.049866907 0.019018212 -0.0085518379 7.071068e-011 7.071068e-011 7.071068e-011 7.071068e-011
7381981981.982 0.044005621 -0.03534776 0.0010558876 0.02111904 7.071068e-011 7.071068e-011 7.071068e-011 7.071068e-011
7390390390.3904 -0.043086126 0.0096205007 -0.020329971 -0.0061651887 7.071068e-011 7.071068e-011 7.071068e-011 7.071068e-011
7398798798.7988 0.01292878 0.07123702 0.012902944 -0.016689545 7.071068e-011 7.071068e-011 7.071068e-011 7.071068e-011
7407207207.2072 0.027955383 0.0098762689 0.011177869 0.017987849 7.071068e-011 7.071068e-011 7.071068e-011 7.071068e-011
7415615615.6156 -0.040916391 0.035314776 -0.020875432 0.004384541 7.071068e-011 7.071068e-011 7.071068e-011 7.071068e-011
7424024024.024 0.0067081503 0.10501052 0.0030718807 -0.021033807 7.071068e-011 7.071068e-011 7.071068e-011 7.071068e-011
7432432432.4324 0.054731309 0.054186672 0.018668959 0.010424921 7.071068e-011 7.071068e-011 7.071068e-011 7.071068e-011
7440840840.8408 0.0098342225 0.042310957 -0.016139003 0.014049426 7.071068e-011 7.071068e-011 7.071068e-011 7.071068e-011
7449249249.2492 0.030214405 0.08709424 -0.007315218 -0.019874372 7.071068e-011 7.071068e-011 7.071068e-011 7.071068e-011
7457657657.6577 0.077952348 0.049026374 0.021255139 0.00017923479 7.071068e-011 7.071068e-011 7.071068e-011 7.071068e-011
7466066066.0661 0.04179107 0.014060233 -0.0075254096 0.019932391 7.071068e-011 7.071068e-011 7.071068e-011 7.071068e-011
7474474474.4745 0.030487252 0.03928607 -0.015927378 -0.013842012 7.071068e-011 7.071068e-011 7.071068e-011 7.071068e-011
7482882882.8829 0.059844095 0.029142281 0.018632496 -0.00978979 7.071068e-011 7.071068e-011 7.071068e-011 7.071068e-011
7491291291.2913 0.038955562 -0.013362856 0.0026347239 0.020926392 7.071068e-011 7.071068e-011 7.071068e-011 7.071068e-011
7499699699.6997 -0.0033307411 0.0023627526 -0.020354945 -0.0049375808 7.071068e-011 7.071068e-011 7.071068e-011 7.071068e-011
7508108108.1081 0.0032480913 0.031945292 0.011757375 -0.017311001 7.071068e-011 7.071068e-011 7.071068e-011 7.071068e-011
7516516516.5165 0.019402284 0.011983587 0.011981016 0.016997067 7.071068e-011 7.071068e-011 7.071068e-011 7.071068e-011
7524924924.9249 -0.026361298 0.0065645222 -0.020028835 0.0050580823 7.071068e-011 7.071068e-011 7.071068e-011 7.071068e-011
7533333333.3333 -0.029855365 0.065949552 0.002551133 -0.020492034 7.071068e-011 7.071068e-011 7.071068e-011 7.071068e-011
7541741741.7417 0.027811632 0.068929866 0.018238692 0.0094975177 7.071068e-011 7.071068e-011 7.071068e-011 7.071068e-011
7550150150.1502 0.013083599 0.020588774 -0.015224807 0.013203413 7.071068e-011 7.071068e-011 7.071068e-011 7.071068e-011
7558558558.5586 -0.015367354 0.068382427 -0.0068342169 -0.019038863 7.071068e-011 7.071068e-011 7.071068e-011 7.071068e-011
7566966966.967 0.055568311 0.078156494 0.019992717 0.00050628936 7.071068e-011 7.071068e-011 7.071068e-011 7.071068e-011
7575375375.3754 0.053642109 0.00098791427 -0.0079318266 0.018443516 7.071068e-011 7.071068e-011 7.071068e-011 7.071068e-011
7583783783.7838 -0.011874813 0.023934254 -0.014377403 -0.014089985 7.071068e-011 7.071068e-011 7.071068e-011 7.071068e-011
7592192192.1922 0.045405965 0.060659431 0.01801189 -0.0082889609 7.071068e-011 7.071068e-011 7.071068e-011 7.071068e-011
7600600600.6006 0.051837116 -0.024276251 0.00084583805 0.019477982 7.071068e-011 7.071068e-011 7.071068e-011 7.071068e-011
7609009009.009 -0.03793896 -0.010883556 -0.018864177 -0.006558435 7.071068e-011 7.071068e-011 7.071068e-011 7.071068e-011
7617417417.4174 -0.0052747922 0.05813456 0.012638886 -0.015296979 7.071068e-011 7.071068e-011 7.071068e-011 7.071068e-011
7625825825.8258 0.026461773 -0.0039998698 0.0093960064 0.017405966 7.071068e-011 7.071068e-011 7.071068e-011 7.071068e-011
7634234234.2342 -0.060581282 0.0038775948 -0.019544402 0.0024205351 7.071068e-011 7.071068e-011 7.071068e-011 7.071068e-011
7642642642.6426 -0.026712762 0.0916318 0.0050119245 -0.018886998 7.071068e-011 7.071068e-011 7.071068e-011 7.071068e-011
7651051051.0511 0.037563663 0.042591948 0.015726028 0.011724281 7.071068e-011 7.071068e-011 7.071068e-011 7.071068e-011
7659459459.4595 -0.029726535 0.018056165 -0.01678451 0.010637994 7.071068e-011 7.071068e-011 7.071068e-011 7.071068e-011
7667867867.8679 -0.011667115 0.10238927 -0.0038656599 -0.01911786 7.071068e-011 7.071068e-011 7.071068e-011 7.071068e-011
7676276276.2763 0.073823214 0.059132963 0.019081576 0.0039909203 7.071068e-011 7.071068e-011 7.071068e-011 7.071068e-011
7684684684.6847 0.021532118 -0.0039509945 -0.010789082 0.016596863 7.071068e-011 7.071068e-011 7.071068e-011 7.071068e-011
7693093093.0931 0.00058476219 0.054288503 -0.011455073 -0.015976626 7.071068e-011 7.071068e-011 7.071068e-011 7.071068e-011
7701501501.5015 0.071017452 0.032692958 0.019026197 -0.0048022736 7.071068e-011 7.071068e-011 7.071068e-011 7.071068e-011
7709909909.9099 0.023462091 -0.042501744 -0.0026334422 0.019504525 7.071068e-011 7.071068e-011 7.071068e-011 7.071068e-011
7718318318.3183 -0.033222593 0.010743578 -0.017199071 -0.0096110962 7.071068e-011 7.071068e-011 7.071068e-011 7.071068e-011
7726726726.7267 0.024329569 0.027879031 0.01546141 -0.012214216 7.071068e-011 7.071068e-011 7.071068e-011 7.071068e-011
7735135135.1351 0.0029579978 -0.041228849 0.0059135281 0.018959904 7.071068e-011 7.071068e-011 7.071068e-011 7.071068e-011
7743543543.5435 -0.074973494 -0.00035846315 -0.019527629 -0.0014791624 7.071068e-011 7.071068e-011 7.071068e-011 7.071068e-011
7751951951.952 -0.030532025 0.064334542 0.0087477267 -0.017674109 7.071068e-011 7.071068e-011 7.071068e-011 7.071068e-011
7760360360.3604 -0.0025525198 0.017559441 0.013234739 0.014673546 7.071068e-011 7.071068e-011 7.071068e-011 7.071068e-011
7768768768.7688 -0.058254302 0.028315207 -0.018592257 0.0068510282 7.071068e-011 7.071068e-011 7.071068e-011 7.071068e-011
7777177177.1772 -0.027382454 0.095537283 0.00061525352 -0.019718725 7.071068e-011 7.071068e-011 7.071068e-011 7.071068e-011
7785585585.5856 0.033881158 0.058134783 0.018118229 0.0078360597 7.071068e-011 7.071068e-011 7.071068e-011 7.071068e-011
7793993993.994 -0.0054818778 0.027728286 -0.013922515 0.01367866 7.071068e-011 7.071068e-011 7.071068e-011 7.071068e-011
7802402402.4024 -0.00054385769 0.074834242 -0.0075539011 -0.018382601 7.071068e-011 7.071068e-011 7.071068e-011 7.071068e-011
7810810810.8108 0.057966601 0.049026262 0.019775357 -0.00042977117 7.071068e-011 7.071068e-011 7.071068e-011 7.071068e-011
7819219219.2192 0.026154708 -0.0064424993 -0.0071618124 0.018326942 7.071068e-011 7.071068e-011 7.071068e-011 7.071068e-011
7827627627.6276 -0.0036992661 0.026727777 -0.014391639 -0.013474325 7.071068e-011 7.071068e-011 7.071068e-011 7.071068e-011
7836036036.036 0.037444472 0.025857681 0.01785332 -0.0083246026 7.071068e-011 7.071068e-011 7.071068e-011 7.071068e-011
7844444444.4444 0.016635105 -0.023763306 0.0010961868 0.019719714 7.071068e-011 7.071068e-011 7.071068e-011 7.071068e-011
7852852852.8529 -0.028295109 0.0029096836 -0.018784713 -0.0063733417 7.071068e-011 7.071068e-011 7.071068e-011 7.071068e-011
7861261261.2613 0.0016216692 0.029546531 0.012786215 -0.015033883 7.071068e-011 7.071068e-011 7.071068e-011 7.071068e-011
7869669669.6697 0.0055399584 -0.0091774445 0.0089917211 0.017566936 7.071068e-011 7.071068e-011 7.071068e-011 7.071068e-011
7878078078.0781 -0.040344462 0.0033140483 -0.019809602 0.0019405823 7.071068e-011 7.071068e-011 7.071068e-011 7.071068e-011
7886486486.4865 -0.024517195 0.046897162 0.0054025967 -0.019012216 7.071068e-011 7.071068e-011 7.071068e-011 7.071068e-011
7894894894.8949 0.010924626 0.030381454 0.015391887 0.012006624 7.071068e-011 7.071068e-011 7.071068e-011 7.071068e-011
7903303303.3033 -0.013432021 0.01105162 -0.017101102 0.0096739382 7.071068e-011 7.071068e-011 7.071068e-011 7.071068e-011
7911711711.7117 -0.017895352 0.043881077 -0.0027438062 -0.019489391 7.071068e-011 7.071068e-011 7.071068e-011 7.071068e-011
7920120120.1201 0.023048807 0.04494847 0.018889502 0.0047474285 7.071068e-011 7.071068e-011 7.071068e-011 7.071068e-011
7928528528.5285 0.023691859 0.0019867953 -0.011474066 0.015712805 7.071068e-011 7.071068e-011 7.071068e-011 7.071068e-011
7936936936.9369 -0.0099428538 0.011079318 -0.010136213 -0.016397007 7.071068e-011 7.071068e-011 7.071068e-011 7.071068e-011
7945345345.3453 0.01773328 0.032131303 0.019023584 -0.0030644613 7.071068e-011 7.071068e-011 7.071068e-011 7.071068e-011
