!Keysight Technologies,N5235B,MY61252044,A.15.00.15
!Date: Friday, January 20, 2023 18:24:42
!Correction: S11(Off) 
!S21(Off) 
!S12(Off) 
!S22(Off) 
!S2P File: Measurements: S11, S21, S12, S22:
# Hz S  RI   R 50
6600000000 0.016024493 -0.17414114 0.014917141 -0.0052394662 7.071068e-011 7.071068e-011 7.071068e-011 7.071068e-011
6608400000 -0.12278289 0.16748241 0.0068059019 0.010008978 7.071068e-011 7.071068e-011 7.071068e-011 7.071068e-011
6616800000 0.30733138 0.090450577 -0.0083298236 0.0048901145 7.071068e-011 7.071068e-011 7.071068e-011 7.071068e-011
6625200000 0.022278957 -0.2729435 -0.0030121629 -0.0089981966 7.071068e-011 7.071068e-011 7.071068e-011 7.071068e-011
6633600000 -0.16507681 0.16268072 0.009211638 -0.0016064314 7.071068e-011 7.071068e-011 7.071068e-011 7.071068e-011
6642000000 0.29096675 0.11281823 -0.00066365546 0.0094618415 7.071068e-011 7.071068e-011 7.071068e-011 7.071068e-011
6650400000 0.038442675 -0.25284189 -0.011127147 -0.0027708372 7.071068e-011 7.071068e-011 7.071068e-011 7.071068e-011
6658800000 -0.14866972 0.13446879 0.0045927679 -0.012116958 7.071068e-011 7.071068e-011 7.071068e-011 7.071068e-011
6667200000 0.2286474 0.10267246 0.013105622 0.0077208313 7.071068e-011 7.071068e-011 7.071068e-011 7.071068e-011
6675600000 0.043646004 -0.15287337 -0.010019404 0.01491619 7.071068e-011 7.071068e-011 7.071068e-011 7.071068e-011
6684000000 -0.045218077 0.08468426 -0.015888484 -0.011835218 7.071068e-011 7.071068e-011 7.071068e-011 7.071068e-011
6692400000 0.10577004 0.048343882 0.013267513 -0.01630491 7.071068e-011 7.071068e-011 7.071068e-011 7.071068e-011
6700800000 0.086000063 0.016927678 0.01610036 0.013992775 7.071068e-011 7.071068e-011 7.071068e-011 7.071068e-011
6709200000 0.077540249 -0.040010862 -0.014416632 0.014460456 7.071068e-011 7.071068e-011 7.071068e-011 7.071068e-011
6717600000 -0.031194638 0.032284383 -0.011563961 -0.015604099 7.071068e-011 7.071068e-011 7.071068e-011 7.071068e-011
6726000000 0.1534116 0.1175055 0.016176995 -0.0084566064 7.071068e-011 7.071068e-011 7.071068e-011 7.071068e-011
6734400000 0.13106717 -0.13887902 0.0048317593 0.015934385 7.071068e-011 7.071068e-011 7.071068e-011 7.071068e-011
6742800000 -0.10802817 0.022664655 -0.015932404 0.00092610781 7.071068e-011 7.071068e-011 7.071068e-011 7.071068e-011
6751200000 0.16809911 0.15525274 0.0025390461 -0.015633121 7.071068e-011 7.071068e-011 7.071068e-011 7.071068e-011
6759600000 0.15507811 -0.16925976 0.013654749 0.0061930711 7.071068e-011 7.071068e-011 7.071068e-011 7.071068e-011
6768000000 -0.14694333 -0.011032257 -0.01018584 0.011072173 7.071068e-011 7.071068e-011 7.071068e-011 7.071068e-011
6776400000 0.12949014 0.18156362 -0.0087753925 -0.0130033 7.071068e-011 7.071068e-011 7.071068e-011 7.071068e-011
6784800000 0.15600619 -0.14274912 0.014313423 -0.0048206961 7.071068e-011 7.071068e-011 7.071068e-011 7.071068e-011
6793200000 -0.14680043 -0.013683073 0.00044533284 0.015512371 7.071068e-011 7.071068e-011 7.071068e-011 7.071068e-011
6801600000 0.095764779 0.20552589 -0.015926942 -0.0035854655 7.071068e-011 7.071068e-011 7.071068e-011 7.071068e-011
6810000000 0.17662169 -0.090981349 0.0080909226 -0.014808296 7.071068e-011 7.071068e-011 7.071068e-011 7.071068e-011
6818400000 -0.10326266 -0.017111475 0.012594346 0.012758967 7.071068e-011 7.071068e-011 7.071068e-011 7.071068e-011
6826800000 0.081085183 0.18787912 -0.015643436 0.0097031035 7.071068e-011 7.071068e-011 7.071068e-011 7.071068e-011
6835200000 0.18535781 -0.044932168 -0.0049962117 -0.017760236 7.071068e-011 7.071068e-011 7.071068e-011 7.071068e-011
6843600000 -0.042888124 -0.032767408 0.02018977 -0.00022681695 7.071068e-011 7.071068e-011 7.071068e-011 7.071068e-011
6852000000 0.068969071 0.13017599 -0.0041822353 0.02041206 7.071068e-011 7.071068e-011 7.071068e-011 7.071068e-011
6860400000 0.14832363 -0.016934512 -0.018740611 -0.0093261795 7.071068e-011 7.071068e-011 7.071068e-011 7.071068e-011
6868800000 0.0057869204 -0.029980134 0.014363968 -0.01623778 7.071068e-011 7.071068e-011 7.071068e-011 7.071068e-011
6877200000 0.050997123 0.072618447 0.012812888 0.018049676 7.071068e-011 7.071068e-011 7.071068e-011 7.071068e-011
6885600000 0.091962643 0.0085808309 -0.020452319 0.007797101 7.071068e-011 7.071068e-011 7.071068e-011 7.071068e-011
6894000000 0.047588453 -0.0018332073 -0.0022788886 -0.022055322 7.071068e-011 7.071068e-011 7.071068e-011 7.071068e-011
6902400000 0.038346209 0.019323671 0.022005806 0.0033951905 7.071068e-011 7.071068e-011 7.071068e-011 7.071068e-011
6910800000 0.031002587 0.036254976 -0.0090019722 0.020161392 7.071068e-011 7.071068e-011 7.071068e-011 7.071068e-011
6919200000 0.076634094 0.05134353 -0.016798824 -0.013860739 7.071068e-011 7.071068e-011 7.071068e-011 7.071068e-011
6927600000 0.053423412 -0.011715773 0.017510643 -0.012506996 7.071068e-011 7.071068e-011 7.071068e-011 7.071068e-011
6936000000 -0.0030360273 0.057974368 0.0068967436 0.019697499 7.071068e-011 7.071068e-011 7.071068e-011 7.071068e-011
6944400000 0.10829439 0.092982322 -0.020903263 0.0006026738 7.071068e-011 7.071068e-011 7.071068e-011 7.071068e-011
6952800000 0.089780703 -0.043500312 0.0050871409 -0.019905915 7.071068e-011 7.071068e-011 7.071068e-011 7.071068e-011
6961200000 -0.029046092 0.047989856 0.017034249 0.01054159 7.071068e-011 7.071068e-011 7.071068e-011 7.071068e-011
6969600000 0.11836766 0.11036231 -0.015059306 0.013023305 7.071068e-011 7.071068e-011 7.071068e-011 7.071068e-011
6978000000 0.10953081 -0.06693694 -0.0077113216 -0.017746806 7.071068e-011 7.071068e-011 7.071068e-011 7.071068e-011
6986400000 -0.063964494 0.023810267 0.01884041 -0.0014861427 7.071068e-011 7.071068e-011 7.071068e-011 7.071068e-011
6994800000 0.094947353 0.13764422 -0.0045231627 0.018766906 7.071068e-011 7.071068e-011 7.071068e-011 7.071068e-011
7003200000 0.11684143 -0.052110616 -0.016178323 -0.0098275887 7.071068e-011 7.071068e-011 7.071068e-011 7.071068e-011
7011600000 -0.071512945 0.021844616 0.014792645 -0.011651351 7.071068e-011 7.071068e-011 7.071068e-011 7.071068e-011
7020000000 0.078574255 0.16471761 0.0067299223 0.017791409 7.071068e-011 7.071068e-011 7.071068e-011 7.071068e-011
7028400000 0.13940111 -0.021986105 -0.018640164 0.00066066952 7.071068e-011 7.071068e-011 7.071068e-011 7.071068e-011
7036800000 -0.051155388 0.020215811 0.0057243789 -0.018319752 7.071068e-011 7.071068e-011 7.071068e-011 7.071068e-011
7045200000 0.079368897 0.17307343 0.01573354 0.011016158 7.071068e-011 7.071068e-011 7.071068e-011 7.071068e-011
7053600000 0.17276646 0.0054784552 -0.015563387 0.010901485 7.071068e-011 7.071068e-011 7.071068e-011 7.071068e-011
7062000000 -0.0031050369 -0.012278905 -0.0052811154 -0.018985573 7.071068e-011 7.071068e-011 7.071068e-011 7.071068e-011
7070400000 0.068761691 0.14035402 0.019865563 0.00051461131 7.071068e-011 7.071068e-011 7.071068e-011 7.071068e-011
7078800000 0.17128877 0.015667286 -0.0071706744 0.018222744 7.071068e-011 7.071068e-011 7.071068e-011 7.071068e-011
7087200000 0.038447954 -0.032204729 -0.015483793 -0.013032484 7.071068e-011 7.071068e-011 7.071068e-011 7.071068e-011
7095600000 0.052379392 0.087560616 0.017163424 -0.010886888 7.071068e-011 7.071068e-011 7.071068e-011 7.071068e-011
7104000000 0.14891039 0.017107747 0.0045621437 0.019754073 7.071068e-011 7.071068e-011 7.071068e-011 7.071068e-011
7112400000 0.056479525 -0.046432175 -0.020500891 -0.002311968 7.071068e-011 7.071068e-011 7.071068e-011 7.071068e-011
7120800000 0.031087084 0.028589603 0.0084924363 -0.019040324 7.071068e-011 7.071068e-011 7.071068e-011 7.071068e-011
7129200000 0.089180008 0.018688174 0.015005448 0.013902307 7.071068e-011 7.071068e-011 7.071068e-011 7.071068e-011
7137600000 0.047304895 -0.038042467 -0.018505113 0.0095914956 7.071068e-011 7.071068e-011 7.071068e-011 7.071068e-011
7146000000 -0.00014189714 0.0097972648 -0.0033479072 -0.020745434 7.071068e-011 7.071068e-011 7.071068e-011 7.071068e-011
7154400000 0.028267998 0.04190927 0.020552652 0.0034825418 7.071068e-011 7.071068e-011 7.071068e-011 7.071068e-011
7162800000 0.046241421 0.016977794 -0.010082719 0.017943989 7.071068e-011 7.071068e-011 7.071068e-011 7.071068e-011
7171200000 0.0032367203 0.017953837 -0.013809972 -0.015532431 7.071068e-011 7.071068e-011 7.071068e-011 7.071068e-011
7179600000 0.014952438 0.07025288 0.018968308 -0.0079314942 7.071068e-011 7.071068e-011 7.071068e-011 7.071068e-011
7188000000 0.066427454 0.059668489 0.0009193166 0.020819837 7.071068e-011 7.071068e-011 7.071068e-011 7.071068e-011
7196400000 0.043676279 0.01029411 -0.020015452 -0.0057768128 7.071068e-011 7.071068e-011 7.071068e-011 7.071068e-011
7204800000 0.010153486 0.062738955 0.012128002 -0.016363461 7.071068e-011 7.071068e-011 7.071068e-011 7.071068e-011
7213200000 0.079226352 0.071426295 0.011360731 0.017163079 7.071068e-011 7.071068e-011 7.071068e-011 7.071068e-011
7221600000 0.071592785 -0.0027963994 -0.020121222 0.0051374771 7.071068e-011 7.071068e-011 7.071068e-011 7.071068e-011
7230000000 -0.00083061692 0.028960897 0.0018911505 -0.020527402 7.071068e-011 7.071068e-011 7.071068e-011 7.071068e-011
7238400000 0.065197378 0.07859683 0.018687407 0.0091185058 7.071068e-011 7.071068e-011 7.071068e-011 7.071068e-011
7246800000 0.080900081 -0.0096675716 -0.014797335 0.014686375 7.071068e-011 7.071068e-011 7.071068e-011 7.071068e-011
7255200000 -0.013059228 0.00035660586 -0.0084738508 -0.018774947 7.071068e-011 7.071068e-011 7.071068e-011 7.071068e-011
7263600000 0.02720893 0.084032275 0.020778498 -0.0016806355 7.071068e-011 7.071068e-011 7.071068e-011 7.071068e-011
7272000000 0.07857988 0.0077426862 -0.005225854 0.019987261 7.071068e-011 7.071068e-011 7.071068e-011 7.071068e-011
7280400000 -0.023824848 -0.0061155907 -0.016883422 -0.011841191 7.071068e-011 7.071068e-011 7.071068e-011 7.071068e-011
7288800000 -0.008609036 0.10340879 0.01723293 -0.011526308 7.071068e-011 7.071068e-011 7.071068e-011 7.071068e-011
7297200000 0.084953494 0.059432022 0.0049509406 0.020199083 7.071068e-011 7.071068e-011 7.071068e-011 7.071068e-011
7305600000 0.0083430158 0.0045964057 -0.02048181 -0.0024860168 7.071068e-011 7.071068e-011 7.071068e-011 7.071068e-011
7314000000 -0.0037141563 0.10646524 0.0094182268 -0.018820515 7.071068e-011 7.071068e-011 7.071068e-011 7.071068e-011
7322400000 0.1088198 0.085326701 0.01429461 0.01500287 7.071068e-011 7.071068e-011 7.071068e-011 7.071068e-011
7330800000 0.060092684 -0.011691907 -0.019402996 0.0077634524 7.071068e-011 7.071068e-011 7.071068e-011 7.071068e-011
7339200000 0.0041002957 0.061025318 -0.0007255713 -0.021258257 7.071068e-011 7.071068e-011 7.071068e-011 7.071068e-011
7347600000 0.099445157 0.072055444 0.02004087 0.0064486261 7.071068e-011 7.071068e-011 7.071068e-011 7.071068e-011
7356000000 0.075793117 -0.033819664 -0.013090641 0.016265865 7.071068e-011 7.071068e-011 7.071068e-011 7.071068e-011
7364400000 -0.010160504 0.012769805 -0.010887994 -0.018172329 7.071068e-011 7.071068e-011 7.071068e-011 7.071068e-011
7372800000 0.054990739 0.054579951 0.020579761 -0.0039985059 7.071068e-011 7.071068e-011 7.071068e-011 7.071068e-011
7381200000 0.052739527 -0.03105934 -0.0039169802 0.020787094 7.071068e-011 7.071068e-011 7.071068e-011 7.071068e-011
7389600000 -0.04089703 0.00076258735 -0.018278588 -0.010853656 7.071068e-011 7.071068e-011 7.071068e-011 7.071068e-011
7398000000 0.0056702141 0.071974106 0.016532322 -0.01306077 7.071068e-011 7.071068e-011 7.071068e-011 7.071068e-011
7406400000 0.032972366 0.014723516 0.0064221304 0.020202681 7.071068e-011 7.071068e-011 7.071068e-011 7.071068e-011
7414800000 -0.038227562 0.027359823 -0.021353276 -0.00098229537 7.071068e-011 7.071068e-011 7.071068e-011 7.071068e-011
7423200000 -0.0014998284 0.10374338 0.0083130384 -0.019612521 7.071068e-011 7.071068e-011 7.071068e-011 7.071068e-011
7431600000 0.055590674 0.060369112 0.015310015 0.014892356 7.071068e-011 7.071068e-011 7.071068e-011 7.071068e-011
7440000000 0.013097681 0.038538706 -0.01932379 0.00930609 7.071068e-011 7.071068e-011 7.071068e-011 7.071068e-011
7448400000 0.024276497 0.085673854 -0.0017914536 -0.021135295 7.071068e-011 7.071068e-011 7.071068e-011 7.071068e-011
7456800000 0.077440381 0.055282403 0.020432089 0.0058894162 7.071068e-011 7.071068e-011 7.071068e-011 7.071068e-011
7465200000 0.046046283 0.013937344 -0.012716527 0.017118791 7.071068e-011 7.071068e-011 7.071068e-011 7.071068e-011
7473600000 0.028565161 0.037067618 -0.011477459 -0.017768526 7.071068e-011 7.071068e-011 7.071068e-011 7.071068e-011
7482000000 0.05852516 0.033237439 0.020652475 -0.0041281679 7.071068e-011 7.071068e-011 7.071068e-011 7.071068e-011
7490400000 0.043542661 -0.010993323 -0.0034766984 0.020843677 7.071068e-011 7.071068e-011 7.071068e-011 7.071068e-011
7498800000 -0.00082287501 -0.0013492418 -0.018078316 -0.010594468 7.071068e-011 7.071068e-011 7.071068e-011 7.071068e-011
7507200000 0.00067380082 0.030900499 0.016335931 -0.013105519 7.071068e-011 7.071068e-011 7.071068e-011 7.071068e-011
7515600000 0.020607108 0.015286351 0.0063740076 0.019836506 7.071068e-011 7.071068e-011 7.071068e-011 7.071068e-011
7524000000 -0.021127807 0.0031502314 -0.020673949 -0.0012330599 7.071068e-011 7.071068e-011 7.071068e-011 7.071068e-011
7532400000 -0.034121566 0.060198881 0.0086940797 -0.018745068 7.071068e-011 7.071068e-011 7.071068e-011 7.071068e-011
7540800000 0.022926746 0.073160328 0.014439533 0.014695865 7.071068e-011 7.071068e-011 7.071068e-011 7.071068e-011
7549200000 0.019282999 0.022231871 -0.01855861 0.0078329314 7.071068e-011 7.071068e-011 7.071068e-011 7.071068e-011
7557600000 -0.018399032 0.061274253 -0.00041538509 -0.020256957 7.071068e-011 7.071068e-011 7.071068e-011 7.071068e-011
7566000000 0.048064522 0.083469369 0.01886815 0.0069154673 7.071068e-011 7.071068e-011 7.071068e-011 7.071068e-011
7574400000 0.060741503 0.0077495449 -0.013495327 0.014887472 7.071068e-011 7.071068e-011 7.071068e-011 7.071068e-011
7582800000 -0.0099582886 0.015582114 -0.0089182109 -0.018010914 7.071068e-011 7.071068e-011 7.071068e-011 7.071068e-011
7591200000 0.036888193 0.064399637 0.019758051 -0.0018295739 7.071068e-011 7.071068e-011 7.071068e-011 7.071068e-011
7599600000 0.059147779 -0.015289497 -0.0056867586 0.018687563 7.071068e-011 7.071068e-011 7.071068e-011 7.071068e-011
7608000000 -0.03119115 -0.020391097 -0.015498091 -0.012612925 7.071068e-011 7.071068e-011 7.071068e-011 7.071068e-011
7616400000 -0.01466439 0.05687502 0.01719356 -0.010054734 7.071068e-011 7.071068e-011 7.071068e-011 7.071068e-011
7624800000 0.031441867 0.0047455295 0.0027326737 0.019558564 7.071068e-011 7.071068e-011 7.071068e-011 7.071068e-011
7633200000 -0.052906375 -0.0060068546 -0.019145656 -0.0046280222 7.071068e-011 7.071068e-011 7.071068e-011 7.071068e-011
7641600000 -0.038053837 0.086945742 0.01138236 -0.01589668 7.071068e-011 7.071068e-011 7.071068e-011 7.071068e-011
7650000000 0.037747756 0.052893523 0.010511253 0.016586455 7.071068e-011 7.071068e-011 7.071068e-011 7.071068e-011
7658400000 -0.021146992 0.011753639 -0.019535502 0.0037904591 7.071068e-011 7.071068e-011 7.071068e-011 7.071068e-011
7666800000 -0.022672407 0.09606085 0.0034299865 -0.019282043 7.071068e-011 7.071068e-011 7.071068e-011 7.071068e-011
7675200000 0.069786564 0.071457669 0.01617655 0.010734994 7.071068e-011 7.071068e-011 7.071068e-011 7.071068e-011
7683600000 0.031662609 -0.0041415705 -0.016254496 0.011293499 7.071068e-011 7.071068e-011 7.071068e-011 7.071068e-011
7692000000 -0.0051703271 0.047252707 -0.0045987619 -0.019143138 7.071068e-011 7.071068e-011 7.071068e-011 7.071068e-011
7700400000 0.065964013 0.043623034 0.019468879 0.0027967822 7.071068e-011 7.071068e-011 7.071068e-011 7.071068e-011
7708800000 0.035417553 -0.039797198 -0.0099741463 0.016962679 7.071068e-011 7.071068e-011 7.071068e-011 7.071068e-011
7717200000 -0.03363331 0.00099461223 -0.012058351 -0.015627438 7.071068e-011 7.071068e-011 7.071068e-011 7.071068e-011
7725600000 0.017108353 0.033747785 0.018997882 -0.0051434478 7.071068e-011 7.071068e-011 7.071068e-011 7.071068e-011
7734000000 0.013943159 -0.035850368 -0.0021102608 0.019768083 7.071068e-011 7.071068e-011 7.071068e-011 7.071068e-011
7742400000 -0.070905894 -0.012056946 -0.017317194 -0.0091425274 7.071068e-011 7.071068e-011 7.071068e-011 7.071068e-011
7750800000 -0.040320244 0.062520318 0.015204458 -0.012581143 7.071068e-011 7.071068e-011 7.071068e-011 7.071068e-011
7759200000 0.0014938646 0.025009872 0.006066836 0.018884318 7.071068e-011 7.071068e-011 7.071068e-011 7.071068e-011
7767600000 -0.05357499 0.019645026 -0.019781521 -0.0014404237 7.071068e-011 7.071068e-011 7.071068e-011 7.071068e-011
7776000000 -0.037588775 0.091077477 0.0087229284 -0.01764117 7.071068e-011 7.071068e-011 7.071068e-011 7.071068e-011
7784400000 0.031491712 0.067868598 0.013133883 0.014751221 7.071068e-011 7.071068e-011 7.071068e-011 7.071068e-011
7792800000 0.0010720878 0.024820894 -0.018462587 0.0065703462 7.071068e-011 7.071068e-011 7.071068e-011 7.071068e-011
7801200000 -0.0075704404 0.070438027 0.0010566424 -0.019860489 7.071068e-011 7.071068e-011 7.071068e-011 7.071068e-011
7809600000 0.053273339 0.058346812 0.018065458 0.0081872242 7.071068e-011 7.071068e-011 7.071068e-011 7.071068e-011
7818000000 0.035127748 -0.0043753339 -0.014394011 0.013351608 7.071068e-011 7.071068e-011 7.071068e-011 7.071068e-011
7826400000 -0.0055425381 0.021078415 -0.0070256311 -0.01844581 7.071068e-011 7.071068e-011 7.071068e-011 7.071068e-011
7834800000 0.032753434 0.031525046 0.019727418 0.00040893781 7.071068e-011 7.071068e-011 7.071068e-011 7.071068e-011
7843200000 0.025159163 -0.019778905 -0.0078242393 0.018177934 7.071068e-011 7.071068e-011 7.071068e-011 7.071068e-011
7851600000 -0.026833571 -0.0044536483 -0.013894608 -0.014167221 7.071068e-011 7.071068e-011 7.071068e-011 7.071068e-011
7860000000 -0.003973179 0.030779393 0.018263739 -0.0076077096 7.071068e-011 7.071068e-011 7.071068e-011 7.071068e-011
7868400000 0.010350048 -0.0036711546 -2.6474196e-005 0.019731272 7.071068e-011 7.071068e-011 7.071068e-011 7.071068e-011
7876800000 -0.036370706 -0.0037079619 -0.018495038 -0.0074477382 7.071068e-011 7.071068e-011 7.071068e-011 7.071068e-011
7885200000 -0.030423561 0.043582123 0.01364559 -0.014365964 7.071068e-011 7.071068e-011 7.071068e-011 7.071068e-011
7893600000 0.0088993516 0.036027875 0.0080186389 0.017853647 7.071068e-011 7.071068e-011 7.071068e-011 7.071068e-011
7902000000 -0.0084559079 0.0093173208 -0.01965348 0.00042850396 7.071068e-011 7.071068e-011 7.071068e-011 7.071068e-011
7910400000 -0.021366712 0.039206419 0.0069025783 -0.01852116 7.071068e-011 7.071068e-011 7.071068e-011 7.071068e-011
7918800000 0.017205216 0.048962209 0.014369216 0.013185872 7.071068e-011 7.071068e-011 7.071068e-011 7.071068e-011
7927200000 0.02848844 0.0073175249 -0.017651048 0.0082118753 7.071068e-011 7.071068e-011 7.071068e-011 7.071068e-011
7935600000 -0.0080884099 0.0059693763 -0.00088015705 -0.019331574 7.071068e-011 7.071068e-011 7.071068e-011 7.071068e-011
7944000000 0.011136868 0.033256937 0.018163707 0.0066487421 7.071068e-011 7.071068e-011 7.071068e-011 7.071068e-011
7952400000 0.037506986 -0.0057711354 -0.013097081 0.014245049 7.071068e-011 7.071068e-011 7.071068e-011 7.071068e-011
7960800000 -0.015204197 -0.033267587 -0.008295984 -0.017450351 7.071068e-011 7.071068e-011 7.071068e-011 7.071068e-011
7969200000 -0.02904539 0.020967975 0.01900742 -0.00093416643 7.071068e-011 7.071068e-011 7.071068e-011 7.071068e-011
7977600000 0.020097071 0.0066384724 -0.0065108109 0.017909164 7.071068e-011 7.071068e-011 7.071068e-011 7.071068e-011
7986000000 -0.024436584 -0.039738152 -0.014101231 -0.01280821 7.071068e-011 7.071068e-011 7.071068e-011 7.071068e-011
7994400000 -0.065294422 0.025030872 0.017127398 -0.0081609655 7.071068e-011 7.071068e-011 7.071068e-011 7.071068e-011
