!Keysight Technologies,N5235B,MY61252044,A.15.00.15
!Date: Friday, January 20, 2023 23:28:52
!Correction: S11(Off) 
!S21(Off) 
!S12(Off) 
!S22(Off) 
!S2P File: Measurements: S11, S21, S12, S22:
# Hz S  RI   R 50
6600000000 0.018581782 -0.17523298 0.015457069 -0.0030474518 7.071068e-011 7.071068e-011 7.071068e-011 7.071068e-011
6608408408.4084 -0.12457336 0.16553761 0.0053066742 0.010836276 7.071068e-011 7.071068e-011 7.071068e-011 7.071068e-011
6616816816.8168 0.30594268 0.092731141 -0.0089110164 0.003689792 7.071068e-011 7.071068e-011 7.071068e-011 7.071068e-011
6625225225.2252 0.024668859 -0.27294528 -0.0017816061 -0.0093066562 7.071068e-011 7.071068e-011 7.071068e-011 7.071068e-011
6633633633.6336 -0.1657289 0.16136064 0.0093382504 -0.00038742862 7.071068e-011 7.071068e-011 7.071068e-011 7.071068e-011
6642042042.042 0.2898654 0.11320186 -0.0018582067 0.0093201939 7.071068e-011 7.071068e-011 7.071068e-011 7.071068e-011
6650450450.4505 0.039183557 -0.25204605 -0.010724412 -0.0040943106 7.071068e-011 7.071068e-011 7.071068e-011 7.071068e-011
6658858858.8589 -0.1484074 0.13433518 0.0059809755 -0.011494067 7.071068e-011 7.071068e-011 7.071068e-011 7.071068e-011
6667267267.2673 0.22846319 0.10128331 0.012201539 0.0091716312 7.071068e-011 7.071068e-011 7.071068e-011 7.071068e-011
6675675675.6757 0.042924184 -0.15107663 -0.011540358 0.013821168 7.071068e-011 7.071068e-011 7.071068e-011 7.071068e-011
6684084084.0841 -0.044379413 0.084123559 -0.014596161 -0.013356647 7.071068e-011 7.071068e-011 7.071068e-011 7.071068e-011
6692492492.4925 0.1057752 0.04749012 0.014823567 -0.014916701 7.071068e-011 7.071068e-011 7.071068e-011 7.071068e-011
6700900900.9009 0.085959338 0.018345945 0.014763431 0.015419412 7.071068e-011 7.071068e-011 7.071068e-011 7.071068e-011
6709309309.3093 0.077264793 -0.041861512 -0.015557729 0.013105555 7.071068e-011 7.071068e-011 7.071068e-011 7.071068e-011
6717717717.7177 -0.031187227 0.034303509 -0.010139409 -0.01648291 7.071068e-011 7.071068e-011 7.071068e-011 7.071068e-011
6726126126.1261 0.15501572 0.1163309 0.01680376 -0.0070833019 7.071068e-011 7.071068e-011 7.071068e-011 7.071068e-011
6734534534.5345 0.12870272 -0.14060199 0.003554323 0.016234767 7.071068e-011 7.071068e-011 7.071068e-011 7.071068e-011
6742942942.9429 -0.10787287 0.026530948 -0.015913652 -0.0002794578 7.071068e-011 7.071068e-011 7.071068e-011 7.071068e-011
6751351351.3514 0.17138936 0.15265636 0.0036193004 -0.015371568 7.071068e-011 7.071068e-011 7.071068e-011 7.071068e-011
6759759759.7598 0.15079968 -0.17147642 0.013182451 0.0070717079 7.071068e-011 7.071068e-011 7.071068e-011 7.071068e-011
6768168168.1682 -0.14689502 -0.0056447573 -0.01085875 0.010409584 7.071068e-011 7.071068e-011 7.071068e-011 7.071068e-011
6776576576.5766 0.1339009 0.17898904 -0.008001714 -0.013474104 7.071068e-011 7.071068e-011 7.071068e-011 7.071068e-011
6784984984.985 0.15132727 -0.14608759 0.014559182 -0.0040134336 7.071068e-011 7.071068e-011 7.071068e-011 7.071068e-011
6793393393.3934 -0.14737417 -0.0067490544 -0.00034950947 0.015523454 7.071068e-011 7.071068e-011 7.071068e-011 7.071068e-011
6801801801.8018 0.10136665 0.20271336 -0.015716346 -0.0042991601 7.071068e-011 7.071068e-011 7.071068e-011 7.071068e-011
6810210210.2102 0.17254539 -0.094784372 0.0086785629 -0.01442996 7.071068e-011 7.071068e-011 7.071068e-011 7.071068e-011
6818618618.6186 -0.10525212 -0.010489308 0.012140903 0.013237672 7.071068e-011 7.071068e-011 7.071068e-011 7.071068e-011
6827027027.027 0.08767882 0.18547058 -0.015960051 0.0092037683 7.071068e-011 7.071068e-011 7.071068e-011 7.071068e-011
6835435435.4354 0.18152659 -0.048643306 -0.0044741174 -0.017894302 7.071068e-011 7.071068e-011 7.071068e-011 7.071068e-011
6843843843.8438 -0.045350712 -0.028134856 0.020167038 0.00025226976 7.071068e-011 7.071068e-011 7.071068e-011 7.071068e-011
6852252252.2523 0.074632153 0.12923795 -0.0045859306 0.020295125 7.071068e-011 7.071068e-011 7.071068e-011 7.071068e-011
6860660660.6607 0.14512154 -0.020176703 -0.018598579 -0.0096109631 7.071068e-011 7.071068e-011 7.071068e-011 7.071068e-011
6869069069.0691 0.0042191097 -0.027085602 0.014519636 -0.016084425 7.071068e-011 7.071068e-011 7.071068e-011 7.071068e-011
6877477477.4775 0.05398253 0.072524071 0.012675892 0.018091189 7.071068e-011 7.071068e-011 7.071068e-011 7.071068e-011
6885885885.8859 0.090364635 0.006947658 -0.020449093 0.0076984712 7.071068e-011 7.071068e-011 7.071068e-011 7.071068e-011
6894294294.2943 0.047276732 -0.0010147254 -0.002301794 -0.022012368 7.071068e-011 7.071068e-011 7.071068e-011 7.071068e-011
6902702702.7027 0.038234673 0.019356582 0.021984175 0.0032430002 7.071068e-011 7.071068e-011 7.071068e-011 7.071068e-011
6911111111.1111 0.030978553 0.037650883 -0.0087833069 0.020205533 7.071068e-011 7.071068e-011 7.071068e-011 7.071068e-011
6919519519.5195 0.078273028 0.049960982 -0.016938493 -0.013620938 7.071068e-011 7.071068e-011 7.071068e-011 7.071068e-011
6927927927.9279 0.050790016 -0.012394957 0.017239409 -0.012772467 7.071068e-011 7.071068e-011 7.071068e-011 7.071068e-011
6936336336.3363 -0.0021894067 0.062158369 0.007264311 0.01947297 7.071068e-011 7.071068e-011 7.071068e-011 7.071068e-011
6944744744.7447 0.11240088 0.089398131 -0.020833405 0.001146986 7.071068e-011 7.071068e-011 7.071068e-011 7.071068e-011
6953153153.1532 0.084348872 -0.045524597 0.0044857333 -0.019988785 7.071068e-011 7.071068e-011 7.071068e-011 7.071068e-011
6961561561.5616 -0.028338276 0.054390009 0.01732903 0.0099499831 7.071068e-011 7.071068e-011 7.071068e-011 7.071068e-011
6969969969.97 0.12460572 0.10592136 -0.014509028 0.013543492 7.071068e-011 7.071068e-011 7.071068e-011 7.071068e-011
6978378378.3784 0.10174083 -0.070780568 -0.0083798245 -0.017364776 7.071068e-011 7.071068e-011 7.071068e-011 7.071068e-011
6986786786.7868 -0.064072512 0.032698199 0.018725632 -0.0022786171 7.071068e-011 7.071068e-011 7.071068e-011 7.071068e-011
6995195195.1952 0.10294312 0.13391781 -0.0035516601 0.018910766 7.071068e-011 7.071068e-011 7.071068e-011 7.071068e-011
7003603603.6036 0.10893438 -0.057871543 -0.016598709 -0.0089025637 7.071068e-011 7.071068e-011 7.071068e-011 7.071068e-011
7012012012.012 -0.072671019 0.032449573 0.014116668 -0.012468046 7.071068e-011 7.071068e-011 7.071068e-011 7.071068e-011
7020420420.4204 0.088006169 0.16142152 0.0077931187 0.017322507 7.071068e-011 7.071068e-011 7.071068e-011 7.071068e-011
7028828828.8288 0.13263486 -0.028996671 -0.018522093 0.0018298356 7.071068e-011 7.071068e-011 7.071068e-011 7.071068e-011
7037237237.2372 -0.053962301 0.03066791 0.0044179983 -0.018638385 7.071068e-011 7.071068e-011 7.071068e-011 7.071068e-011
7045645645.6456 0.090019353 0.17088571 0.016443992 0.009795635 7.071068e-011 7.071068e-011 7.071068e-011 7.071068e-011
7054054054.0541 0.16759144 -0.0030625365 -0.014670976 0.012042594 7.071068e-011 7.071068e-011 7.071068e-011 7.071068e-011
7062462462.4625 -0.0081048859 -0.0040074447 -0.0068349903 -0.018468482 7.071068e-011 7.071068e-011 7.071068e-011 7.071068e-011
7070870870.8709 0.078261711 0.14038439 0.019767446 -0.0011976998 7.071068e-011 7.071068e-011 7.071068e-011 7.071068e-011
7079279279.2793 0.16834068 0.00737376 -0.0055463267 0.018792475 7.071068e-011 7.071068e-011 7.071068e-011 7.071068e-011
7087687687.6877 0.032542903 -0.026973369 -0.016642688 -0.011482881 7.071068e-011 7.071068e-011 7.071068e-011 7.071068e-011
7096096096.0961 0.059506144 0.089248903 0.015936572 -0.012480882 7.071068e-011 7.071068e-011 7.071068e-011 7.071068e-011
7104504504.5045 0.14775957 0.010399408 0.0065341606 0.019134017 7.071068e-011 7.071068e-011 7.071068e-011 7.071068e-011
7112912912.9129 0.050874591 -0.044644311 -0.020636613 -0.00012303026 7.071068e-011 7.071068e-011 7.071068e-011 7.071068e-011
7121321321.3213 0.034385808 0.031882424 0.0063019483 -0.019839251 7.071068e-011 7.071068e-011 7.071068e-011 7.071068e-011
7129729729.7297 0.089283019 0.014488963 0.016444216 0.0120737 7.071068e-011 7.071068e-011 7.071068e-011 7.071068e-011
7138138138.1381 0.043427121 -0.037789568 -0.017180471 0.011699607 7.071068e-011 7.071068e-011 7.071068e-011 7.071068e-011
7146546546.5465 -0.00051951822 0.013610272 -0.0058504022 -0.020115308 7.071068e-011 7.071068e-011 7.071068e-011 7.071068e-011
7154954954.955 0.030636884 0.041321047 0.020801177 0.00085229758 7.071068e-011 7.071068e-011 7.071068e-011 7.071068e-011
7163363363.3634 0.04495617 0.01576381 -0.0076544546 0.019097678 7.071068e-011 7.071068e-011 7.071068e-011 7.071068e-011
7171771771.7718 0.0012027881 0.020251123 -0.015746752 -0.01347368 7.071068e-011 7.071068e-011 7.071068e-011 7.071068e-011
7180180180.1802 0.018435491 0.072526626 0.017618032 -0.010393469 7.071068e-011 7.071068e-011 7.071068e-011 7.071068e-011
7188588588.5886 0.067769863 0.056173291 0.0038869416 0.020444369 7.071068e-011 7.071068e-011 7.071068e-011 7.071068e-011
7196996996.997 0.03989663 0.010115058 -0.020605329 -0.0027393075 7.071068e-011 7.071068e-011 7.071068e-011 7.071068e-011
7205405405.4054 0.012283889 0.067103162 0.0095406827 -0.017998245 7.071068e-011 7.071068e-011 7.071068e-011 7.071068e-011
7213813813.8138 0.083187565 0.067247391 0.013846226 0.015183697 7.071068e-011 7.071068e-011 7.071068e-011 7.071068e-011
7222222222.2222 0.066237122 -0.0054725343 -0.018985612 0.0082225865 7.071068e-011 7.071068e-011 7.071068e-011 7.071068e-011
7230630630.6306 -0.0013071337 0.035087295 -0.0014423224 -0.02049084 7.071068e-011 7.071068e-011 7.071068e-011 7.071068e-011
7239039039.039 0.071484067 0.075604796 0.019950453 0.0058450554 7.071068e-011 7.071068e-011 7.071068e-011 7.071068e-011
7247447447.4474 0.075285316 -0.014780358 -0.012009768 0.016978938 7.071068e-011 7.071068e-011 7.071068e-011 7.071068e-011
7255855855.8559 -0.016588675 0.007298599 -0.011599908 -0.017013079 7.071068e-011 7.071068e-011 7.071068e-011 7.071068e-011
7264264264.2643 0.034825161 0.084065512 0.020116568 -0.0053525581 7.071068e-011 7.071068e-011 7.071068e-011 7.071068e-011
7272672672.6727 0.074404687 0.00069652084 -0.0015158143 0.020534275 7.071068e-011 7.071068e-011 7.071068e-011 7.071068e-011
7281081081.0811 -0.029822541 0.00076338381 -0.018724177 -0.0084474096 7.071068e-011 7.071068e-011 7.071068e-011 7.071068e-011
7289489489.4895 -7.2486902e-005 0.10757674 0.014692826 -0.014618544 7.071068e-011 7.071068e-011 7.071068e-011 7.071068e-011
7297897897.8979 0.084970996 0.050723296 0.008804949 0.018823752 7.071068e-011 7.071068e-011 7.071068e-011 7.071068e-011
7306306306.3063 0.0011312291 0.0088332454 -0.020575978 0.0015836476 7.071068e-011 7.071068e-011 7.071068e-011 7.071068e-011
7314714714.7147 0.0040491824 0.11275755 0.0053923069 -0.020291138 7.071068e-011 7.071068e-011 7.071068e-011 7.071068e-011
7323123123.1231 0.1126575 0.07541541 0.017006768 0.011729785 7.071068e-011 7.071068e-011 7.071068e-011 7.071068e-011
7331531531.5315 0.051281638 -0.011835509 -0.017323693 0.011715222 7.071068e-011 7.071068e-011 7.071068e-011 7.071068e-011
7339939939.9399 0.0078937765 0.068597883 -0.0053243348 -0.020548474 7.071068e-011 7.071068e-011 7.071068e-011 7.071068e-011
7348348348.3483 0.10544195 0.06371218 0.02092055 0.0019216023 7.071068e-011 7.071068e-011 7.071068e-011 7.071068e-011
7356756756.7568 0.066210948 -0.036964066 -0.0091973459 0.018787771 7.071068e-011 7.071068e-011 7.071068e-011 7.071068e-011
7365165165.1652 -0.010239493 0.020808533 -0.014743814 -0.015187008 7.071068e-011 7.071068e-011 7.071068e-011 7.071068e-011
7373573573.5736 0.061485205 0.049862109 0.019007448 -0.0085698636 7.071068e-011 7.071068e-011 7.071068e-011 7.071068e-011
7381981981.982 0.044001509 -0.035345506 0.0010742982 0.021117093 7.071068e-011 7.071068e-011 7.071068e-011 7.071068e-011
7390390390.3904 -0.043081529 0.0096195685 -0.020333532 -0.0061523253 7.071068e-011 7.071068e-011 7.071068e-011 7.071068e-011
7398798798.7988 0.012926406 0.071226545 0.012886805 -0.01670224 7.071068e-011 7.071068e-011 7.071068e-011 7.071068e-011
7407207207.2072 0.027953763 0.0098764384 0.011193551 0.017977322 7.071068e-011 7.071068e-011 7.071068e-011 7.071068e-011
7415615615.6156 -0.040909816 0.035312511 -0.02087109 0.0043973341 7.071068e-011 7.071068e-011 7.071068e-011 7.071068e-011
7424024024.024 0.0067138826 0.10500027 0.0030501862 -0.02103816 7.071068e-011 7.071068e-011 7.071068e-011 7.071068e-011
7432432432.4324 0.054726832 0.054180462 0.018677698 0.010408459 7.071068e-011 7.071068e-011 7.071068e-011 7.071068e-011
7440840840.8408 0.0098368796 0.042305 -0.016127484 0.014058637 7.071068e-011 7.071068e-011 7.071068e-011 7.071068e-011
7449249249.2492 0.030212114 0.087085113 -0.0073363432 -0.019863652 7.071068e-011 7.071068e-011 7.071068e-011 7.071068e-011
7457657657.6577 0.077947244 0.049018409 0.021251103 0.00016215115 7.071068e-011 7.071068e-011 7.071068e-011 7.071068e-011
7466066066.0661 0.041787963 0.014058628 -0.0075119645 0.019933151 7.071068e-011 7.071068e-011 7.071068e-011 7.071068e-011
7474474474.4745 0.030481527 0.039276332 -0.01594097 -0.013822357 7.071068e-011 7.071068e-011 7.071068e-011 7.071068e-011
7482882882.8829 0.059837658 0.029137056 0.018624008 -0.0098044118 7.071068e-011 7.071068e-011 7.071068e-011 7.071068e-011
7491291291.2913 0.038949173 -0.013361682 0.0026495464 0.020924108 7.071068e-011 7.071068e-011 7.071068e-011 7.071068e-011
7499699699.6997 -0.0033278728 0.0023587698 -0.020358503 -0.0049139792 7.071068e-011 7.071068e-011 7.071068e-011 7.071068e-011
7508108108.1081 0.0032475707 0.031946138 0.011743089 -0.017317245 7.071068e-011 7.071068e-011 7.071068e-011 7.071068e-011
7516516516.5165 0.01940446 0.011981916 0.011993641 0.016985275 7.071068e-011 7.071068e-011 7.071068e-011 7.071068e-011
7524924924.9249 -0.026359778 0.0065665296 -0.02002378 0.0050789826 7.071068e-011 7.071068e-011 7.071068e-011 7.071068e-011
7533333333.3333 -0.02985527 0.06594836 0.0025372817 -0.020493653 7.071068e-011 7.071068e-011 7.071068e-011 7.071068e-011
7541741741.7417 0.02781621 0.068928078 0.018245254 0.0094827814 7.071068e-011 7.071068e-011 7.071068e-011 7.071068e-011
7550150150.1502 0.013083662 0.020585079 -0.015208899 0.013216612 7.071068e-011 7.071068e-011 7.071068e-011 7.071068e-011
7558558558.5586 -0.015368647 0.068380363 -0.0068477071 -0.019033749 7.071068e-011 7.071068e-011 7.071068e-011 7.071068e-011
7566966966.967 0.055564959 0.078154884 0.019992242 0.00048983243 7.071068e-011 7.071068e-011 7.071068e-011 7.071068e-011
7575375375.3754 0.053641293 0.00098570238 -0.0079126945 0.018450737 7.071068e-011 7.071068e-011 7.071068e-011 7.071068e-011
7583783783.7838 -0.011877979 0.023935985 -0.014389439 -0.014079794 7.071068e-011 7.071068e-011 7.071068e-011 7.071068e-011
7592192192.1922 0.045405854 0.06065616 0.018002942 -0.0083043566 7.071068e-011 7.071068e-011 7.071068e-011 7.071068e-011
7600600600.6006 0.051834155 -0.024275329 0.00086698373 0.019476486 7.071068e-011 7.071068e-011 7.071068e-011 7.071068e-011
7609009009.009 -0.037938081 -0.010884823 -0.01886888 -0.0065447534 7.071068e-011 7.071068e-011 7.071068e-011 7.071068e-011
7617417417.4174 -0.0052755326 0.058132403 0.012624682 -0.015308049 7.071068e-011 7.071068e-011 7.071068e-011 7.071068e-011
7625825825.8258 0.026461665 -0.0039982651 0.0094158947 0.017395617 7.071068e-011 7.071068e-011 7.071068e-011 7.071068e-011
7634234234.2342 -0.060577098 0.0038775147 -0.019541303 0.0024349734 7.071068e-011 7.071068e-011 7.071068e-011 7.071068e-011
7642642642.6426 -0.026710836 0.091624714 0.0049961987 -0.018890752 7.071068e-011 7.071068e-011 7.071068e-011 7.071068e-011
7651051051.0511 0.037563764 0.042590801 0.015739137 0.011707425 7.071068e-011 7.071068e-011 7.071068e-011 7.071068e-011
7659459459.4595 -0.029723125 0.018053155 -0.016777081 0.01064944 7.071068e-011 7.071068e-011 7.071068e-011 7.071068e-011
7667867867.8679 -0.011662764 0.10237792 -0.0038806559 -0.019114221 7.071068e-011 7.071068e-011 7.071068e-011 7.071068e-011
7676276276.2763 0.073817514 0.059126936 0.019083729 0.0039704223 7.071068e-011 7.071068e-011 7.071068e-011 7.071068e-011
7684684684.6847 0.021533838 -0.0039524278 -0.010776007 0.016603211 7.071068e-011 7.071068e-011 7.071068e-011 7.071068e-011
7693093093.0931 0.00058311573 0.054283038 -0.011466962 -0.015967881 7.071068e-011 7.071068e-011 7.071068e-011 7.071068e-011
7701501501.5015 0.071012028 0.032692097 0.019020045 -0.0048254812 7.071068e-011 7.071068e-011 7.071068e-011 7.071068e-011
7709909909.9099 0.023462553 -0.042499673 -0.0026174537 0.019506387 7.071068e-011 7.071068e-011 7.071068e-011 7.071068e-011
7718318318.3183 -0.033217419 0.01074311 -0.017206153 -0.0095985848 7.071068e-011 7.071068e-011 7.071068e-011 7.071068e-011
7726726726.7267 0.024324669 0.027878094 0.01544709 -0.0122309 7.071068e-011 7.071068e-011 7.071068e-011 7.071068e-011
7735135135.1351 0.0029583224 -0.041226923 0.0059253238 0.018956738 7.071068e-011 7.071068e-011 7.071068e-011 7.071068e-011
7743543543.5435 -0.074970737 -0.0003569964 -0.019528754 -0.0014630808 7.071068e-011 7.071068e-011 7.071068e-011 7.071068e-011
7751951951.952 -0.030531565 0.064330563 0.0087287603 -0.017682914 7.071068e-011 7.071068e-011 7.071068e-011 7.071068e-011
7760360360.3604 -0.0025501379 0.017560668 0.013244571 0.014663439 7.071068e-011 7.071068e-011 7.071068e-011 7.071068e-011
7768768768.7688 -0.058248676 0.028310429 -0.018585473 0.0068683587 7.071068e-011 7.071068e-011 7.071068e-011 7.071068e-011
7777177177.1772 -0.027379682 0.095530458 0.00059529883 -0.019717 7.071068e-011 7.071068e-011 7.071068e-011 7.071068e-011
7785585585.5856 0.033880286 0.058128402 0.018124484 0.007821613 7.071068e-011 7.071068e-011 7.071068e-011 7.071068e-011
7793993993.994 -0.0054787365 0.027725097 -0.013905854 0.013689705 7.071068e-011 7.071068e-011 7.071068e-011 7.071068e-011
7802402402.4024 -0.00054556504 0.074827939 -0.0075703198 -0.018373862 7.071068e-011 7.071068e-011 7.071068e-011 7.071068e-011
7810810810.8108 0.057962172 0.049024403 0.019773502 -0.00044792629 7.071068e-011 7.071068e-011 7.071068e-011 7.071068e-011
7819219219.2192 0.026154459 -0.0064439969 -0.0071421661 0.01833168 7.071068e-011 7.071068e-011 7.071068e-011 7.071068e-011
7827627627.6276 -0.0036984186 0.02672389 -0.01440257 -0.01346147 7.071068e-011 7.071068e-011 7.071068e-011 7.071068e-011
7836036036.036 0.037440382 0.025856744 0.017844763 -0.0083399788 7.071068e-011 7.071068e-011 7.071068e-011 7.071068e-011
7844444444.4444 0.016637919 -0.023760574 0.0011140722 0.019718554 7.071068e-011 7.071068e-011 7.071068e-011 7.071068e-011
7852852852.8529 -0.028290872 0.0029052959 -0.018789867 -0.0063570202 7.071068e-011 7.071068e-011 7.071068e-011 7.071068e-011
7861261261.2613 0.0016211168 0.029542655 0.012773378 -0.015044527 7.071068e-011 7.071068e-011 7.071068e-011 7.071068e-011
7869669669.6697 0.0055402825 -0.0091777714 0.0090087149 0.017559029 7.071068e-011 7.071068e-011 7.071068e-011 7.071068e-011
7878078078.0781 -0.04034061 0.0033131659 -0.019806709 0.0019591923 7.071068e-011 7.071068e-011 7.071068e-011 7.071068e-011
7886486486.4865 -0.024516819 0.0468955 0.0053873714 -0.01901588 7.071068e-011 7.071068e-011 7.071068e-011 7.071068e-011
7894894894.8949 0.010924526 0.030381424 0.015402329 0.011991275 7.071068e-011 7.071068e-011 7.071068e-011 7.071068e-011
7903303303.3033 -0.013429934 0.011050795 -0.017092174 0.009690579 7.071068e-011 7.071068e-011 7.071068e-011 7.071068e-011
7911711711.7117 -0.017894678 0.043876454 -0.0027611225 -0.019487025 7.071068e-011 7.071068e-011 7.071068e-011 7.071068e-011
7920120120.1201 0.023047762 0.044949409 0.018894888 0.0047286558 7.071068e-011 7.071068e-011 7.071068e-011 7.071068e-011
7928528528.5285 0.023693262 0.001986898 -0.011459171 0.015720725 7.071068e-011 7.071068e-011 7.071068e-011 7.071068e-011
7936936936.9369 -0.0099430159 0.011075674 -0.010149843 -0.016387552 7.071068e-011 7.071068e-011 7.071068e-011 7.071068e-011
7945345345.3453 0.017731372 0.032131873 0.019020453 -0.0030811259 7.071068e-011 7.071068e-011 7.071068e-011 7.071068e-011
