!Keysight Technologies,N5235B,MY61252044,A.15.00.15
!Date: Friday, January 20, 2023 19:06:20
!Correction: S11(Off) 
!S21(Off) 
!S12(Off) 
!S22(Off) 
!S2P File: Measurements: S11, S21, S12, S22:
# Hz S  RI   R 50
6600000000 0.017010441 -0.17442884 0.014905696 -0.0052092792 7.071068e-011 7.071068e-011 7.071068e-011 7.071068e-011
6608400000 -0.12363349 0.16651224 0.0067771729 0.010021027 7.071068e-011 7.071068e-011 7.071068e-011 7.071068e-011
6616800000 0.30681819 0.091764584 -0.0083384514 0.0048637628 7.071068e-011 7.071068e-011 7.071068e-011 7.071068e-011
6625200000 0.023773603 -0.2729927 -0.0029843408 -0.0090024769 7.071068e-011 7.071068e-011 7.071068e-011 7.071068e-011
6633600000 -0.16585788 0.16140828 0.0092108063 -0.0015839332 7.071068e-011 7.071068e-011 7.071068e-011 7.071068e-011
6642000000 0.290254 0.11403154 -0.000692809 0.0094571123 7.071068e-011 7.071068e-011 7.071068e-011 7.071068e-011
6650400000 0.039848007 -0.25273967 -0.011115688 -0.0028021222 7.071068e-011 7.071068e-011 7.071068e-011 7.071068e-011
6658800000 -0.14920941 0.13332166 0.0046331706 -0.012103379 7.071068e-011 7.071068e-011 7.071068e-011 7.071068e-011
6667200000 0.2279934 0.10357103 0.013085054 0.0077498774 7.071068e-011 7.071068e-011 7.071068e-011 7.071068e-011
6675600000 0.044573985 -0.15273781 -0.010051655 0.014893692 7.071068e-011 7.071068e-011 7.071068e-011 7.071068e-011
6684000000 -0.045439091 0.084089041 -0.015853392 -0.011873629 7.071068e-011 7.071068e-011 7.071068e-011 7.071068e-011
6692400000 0.10546066 0.048540607 0.013292316 -0.016270358 7.071068e-011 7.071068e-011 7.071068e-011 7.071068e-011
6700800000 0.086060151 0.017180301 0.016056435 0.014027284 7.071068e-011 7.071068e-011 7.071068e-011 7.071068e-011
6709200000 0.077906825 -0.039990522 -0.01444319 0.014403142 7.071068e-011 7.071068e-011 7.071068e-011 7.071068e-011
6717600000 -0.031354472 0.031756859 -0.011509873 -0.015624786 7.071068e-011 7.071068e-011 7.071068e-011 7.071068e-011
6726000000 0.15287919 0.11796252 0.016193554 -0.008415116 7.071068e-011 7.071068e-011 7.071068e-011 7.071068e-011
6734400000 0.13184902 -0.13849846 0.0047817258 0.015933853 7.071068e-011 7.071068e-011 7.071068e-011 7.071068e-011
6742800000 -0.1080569 0.021677449 -0.015924033 0.00087694952 7.071068e-011 7.071068e-011 7.071068e-011 7.071068e-011
6751200000 0.16720699 0.155799 0.0025951976 -0.015612127 7.071068e-011 7.071068e-011 7.071068e-011 7.071068e-011
6759600000 0.15599623 -0.16866103 0.013629641 0.0062419148 7.071068e-011 7.071068e-011 7.071068e-011 7.071068e-011
6768000000 -0.14680916 -0.012126146 -0.01021227 0.011036868 7.071068e-011 7.071068e-011 7.071068e-011 7.071068e-011
6776400000 0.12845899 0.18197541 -0.0087301638 -0.013019504 7.071068e-011 7.071068e-011 7.071068e-011 7.071068e-011
6784800000 0.15679765 -0.14200231 0.014315031 -0.0047761304 7.071068e-011 7.071068e-011 7.071068e-011 7.071068e-011
6793200000 -0.1465089 -0.014680698 0.00039531372 0.015507855 7.071068e-011 7.071068e-011 7.071068e-011 7.071068e-011
6801600000 0.094750889 0.20570895 -0.015908616 -0.0036453668 7.071068e-011 7.071068e-011 7.071068e-011 7.071068e-011
6810000000 0.17721285 -0.090143412 0.0081315059 -0.014779497 7.071068e-011 7.071068e-011 7.071068e-011 7.071068e-011
6818400000 -0.1028529 -0.017984558 0.0125551 0.012782967 7.071068e-011 7.071068e-011 7.071068e-011 7.071068e-011
6826800000 0.080197208 0.1879074 -0.015660202 0.0096551152 7.071068e-011 7.071068e-011 7.071068e-011 7.071068e-011
6835200000 0.18573709 -0.044216048 -0.0049448288 -0.017770872 7.071068e-011 7.071068e-011 7.071068e-011 7.071068e-011
6843600000 -0.042479079 -0.033332165 0.020183112 -0.00016753562 7.071068e-011 7.071068e-011 7.071068e-011 7.071068e-011
6852000000 0.068391636 0.1300869 -0.0042503155 0.020393183 7.071068e-011 7.071068e-011 7.071068e-011 7.071068e-011
6860400000 0.14845458 -0.016443878 -0.018711125 -0.0093725985 7.071068e-011 7.071068e-011 7.071068e-011 7.071068e-011
6868800000 0.0061286227 -0.030251537 0.01440565 -0.016179455 7.071068e-011 7.071068e-011 7.071068e-011 7.071068e-011
6877200000 0.050671846 0.072468102 0.01275773 0.018091334 7.071068e-011 7.071068e-011 7.071068e-011 7.071068e-011
6885600000 0.09195143 0.0088398978 -0.020467026 0.0077321222 7.071068e-011 7.071068e-011 7.071068e-011 7.071068e-011
6894000000 0.047737431 -0.0018583103 -0.0022145228 -0.022054581 7.071068e-011 7.071068e-011 7.071068e-011 7.071068e-011
6902400000 0.038340352 0.019269897 0.021988727 0.0034626329 7.071068e-011 7.071068e-011 7.071068e-011 7.071068e-011
6910800000 0.030912306 0.036160603 -0.0090549914 0.020131418 7.071068e-011 7.071068e-011 7.071068e-011 7.071068e-011
6919200000 0.076529883 0.051567595 -0.016749488 -0.013911247 7.071068e-011 7.071068e-011 7.071068e-011 7.071068e-011
6927600000 0.053710341 -0.011683897 0.017537594 -0.012444717 7.071068e-011 7.071068e-011 7.071068e-011 7.071068e-011
6936000000 -0.003177017 0.057651177 0.0068319892 0.019718153 7.071068e-011 7.071068e-011 7.071068e-011 7.071068e-011
6944400000 0.10799958 0.093279302 -0.020885862 0.00054105604 7.071068e-011 7.071068e-011 7.071068e-011 7.071068e-011
6952800000 0.090209894 -0.043326791 0.0051446161 -0.019880561 7.071068e-011 7.071068e-011 7.071068e-011 7.071068e-011
6961200000 -0.02908141 0.047481816 0.016991887 0.010591906 7.071068e-011 7.071068e-011 7.071068e-011 7.071068e-011
6969600000 0.1178807 0.11066961 -0.015094306 0.01297015 7.071068e-011 7.071068e-011 7.071068e-011 7.071068e-011
6978000000 0.11003099 -0.066558659 -0.0076454165 -0.017767027 7.071068e-011 7.071068e-011 7.071068e-011 7.071068e-011
6986400000 -0.063878715 0.023110073 0.018835805 -0.0014286157 7.071068e-011 7.071068e-011 7.071068e-011 7.071068e-011
6994800000 0.094310984 0.13790219 -0.0045742234 0.018750122 7.071068e-011 7.071068e-011 7.071068e-011 7.071068e-011
7003200000 0.11731606 -0.051645339 -0.016147759 -0.0098801805 7.071068e-011 7.071068e-011 7.071068e-011 7.071068e-011
7011600000 -0.071331844 0.02118795 0.014823771 -0.011598097 7.071068e-011 7.071068e-011 7.071068e-011 7.071068e-011
7020000000 0.077922262 0.16484466 0.0066662864 0.017812315 7.071068e-011 7.071068e-011 7.071068e-011 7.071068e-011
7028400000 0.13977566 -0.021437127 -0.018622678 0.00060507946 7.071068e-011 7.071068e-011 7.071068e-011 7.071068e-011
7036800000 -0.050832663 0.019604065 0.0057760649 -0.018287854 7.071068e-011 7.071068e-011 7.071068e-011 7.071068e-011
7045200000 0.078696497 0.17305928 0.015691044 0.011073031 7.071068e-011 7.071068e-011 7.071068e-011 7.071068e-011
7053600000 0.17299528 0.0060882042 -0.015592294 0.010838926 7.071068e-011 7.071068e-011 7.071068e-011 7.071068e-011
7062000000 -0.0026776451 -0.012768487 -0.0052122409 -0.01898841 7.071068e-011 7.071068e-011 7.071068e-011 7.071068e-011
7070400000 0.068197064 0.140218 0.019855911 0.00057534617 7.071068e-011 7.071068e-011 7.071068e-011 7.071068e-011
7078800000 0.17137426 0.016179446 -0.0072151809 0.018197704 7.071068e-011 7.071068e-011 7.071068e-011 7.071068e-011
7087200000 0.038826298 -0.032444935 -0.015436444 -0.013072107 7.071068e-011 7.071068e-011 7.071068e-011 7.071068e-011
7095600000 0.0520133 0.087305091 0.017196564 -0.01082671 7.071068e-011 7.071068e-011 7.071068e-011 7.071068e-011
7104000000 0.14879225 0.017498039 0.0045016487 0.019757584 7.071068e-011 7.071068e-011 7.071068e-011 7.071068e-011
7112400000 0.056820747 -0.046493459 -0.020482466 -0.0023767818 7.071068e-011 7.071068e-011 7.071068e-011 7.071068e-011
7120800000 0.030895034 0.02833784 0.008552704 -0.019012181 7.071068e-011 7.071068e-011 7.071068e-011 7.071068e-011
7129200000 0.089010768 0.018947957 0.014952943 0.013944552 7.071068e-011 7.071068e-011 7.071068e-011 7.071068e-011
7137600000 0.047527019 -0.037971422 -0.018532721 0.0095246965 7.071068e-011 7.071068e-011 7.071068e-011 7.071068e-011
7146000000 -0.00014032552 0.0096309483 -0.0032906784 -0.020758169 7.071068e-011 7.071068e-011 7.071068e-011 7.071068e-011
7154400000 0.028100202 0.041939929 0.020534394 0.0035408183 7.071068e-011 7.071068e-011 7.071068e-011 7.071068e-011
7162800000 0.046286352 0.017161397 -0.010128147 0.017904375 7.071068e-011 7.071068e-011 7.071068e-011 7.071068e-011
7171200000 0.0034048443 0.017849294 -0.013750074 -0.015575463 7.071068e-011 7.071068e-011 7.071068e-011 7.071068e-011
7179600000 0.014756896 0.070143916 0.018991333 -0.0078567425 7.071068e-011 7.071068e-011 7.071068e-011 7.071068e-011
7188000000 0.066365525 0.059889961 0.00085308228 0.020808507 7.071068e-011 7.071068e-011 7.071068e-011 7.071068e-011
7196400000 0.043881778 0.010292567 -0.019991167 -0.0058418456 7.071068e-011 7.071068e-011 7.071068e-011 7.071068e-011
7204800000 0.010067388 0.062528603 0.012178496 -0.016318779 7.071068e-011 7.071068e-011 7.071068e-011 7.071068e-011
7213200000 0.079010822 0.071568802 0.01129994 0.017201705 7.071068e-011 7.071068e-011 7.071068e-011 7.071068e-011
7221600000 0.071836837 -0.002624935 -0.020132734 0.0050716824 7.071068e-011 7.071068e-011 7.071068e-011 7.071068e-011
7230000000 -0.00078548986 0.02865012 0.0019634154 -0.020524833 7.071068e-011 7.071068e-011 7.071068e-011 7.071068e-011
7238400000 0.064864337 0.078681551 0.018650265 0.0091780983 7.071068e-011 7.071068e-011 7.071068e-011 7.071068e-011
7246800000 0.081114665 -0.0093861744 -0.014841782 0.014626234 7.071068e-011 7.071068e-011 7.071068e-011 7.071068e-011
7255200000 -0.012925937 4.0414267e-005 -0.0084144874 -0.018794525 7.071068e-011 7.071068e-011 7.071068e-011 7.071068e-011
7263600000 0.026850009 0.084014527 0.020772336 -0.0016142435 7.071068e-011 7.071068e-011 7.071068e-011 7.071068e-011
7272000000 0.078670926 0.0080648577 -0.0052841417 0.019957265 7.071068e-011 7.071068e-011 7.071068e-011 7.071068e-011
7280400000 -0.023531038 -0.0063124187 -0.016841024 -0.011891298 7.071068e-011 7.071068e-011 7.071068e-011 7.071068e-011
7288800000 -0.0089718299 0.10318228 0.017268822 -0.011461762 7.071068e-011 7.071068e-011 7.071068e-011 7.071068e-011
7297200000 0.084890984 0.05985368 0.0048814272 0.020204481 7.071068e-011 7.071068e-011 7.071068e-011 7.071068e-011
7305600000 0.008724384 0.0044819675 -0.020469394 -0.0025568432 7.071068e-011 7.071068e-011 7.071068e-011 7.071068e-011
7314000000 -0.0039709066 0.10617506 0.0094838263 -0.018786002 7.071068e-011 7.071068e-011 7.071068e-011 7.071068e-011
7322400000 0.10862965 0.08568377 0.014240594 0.015044895 7.071068e-011 7.071068e-011 7.071068e-011 7.071068e-011
7330800000 0.060471829 -0.011668802 -0.019418096 0.00769265 7.071068e-011 7.071068e-011 7.071068e-011 7.071068e-011
7339200000 0.0040026121 0.060681399 -0.00064647419 -0.021254709 7.071068e-011 7.071068e-011 7.071068e-011 7.071068e-011
7347600000 0.099130593 0.072223328 0.020016693 0.0065230518 7.071068e-011 7.071068e-011 7.071068e-011 7.071068e-011
7356000000 0.076097421 -0.033635158 -0.013143874 0.016214903 7.071068e-011 7.071068e-011 7.071068e-011 7.071068e-011
7364400000 -0.010160922 0.01239106 -0.010826016 -0.018208144 7.071068e-011 7.071068e-011 7.071068e-011 7.071068e-011
7372800000 0.05462537 0.05470784 0.020588394 -0.0039309114 7.071068e-011 7.071068e-011 7.071068e-011 7.071068e-011
7381200000 0.052970909 -0.030825116 -0.0039977953 0.020765813 7.071068e-011 7.071068e-011 7.071068e-011 7.071068e-011
7389600000 -0.040802155 0.00049266196 -0.018241698 -0.010907809 7.071068e-011 7.071068e-011 7.071068e-011 7.071068e-011
7398000000 0.0053802375 0.072003894 0.016567556 -0.013000621 7.071068e-011 7.071068e-011 7.071068e-011 7.071068e-011
7406400000 0.033084322 0.014962038 0.0063518737 0.020214615 7.071068e-011 7.071068e-011 7.071068e-011 7.071068e-011
7414800000 -0.038039677 0.027168481 -0.021334821 -0.0010532979 7.071068e-011 7.071068e-011 7.071068e-011 7.071068e-011
7423200000 -0.0017630544 0.10364722 0.0083835553 -0.019574981 7.071068e-011 7.071068e-011 7.071068e-011 7.071068e-011
7431600000 0.055593122 0.060634196 0.015247313 0.014939904 7.071068e-011 7.071068e-011 7.071068e-011 7.071068e-011
7440000000 0.013326884 0.038407721 -0.019343287 0.0092354994 7.071068e-011 7.071068e-011 7.071068e-011 7.071068e-011
7448400000 0.024100797 0.085548013 -0.0017281852 -0.021131463 7.071068e-011 7.071068e-011 7.071068e-011 7.071068e-011
7456800000 0.077409782 0.05543188 0.020408811 0.0059599439 7.071068e-011 7.071068e-011 7.071068e-011 7.071068e-011
7465200000 0.046195596 0.013903506 -0.012778293 0.017064733 7.071068e-011 7.071068e-011 7.071068e-011 7.071068e-011
7473600000 0.028500654 0.036908362 -0.011405553 -0.017812153 7.071068e-011 7.071068e-011 7.071068e-011 7.071068e-011
7482000000 0.05836406 0.033299699 0.020653466 -0.0040742382 7.071068e-011 7.071068e-011 7.071068e-011 7.071068e-011
7490400000 0.04364638 -0.010867179 -0.0035454254 0.02082927 7.071068e-011 7.071068e-011 7.071068e-011 7.071068e-011
7498800000 -0.00076799648 -0.0015187076 -0.018037481 -0.010654347 7.071068e-011 7.071068e-011 7.071068e-011 7.071068e-011
7507200000 0.00049659348 0.030896459 0.016390556 -0.013039537 7.071068e-011 7.071068e-011 7.071068e-011 7.071068e-011
7515600000 0.02062265 0.015435268 0.0062967208 0.019854704 7.071068e-011 7.071068e-011 7.071068e-011 7.071068e-011
7524000000 -0.020972427 0.0030891676 -0.020666245 -0.0012898098 7.071068e-011 7.071068e-011 7.071068e-011 7.071068e-011
7532400000 -0.034221061 0.060055017 0.0087486124 -0.018706536 7.071068e-011 7.071068e-011 7.071068e-011 7.071068e-011
7540800000 0.022749471 0.073314667 0.014375295 0.014743784 7.071068e-011 7.071068e-011 7.071068e-011 7.071068e-011
7549200000 0.019532513 0.022326401 -0.018583905 0.0077531906 7.071068e-011 7.071068e-011 7.071068e-011 7.071068e-011
7557600000 -0.018440807 0.061015368 -0.0003403583 -0.020248963 7.071068e-011 7.071068e-011 7.071068e-011 7.071068e-011
7566000000 0.047838505 0.083597451 0.018833363 0.0069823992 7.071068e-011 7.071068e-011 7.071068e-011 7.071068e-011
7574400000 0.060958952 0.0079018241 -0.013532212 0.014828186 7.071068e-011 7.071068e-011 7.071068e-011 7.071068e-011
7582800000 -0.0098901633 0.015305767 -0.0088441847 -0.018025959 7.071068e-011 7.071068e-011 7.071068e-011 7.071068e-011
7591200000 0.036581159 0.064404666 0.019762084 -0.0017504746 7.071068e-011 7.071068e-011 7.071068e-011 7.071068e-011
7599600000 0.059258755 -0.015038478 -0.0057473592 0.018662713 7.071068e-011 7.071068e-011 7.071068e-011 7.071068e-011
7608000000 -0.030994508 -0.020611161 -0.01544501 -0.012667345 7.071068e-011 7.071068e-011 7.071068e-011 7.071068e-011
7616400000 -0.015005558 0.056753382 0.017219527 -0.0099937869 7.071068e-011 7.071068e-011 7.071068e-011 7.071068e-011
7624800000 0.031495605 0.0050934055 0.0026673446 0.01955832 7.071068e-011 7.071068e-011 7.071068e-011 7.071068e-011
7633200000 -0.052652311 -0.0062401504 -0.019121094 -0.0047055846 7.071068e-011 7.071068e-011 7.071068e-011 7.071068e-011
7641600000 -0.038353749 0.08680144 0.011437914 -0.015857713 7.071068e-011 7.071068e-011 7.071068e-011 7.071068e-011
7650000000 0.037733164 0.053190559 0.010452267 0.016614823 7.071068e-011 7.071068e-011 7.071068e-011 7.071068e-011
7658400000 -0.020854747 0.011648365 -0.019541843 0.003723925 7.071068e-011 7.071068e-011 7.071068e-011 7.071068e-011
7666800000 -0.022873016 0.095801599 0.0035071466 -0.019259483 7.071068e-011 7.071068e-011 7.071068e-011 7.071068e-011
7675200000 0.069621146 0.071723446 0.016131012 0.010794218 7.071068e-011 7.071068e-011 7.071068e-011 7.071068e-011
7683600000 0.031996086 -0.0041159401 -0.016296677 0.011234209 7.071068e-011 7.071068e-011 7.071068e-011 7.071068e-011
7692000000 -0.0052632987 0.046920851 -0.0045300252 -0.019152269 7.071068e-011 7.071068e-011 7.071068e-011 7.071068e-011
7700400000 0.065737106 0.04383814 0.019441372 0.0028646314 7.071068e-011 7.071068e-011 7.071068e-011 7.071068e-011
7708800000 0.035686973 -0.039727446 -0.01002437 0.016925426 7.071068e-011 7.071068e-011 7.071068e-011 7.071068e-011
7717200000 -0.033666767 0.00067594153 -0.011991447 -0.015658297 7.071068e-011 7.071068e-011 7.071068e-011 7.071068e-011
7725600000 0.016821513 0.033840358 0.019004015 -0.0050707776 7.071068e-011 7.071068e-011 7.071068e-011 7.071068e-011
7734000000 0.014099272 -0.035609167 -0.002188388 0.019750994 7.071068e-011 7.071068e-011 7.071068e-011 7.071068e-011
7742400000 -0.070742927 -0.012330988 -0.017278625 -0.0092009241 7.071068e-011 7.071068e-011 7.071068e-011 7.071068e-011
7750800000 -0.040632065 0.062448673 0.015239006 -0.012525406 7.071068e-011 7.071068e-011 7.071068e-011 7.071068e-011
7759200000 0.0015422791 0.025305586 0.0059939907 0.018898614 7.071068e-011 7.071068e-011 7.071068e-011 7.071068e-011
7767600000 -0.05334321 0.019467529 -0.019777099 -0.0015142672 7.071068e-011 7.071068e-011 7.071068e-011 7.071068e-011
7776000000 -0.037811894 0.090952672 0.0087842094 -0.017609188 7.071068e-011 7.071068e-011 7.071068e-011 7.071068e-011
7784400000 0.031458504 0.068095841 0.013085813 0.014790344 7.071068e-011 7.071068e-011 7.071068e-011 7.071068e-011
7792800000 0.0012823803 0.024779368 -0.018490085 0.0064955233 7.071068e-011 7.071068e-011 7.071068e-011 7.071068e-011
7801200000 -0.0076566557 0.070208117 0.001142309 -0.019842211 7.071068e-011 7.071068e-011 7.071068e-011 7.071068e-011
7809600000 0.053110275 0.058499061 0.018035473 0.0082475776 7.071068e-011 7.071068e-011 7.071068e-011 7.071068e-011
7818000000 0.035353955 -0.0043162918 -0.014446201 0.013300753 7.071068e-011 7.071068e-011 7.071068e-011 7.071068e-011
7826400000 -0.005578998 0.020811906 -0.0069600511 -0.018474216 7.071068e-011 7.071068e-011 7.071068e-011 7.071068e-011
7834800000 0.032536883 0.031616043 0.019719785 0.00048429915 7.071068e-011 7.071068e-011 7.071068e-011 7.071068e-011
7843200000 0.025301024 -0.01968094 -0.0078981603 0.018136706 7.071068e-011 7.071068e-011 7.071068e-011 7.071068e-011
7851600000 -0.026806632 -0.0046476135 -0.01382705 -0.014222669 7.071068e-011 7.071068e-011 7.071068e-011 7.071068e-011
7860000000 -0.0041456423 0.030767648 0.018284401 -0.0075341454 7.071068e-011 7.071068e-011 7.071068e-011 7.071068e-011
7868400000 0.010387258 -0.0034930247 -0.00010310352 0.019716717 7.071068e-011 7.071068e-011 7.071068e-011 7.071068e-011
7876800000 -0.036191065 -0.0038225991 -0.018463897 -0.0075150477 7.071068e-011 7.071068e-011 7.071068e-011 7.071068e-011
7885200000 -0.03058986 0.043446217 0.013695423 -0.014303328 7.071068e-011 7.071068e-011 7.071068e-011 7.071068e-011
7893600000 0.008836166 0.036200583 0.0079523399 0.017882448 7.071068e-011 7.071068e-011 7.071068e-011 7.071068e-011
7902000000 -0.0082637873 0.009283198 -0.019654468 0.00035510352 7.071068e-011 7.071068e-011 7.071068e-011 7.071068e-011
7910400000 -0.021403462 0.039065376 0.0069684405 -0.018499276 7.071068e-011 7.071068e-011 7.071068e-011 7.071068e-011
7918800000 0.017088627 0.049011886 0.0143177 0.013248953 7.071068e-011 7.071068e-011 7.071068e-011 7.071068e-011
7927200000 0.028583102 0.0074087461 -0.017672364 0.0081408825 7.071068e-011 7.071068e-011 7.071068e-011 7.071068e-011
7935600000 -0.0079793027 0.0057907924 -0.00079970364 -0.019323234 7.071068e-011 7.071068e-011 7.071068e-011 7.071068e-011
7944000000 0.010910025 0.033194561 0.018127864 0.0067137452 7.071068e-011 7.071068e-011 7.071068e-011 7.071068e-011
7952400000 0.037544746 -0.0055729118 -0.013135026 0.014186755 7.071068e-011 7.071068e-011 7.071068e-011 7.071068e-011
7960800000 -0.015016693 -0.033405982 -0.0082285814 -0.01747315 7.071068e-011 7.071068e-011 7.071068e-011 7.071068e-011
7969200000 -0.029243641 0.02081647 0.01899909 -0.00086516747 7.071068e-011 7.071068e-011 7.071068e-011 7.071068e-011
7977600000 0.020017177 0.0068628844 -0.0065825759 0.017875139 7.071068e-011 7.071068e-011 7.071068e-011 7.071068e-011
7986000000 -0.024190724 -0.039751254 -0.014044709 -0.012860372 7.071068e-011 7.071068e-011 7.071068e-011 7.071068e-011
7994400000 -0.065375373 0.02474856 0.01715756 -0.0080932593 7.071068e-011 7.071068e-011 7.071068e-011 7.071068e-011
