!Keysight Technologies,N5235B,MY61252044,A.15.00.15
!Date: Friday, January 20, 2023 18:31:22
!Correction: S11(Off) 
!S21(Off) 
!S12(Off) 
!S22(Off) 
!S2P File: Measurements: S11, S21, S12, S22:
# Hz S  RI   R 50
6600000000 0.016571267 -0.1742456 0.014917934 -0.0052204104 7.071068e-011 7.071068e-011 7.071068e-011 7.071068e-011
6608400000 -0.12323117 0.16693126 0.0067824484 0.010013816 7.071068e-011 7.071068e-011 7.071068e-011 7.071068e-011
6616800000 0.30702278 0.091163963 -0.0083355587 0.0048774863 7.071068e-011 7.071068e-011 7.071068e-011 7.071068e-011
6625200000 0.023108546 -0.27296144 -0.0029941923 -0.0089966804 7.071068e-011 7.071068e-011 7.071068e-011 7.071068e-011
6633600000 -0.16551383 0.16199031 0.0092108948 -0.0015897939 7.071068e-011 7.071068e-011 7.071068e-011 7.071068e-011
6642000000 0.29058599 0.11349284 -0.00067862705 0.0094578061 7.071068e-011 7.071068e-011 7.071068e-011 7.071068e-011
6650400000 0.039211109 -0.25279516 -0.011121161 -0.0027935798 7.071068e-011 7.071068e-011 7.071068e-011 7.071068e-011
6658800000 -0.14898929 0.13385183 0.0046079829 -0.012106413 7.071068e-011 7.071068e-011 7.071068e-011 7.071068e-011
6667200000 0.22829418 0.10318672 0.013093399 0.0077328477 7.071068e-011 7.071068e-011 7.071068e-011 7.071068e-011
6675600000 0.044147521 -0.15281144 -0.010040464 0.014898525 7.071068e-011 7.071068e-011 7.071068e-011 7.071068e-011
6684000000 -0.045368783 0.0843677 -0.015863344 -0.011859208 7.071068e-011 7.071068e-011 7.071068e-011 7.071068e-011
6692400000 0.1056356 0.048473705 0.013287381 -0.016280735 7.071068e-011 7.071068e-011 7.071068e-011 7.071068e-011
6700800000 0.086028211 0.017024178 0.016078861 0.014003039 7.071068e-011 7.071068e-011 7.071068e-011 7.071068e-011
6709200000 0.077717923 -0.039970305 -0.014425506 0.014434167 7.071068e-011 7.071068e-011 7.071068e-011 7.071068e-011
6717600000 -0.031242548 0.031985987 -0.0115308 -0.01561832 7.071068e-011 7.071068e-011 7.071068e-011 7.071068e-011
6726000000 0.15309265 0.11774434 0.016185839 -0.0084257685 7.071068e-011 7.071068e-011 7.071068e-011 7.071068e-011
6734400000 0.13149726 -0.1386628 0.0048063807 0.015934903 7.071068e-011 7.071068e-011 7.071068e-011 7.071068e-011
6742800000 -0.1080445 0.022135017 -0.015927622 0.00090284547 7.071068e-011 7.071068e-011 7.071068e-011 7.071068e-011
6751200000 0.16762504 0.15553914 0.0025633245 -0.01562268 7.071068e-011 7.071068e-011 7.071068e-011 7.071068e-011
6759600000 0.15556599 -0.16893004 0.013638576 0.00621336 7.071068e-011 7.071068e-011 7.071068e-011 7.071068e-011
6768000000 -0.14686127 -0.011623272 -0.010203882 0.01105653 7.071068e-011 7.071068e-011 7.071068e-011 7.071068e-011
6776400000 0.12892278 0.18177159 -0.0087526552 -0.013010821 7.071068e-011 7.071068e-011 7.071068e-011 7.071068e-011
6784800000 0.15643966 -0.1423382 0.01431203 -0.0047996505 7.071068e-011 7.071068e-011 7.071068e-011 7.071068e-011
6793200000 -0.14663978 -0.01423745 0.00041813738 0.015507258 7.071068e-011 7.071068e-011 7.071068e-011 7.071068e-011
6801600000 0.095211424 0.205642 -0.015915781 -0.003616693 7.071068e-011 7.071068e-011 7.071068e-011 7.071068e-011
6810000000 0.17696345 -0.090544507 0.0081123225 -0.014789413 7.071068e-011 7.071068e-011 7.071068e-011 7.071068e-011
6818400000 -0.10305139 -0.017573871 0.012570321 0.01277345 7.071068e-011 7.071068e-011 7.071068e-011 7.071068e-011
6826800000 0.080610998 0.18789412 -0.015650567 0.009677141 7.071068e-011 7.071068e-011 7.071068e-011 7.071068e-011
6835200000 0.18555933 -0.044540606 -0.0049681822 -0.017758913 7.071068e-011 7.071068e-011 7.071068e-011 7.071068e-011
6843600000 -0.042662729 -0.033076789 0.020184947 -0.00019154315 7.071068e-011 7.071068e-011 7.071068e-011 7.071068e-011
6852000000 0.068642437 0.13014279 -0.0042174365 0.020399291 7.071068e-011 7.071068e-011 7.071068e-011 7.071068e-011
6860400000 0.14840756 -0.016669484 -0.01872321 -0.0093499487 7.071068e-011 7.071068e-011 7.071068e-011 7.071068e-011
6868800000 0.0059536933 -0.030141778 0.014378587 -0.016208254 7.071068e-011 7.071068e-011 7.071068e-011 7.071068e-011
6877200000 0.050825816 0.072556905 0.012778439 0.018061541 7.071068e-011 7.071068e-011 7.071068e-011 7.071068e-011
6885600000 0.091962002 0.008694198 -0.020457264 0.0077579934 7.071068e-011 7.071068e-011 7.071068e-011 7.071068e-011
6894000000 0.047648866 -0.0018341214 -0.0022428934 -0.02205158 7.071068e-011 7.071068e-011 7.071068e-011 7.071068e-011
6902400000 0.038338456 0.019285994 0.021990331 0.0034278242 7.071068e-011 7.071068e-011 7.071068e-011 7.071068e-011
6910800000 0.030963149 0.036205593 -0.0090281507 0.020142956 7.071068e-011 7.071068e-011 7.071068e-011 7.071068e-011
6919200000 0.07656689 0.051443141 -0.016766561 -0.013881669 7.071068e-011 7.071068e-011 7.071068e-011 7.071068e-011
6927600000 0.053564157 -0.011690666 0.017524477 -0.012472894 7.071068e-011 7.071068e-011 7.071068e-011 7.071068e-011
6936000000 -0.0030834489 0.057792723 0.0068598161 0.019701974 7.071068e-011 7.071068e-011 7.071068e-011 7.071068e-011
6944400000 0.1081146 0.09312842 -0.020891251 0.00057441142 7.071068e-011 7.071068e-011 7.071068e-011 7.071068e-011
6952800000 0.09001828 -0.043386318 0.0051145414 -0.019886628 7.071068e-011 7.071068e-011 7.071068e-011 7.071068e-011
6961200000 -0.029069936 0.047700532 0.017010149 0.010565844 7.071068e-011 7.071068e-011 7.071068e-011 7.071068e-011
6969600000 0.118104 0.1105241 -0.015074606 0.012993036 7.071068e-011 7.071068e-011 7.071068e-011 7.071068e-011
6978000000 0.10980096 -0.066745713 -0.0076806657 -0.017748088 7.071068e-011 7.071068e-011 7.071068e-011 7.071068e-011
6986400000 -0.063911699 0.023446912 0.018835319 -0.001456661 7.071068e-011 7.071068e-011 7.071068e-011 7.071068e-011
6994800000 0.094596796 0.13777335 -0.0045495164 0.018750312 7.071068e-011 7.071068e-011 7.071068e-011 7.071068e-011
7003200000 0.11708999 -0.051847614 -0.016154477 -0.0098495567 7.071068e-011 7.071068e-011 7.071068e-011 7.071068e-011
7011600000 -0.071407937 0.021495163 0.014804609 -0.011624789 7.071068e-011 7.071068e-011 7.071068e-011 7.071068e-011
7020000000 0.078208409 0.16478141 0.0066999048 0.017796677 7.071068e-011 7.071068e-011 7.071068e-011 7.071068e-011
7028400000 0.13961375 -0.021677921 -0.018637041 0.00062971801 7.071068e-011 7.071068e-011 7.071068e-011 7.071068e-011
7036800000 -0.050989639 0.019878199 0.0057512545 -0.018298296 7.071068e-011 7.071068e-011 7.071068e-011 7.071068e-011
7045200000 0.079006769 0.17307374 0.015706772 0.011038695 7.071068e-011 7.071068e-011 7.071068e-011 7.071068e-011
7053600000 0.17288563 0.0057962271 -0.015578705 0.010869589 7.071068e-011 7.071068e-011 7.071068e-011 7.071068e-011
7062000000 -0.0028770105 -0.012526589 -0.0052446336 -0.018985588 7.071068e-011 7.071068e-011 7.071068e-011 7.071068e-011
7070400000 0.0684589 0.14027214 0.019855114 0.00054734695 7.071068e-011 7.071068e-011 7.071068e-011 7.071068e-011
7078800000 0.17132963 0.015937556 -0.0071970499 0.018202933 7.071068e-011 7.071068e-011 7.071068e-011 7.071068e-011
7087200000 0.038655307 -0.032342281 -0.015457069 -0.013051159 7.071068e-011 7.071068e-011 7.071068e-011 7.071068e-011
7095600000 0.052175157 0.087421492 0.017173737 -0.010859298 7.071068e-011 7.071068e-011 7.071068e-011 7.071068e-011
7104000000 0.14885116 0.017316658 0.0045313737 0.019755293 7.071068e-011 7.071068e-011 7.071068e-011 7.071068e-011
7112400000 0.056642216 -0.046477295 -0.02048862 -0.0023460772 7.071068e-011 7.071068e-011 7.071068e-011 7.071068e-011
7120800000 0.030989578 0.028465085 0.008525826 -0.019017939 7.071068e-011 7.071068e-011 7.071068e-011 7.071068e-011
7129200000 0.089086473 0.018808518 0.014977353 0.013923535 7.071068e-011 7.071068e-011 7.071068e-011 7.071068e-011
7137600000 0.047410663 -0.037994169 -0.018513447 0.0095589887 7.071068e-011 7.071068e-011 7.071068e-011 7.071068e-011
7146000000 -0.00013973002 0.0096964398 -0.0033152681 -0.020744754 7.071068e-011 7.071068e-011 7.071068e-011 7.071068e-011
7154400000 0.028173927 0.041928347 0.020534769 0.0035125476 7.071068e-011 7.071068e-011 7.071068e-011 7.071068e-011
7162800000 0.046276178 0.017063204 -0.010107985 0.01791798 7.071068e-011 7.071068e-011 7.071068e-011 7.071068e-011
7171200000 0.0033116415 0.017894393 -0.013774994 -0.015550216 7.071068e-011 7.071068e-011 7.071068e-011 7.071068e-011
7179600000 0.01486607 0.070202045 0.018975032 -0.0078970036 7.071068e-011 7.071068e-011 7.071068e-011 7.071068e-011
7188000000 0.066380903 0.059777617 0.0008806964 0.020818055 7.071068e-011 7.071068e-011 7.071068e-011 7.071068e-011
7196400000 0.043794878 0.010302229 -0.019995676 -0.0058078682 7.071068e-011 7.071068e-011 7.071068e-011 7.071068e-011
7204800000 0.010110244 0.062612362 0.01215121 -0.01633477 7.071068e-011 7.071068e-011 7.071068e-011 7.071068e-011
7213200000 0.079111017 0.071505949 0.011326441 0.017176189 7.071068e-011 7.071068e-011 7.071068e-011 7.071068e-011
7221600000 0.071720868 -0.0027221006 -0.020119552 0.005102416 7.071068e-011 7.071068e-011 7.071068e-011 7.071068e-011
7230000000 -0.00081625575 0.028803267 0.0019248663 -0.020515591 7.071068e-011 7.071068e-011 7.071068e-011 7.071068e-011
7238400000 0.065024912 0.078635901 0.018665725 0.0091450233 7.071068e-011 7.071068e-011 7.071068e-011 7.071068e-011
7246800000 0.080995999 -0.0095248204 -0.014819575 0.014654223 7.071068e-011 7.071068e-011 7.071068e-011 7.071068e-011
7255200000 -0.012973134 0.00019975641 -0.0084352391 -0.018775942 7.071068e-011 7.071068e-011 7.071068e-011 7.071068e-011
7263600000 0.027013447 0.084010705 0.02077332 -0.0016485443 7.071068e-011 7.071068e-011 7.071068e-011 7.071068e-011
7272000000 0.078625247 0.0079338336 -0.0052530253 0.019971019 7.071068e-011 7.071068e-011 7.071068e-011 7.071068e-011
7280400000 -0.023667583 -0.0062319967 -0.016856315 -0.01186347 7.071068e-011 7.071068e-011 7.071068e-011 7.071068e-011
7288800000 -0.008793382 0.10329278 0.017245019 -0.011485411 7.071068e-011 7.071068e-011 7.071068e-011 7.071068e-011
7297200000 0.084920965 0.059640672 0.0049115364 0.020198354 7.071068e-011 7.071068e-011 7.071068e-011 7.071068e-011
7305600000 0.0085345004 0.0045399969 -0.020468321 -0.0025181442 7.071068e-011 7.071068e-011 7.071068e-011 7.071068e-011
7314000000 -0.003837012 0.10630209 0.0094380602 -0.018797884 7.071068e-011 7.071068e-011 7.071068e-011 7.071068e-011
7322400000 0.1087043 0.085505158 0.014263938 0.01502227 7.071068e-011 7.071068e-011 7.071068e-011 7.071068e-011
7330800000 0.060298987 -0.011673856 -0.019406978 0.0077242963 7.071068e-011 7.071068e-011 7.071068e-011 7.071068e-011
7339200000 0.0040405039 0.060821053 -0.00068451953 -0.021250099 7.071068e-011 7.071068e-011 7.071068e-011 7.071068e-011
7347600000 0.099284753 0.072161265 0.020018417 0.0064740581 7.071068e-011 7.071068e-011 7.071068e-011 7.071068e-011
7356000000 0.075949982 -0.033737954 -0.013114641 0.01623854 7.071068e-011 7.071068e-011 7.071068e-011 7.071068e-011
7364400000 -0.010161738 0.012577352 -0.010857422 -0.018186627 7.071068e-011 7.071068e-011 7.071068e-011 7.071068e-011
7372800000 0.054806627 0.054642238 0.020578392 -0.0039552688 7.071068e-011 7.071068e-011 7.071068e-011 7.071068e-011
7381200000 0.052852549 -0.030925663 -0.0039550434 0.02076724 7.071068e-011 7.071068e-011 7.071068e-011 7.071068e-011
7389600000 -0.040837985 0.00061903894 -0.018254368 -0.010878862 7.071068e-011 7.071068e-011 7.071068e-011 7.071068e-011
7398000000 0.0055025327 0.071987443 0.016548743 -0.013026975 7.071068e-011 7.071068e-011 7.071068e-011 7.071068e-011
7406400000 0.033045433 0.014856188 0.0063823853 0.020205325 7.071068e-011 7.071068e-011 7.071068e-011 7.071068e-011
7414800000 -0.038133338 0.0272469 -0.021340953 -0.0010268338 7.071068e-011 7.071068e-011 7.071068e-011 7.071068e-011
7423200000 -0.0016418578 0.10370092 0.0083469851 -0.019581085 7.071068e-011 7.071068e-011 7.071068e-011 7.071068e-011
7431600000 0.055596113 0.060497303 0.015277444 0.014910089 7.071068e-011 7.071068e-011 7.071068e-011 7.071068e-011
7440000000 0.013209566 0.038478866 -0.019327661 0.0092681041 7.071068e-011 7.071068e-011 7.071068e-011 7.071068e-011
7448400000 0.024199015 0.085597098 -0.00175674 -0.021127116 7.071068e-011 7.071068e-011 7.071068e-011 7.071068e-011
7456800000 0.077413902 0.055365179 0.020410584 0.0059290798 7.071068e-011 7.071068e-011 7.071068e-011 7.071068e-011
7465200000 0.046122774 0.013920527 -0.012748277 0.017081812 7.071068e-011 7.071068e-011 7.071068e-011 7.071068e-011
7473600000 0.028520212 0.036975011 -0.011438756 -0.017782357 7.071068e-011 7.071068e-011 7.071068e-011 7.071068e-011
7482000000 0.058448453 0.03328428 0.020645678 -0.0040983693 7.071068e-011 7.071068e-011 7.071068e-011 7.071068e-011
7490400000 0.043588035 -0.010940463 -0.0035089541 0.020823233 7.071068e-011 7.071068e-011 7.071068e-011 7.071068e-011
7498800000 -0.00079742441 -0.0014136585 -0.018052481 -0.010621357 7.071068e-011 7.071068e-011 7.071068e-011 7.071068e-011
7507200000 0.00059009384 0.030880673 0.016357049 -0.013065358 7.071068e-011 7.071068e-011 7.071068e-011 7.071068e-011
7515600000 0.020604162 0.015371723 0.0063391393 0.01984038 7.071068e-011 7.071068e-011 7.071068e-011 7.071068e-011
7524000000 -0.021036742 0.00311502 -0.020662559 -0.0012674425 7.071068e-011 7.071068e-011 7.071068e-011 7.071068e-011
7532400000 -0.034175228 0.0601082 0.0087204101 -0.018714366 7.071068e-011 7.071068e-011 7.071068e-011 7.071068e-011
7540800000 0.022842761 0.073233008 0.014403317 0.014711577 7.071068e-011 7.071068e-011 7.071068e-011 7.071068e-011
7549200000 0.019408239 0.022272645 -0.018565558 0.0077877506 7.071068e-011 7.071068e-011 7.071068e-011 7.071068e-011
7557600000 -0.018408149 0.061139476 -0.00036938963 -0.020249849 7.071068e-011 7.071068e-011 7.071068e-011 7.071068e-011
7566000000 0.047952384 0.083512835 0.018847637 0.0069446205 7.071068e-011 7.071068e-011 7.071068e-011 7.071068e-011
7574400000 0.060842227 0.0078436853 -0.013507354 0.014860284 7.071068e-011 7.071068e-011 7.071068e-011 7.071068e-011
7582800000 -0.0099004088 0.015424066 -0.0088875294 -0.01801068 7.071068e-011 7.071068e-011 7.071068e-011 7.071068e-011
7591200000 0.03671141 0.064400248 0.019754127 -0.0017786846 7.071068e-011 7.071068e-011 7.071068e-011 7.071068e-011
7599600000 0.059217036 -0.015151272 -0.0057241665 0.018663373 7.071068e-011 7.071068e-011 7.071068e-011 7.071068e-011
7608000000 -0.03109281 -0.020511512 -0.015473527 -0.012628385 7.071068e-011 7.071068e-011 7.071068e-011 7.071068e-011
7616400000 -0.014829707 0.056823988 0.017197186 -0.01002987 7.071068e-011 7.071068e-011 7.071068e-011 7.071068e-011
7624800000 0.031468943 0.0049144421 0.0026893485 0.019550996 7.071068e-011 7.071068e-011 7.071068e-011 7.071068e-011
7633200000 -0.052765537 -0.0061098877 -0.019117935 -0.0046766005 7.071068e-011 7.071068e-011 7.071068e-011 7.071068e-011
7641600000 -0.038200196 0.086853243 0.011404028 -0.015866563 7.071068e-011 7.071068e-011 7.071068e-011 7.071068e-011
7650000000 0.037728056 0.053065281 0.010489156 0.016586969 7.071068e-011 7.071068e-011 7.071068e-011 7.071068e-011
7658400000 -0.020974997 0.011697819 -0.019528642 0.0037562035 7.071068e-011 7.071068e-011 7.071068e-011 7.071068e-011
7666800000 -0.022789458 0.095922731 0.0034677614 -0.019262396 7.071068e-011 7.071068e-011 7.071068e-011 7.071068e-011
7675200000 0.069706231 0.071600147 0.016147593 0.010764933 7.071068e-011 7.071068e-011 7.071068e-011 7.071068e-011
7683600000 0.03182584 -0.004140547 -0.016262708 0.011260607 7.071068e-011 7.071068e-011 7.071068e-011 7.071068e-011
7692000000 -0.0052228719 0.047085959 -0.0045641549 -0.019141182 7.071068e-011 7.071068e-011 7.071068e-011 7.071068e-011
7700400000 0.065846741 0.043714792 0.019450132 0.0028289075 7.071068e-011 7.071068e-011 7.071068e-011 7.071068e-011
7708800000 0.035548475 -0.039749689 -0.0099994773 0.016933234 7.071068e-011 7.071068e-011 7.071068e-011 7.071068e-011
7717200000 -0.033642463 0.00082345615 -0.012021935 -0.015642487 7.071068e-011 7.071068e-011 7.071068e-011 7.071068e-011
7725600000 0.016942505 0.033796694 0.01899169 -0.0051105232 7.071068e-011 7.071068e-011 7.071068e-011 7.071068e-011
7734000000 0.014033758 -0.035724144 -0.00214755 0.01975261 7.071068e-011 7.071068e-011 7.071068e-011 7.071068e-011
7742400000 -0.070830859 -0.012196302 -0.017295005 -0.0091719925 7.071068e-011 7.071068e-011 7.071068e-011 7.071068e-011
7750800000 -0.040465593 0.062492996 0.015218528 -0.012548275 7.071068e-011 7.071068e-011 7.071068e-011 7.071068e-011
7759200000 0.0015178311 0.025151981 0.0060294643 0.018888554 7.071068e-011 7.071068e-011 7.071068e-011 7.071068e-011
7767600000 -0.053447876 0.019569557 -0.019770363 -0.0014794793 7.071068e-011 7.071068e-011 7.071068e-011 7.071068e-011
7776000000 -0.037691817 0.090993583 0.0087537365 -0.017614892 7.071068e-011 7.071068e-011 7.071068e-011 7.071068e-011
7784400000 0.031467397 0.067991041 0.013102897 0.014766769 7.071068e-011 7.071068e-011 7.071068e-011 7.071068e-011
7792800000 0.0012023952 0.024789406 -0.018462207 0.0065377387 7.071068e-011 7.071068e-011 7.071068e-011 7.071068e-011
7801200000 -0.0076267901 0.070311055 0.0010971515 -0.019848553 7.071068e-011 7.071068e-011 7.071068e-011 7.071068e-011
7809600000 0.053197753 0.058425296 0.018046161 0.0082181934 7.071068e-011 7.071068e-011 7.071068e-011 7.071068e-011
7818000000 0.035236798 -0.0043558716 -0.014413208 0.013321757 7.071068e-011 7.071068e-011 7.071068e-011 7.071068e-011
7826400000 -0.0055466341 0.020952562 -0.0069876118 -0.018449023 7.071068e-011 7.071068e-011 7.071068e-011 7.071068e-011
7834800000 0.032643076 0.031554908 0.019719284 0.00044564428 7.071068e-011 7.071068e-011 7.071068e-011 7.071068e-011
7843200000 0.025225719 -0.01971625 -0.0078556668 0.018159498 7.071068e-011 7.071068e-011 7.071068e-011 7.071068e-011
7851600000 -0.026807893 -0.0045542154 -0.013858091 -0.014189442 7.071068e-011 7.071068e-011 7.071068e-011 7.071068e-011
7860000000 -0.0040788022 0.030782264 0.018267581 -0.0075685275 7.071068e-011 7.071068e-011 7.071068e-011 7.071068e-011
7868400000 0.010380001 -0.0035749932 -6.2584921e-005 0.019717427 7.071068e-011 7.071068e-011 7.071068e-011 7.071068e-011
7876800000 -0.036292974 -0.0037772583 -0.018470541 -0.0074754115 7.071068e-011 7.071068e-011 7.071068e-011 7.071068e-011
7885200000 -0.030498108 0.04352314 0.013664735 -0.014333766 7.071068e-011 7.071068e-011 7.071068e-011 7.071068e-011
7893600000 0.0088647641 0.036101896 0.0079831323 0.017854754 7.071068e-011 7.071068e-011 7.071068e-011 7.071068e-011
7902000000 -0.008365402 0.009313507 -0.019648332 0.00038847962 7.071068e-011 7.071068e-011 7.071068e-011 7.071068e-011
7910400000 -0.021376736 0.039114643 0.0069322274 -0.018499842 7.071068e-011 7.071068e-011 7.071068e-011 7.071068e-011
7918800000 0.017137693 0.048980813 0.01433865 0.013206565 7.071068e-011 7.071068e-011 7.071068e-011 7.071068e-011
7927200000 0.02854811 0.0073654209 -0.017655201 0.0081773913 7.071068e-011 7.071068e-011 7.071068e-011 7.071068e-011
7935600000 -0.0080441646 0.0058676903 -0.00084102084 -0.019320859 7.071068e-011 7.071068e-011 7.071068e-011 7.071068e-011
7944000000 0.011035501 0.033227503 0.018144876 0.0066857245 7.071068e-011 7.071068e-011 7.071068e-011 7.071068e-011
7952400000 0.03751184 -0.0056778961 -0.013116126 0.014213157 7.071068e-011 7.071068e-011 7.071068e-011 7.071068e-011
7960800000 -0.015101816 -0.033325098 -0.0082656452 -0.017457128 7.071068e-011 7.071068e-011 7.071068e-011 7.071068e-011
7969200000 -0.029136417 0.020873241 0.019003483 -0.00089402159 7.071068e-011 7.071068e-011 7.071068e-011 7.071068e-011
7977600000 0.020042041 0.0067643281 -0.0065481695 0.017888177 7.071068e-011 7.071068e-011 7.071068e-011 7.071068e-011
7986000000 -0.024291085 -0.039738767 -0.014068416 -0.012832066 7.071068e-011 7.071068e-011 7.071068e-011 7.071068e-011
7994400000 -0.065345876 0.0248772 0.017135495 -0.0081268512 7.071068e-011 7.071068e-011 7.071068e-011 7.071068e-011
