!Keysight Technologies,N5235B,MY61252044,A.15.00.15
!Date: Friday, January 20, 2023 20:09:39
!Correction: S11(Off) 
!S21(Off) 
!S12(Off) 
!S22(Off) 
!S2P File: Measurements: S11, S21, S12, S22:
# Hz S  RI   R 50
6600000000 0.016873181 -0.17461692 0.014881664 -0.0052440483 7.071068e-011 7.071068e-011 7.071068e-011 7.071068e-011
6601680336.0672 -0.060552534 -0.15826851 0.0033335111 -0.014796606 7.071068e-011 7.071068e-011 7.071068e-011 7.071068e-011
6603360672.1344 -0.12844341 -0.10440919 -0.010298958 -0.010300805 7.071068e-011 7.071068e-011 7.071068e-011 7.071068e-011
6605041008.2016 -0.16819802 -0.020759707 -0.013520322 0.002984605 7.071068e-011 7.071068e-011 7.071068e-011 7.071068e-011
6606721344.2689 -0.16746868 0.076445043 -0.0046389531 0.012114661 7.071068e-011 7.071068e-011 7.071068e-011 7.071068e-011
6608401680.3361 -0.12353106 0.1668096 0.0067982767 0.0099905077 7.071068e-011 7.071068e-011 7.071068e-011 7.071068e-011
6610082016.4033 -0.043767575 0.23146339 0.011348774 0.00037789068 7.071068e-011 7.071068e-011 7.071068e-011 7.071068e-011
6611762352.4705 0.057085101 0.25747478 0.0067675523 -0.0084584495 7.071068e-011 7.071068e-011 7.071068e-011 7.071068e-011
6613442688.5377 0.16077676 0.23971309 -0.0026171645 -0.010109433 7.071068e-011 7.071068e-011 7.071068e-011 7.071068e-011
6615123024.6049 0.24912231 0.18110102 -0.0093162982 -0.003813022 7.071068e-011 7.071068e-011 7.071068e-011 7.071068e-011
6616803360.6721 0.30703717 0.09141399 -0.0083194403 0.0048917616 7.071068e-011 7.071068e-011 7.071068e-011 7.071068e-011
6618483696.7393 0.32471684 -0.014739584 -0.0012746003 0.0091984458 7.071068e-011 7.071068e-011 7.071068e-011 7.071068e-011
6620164032.8066 0.2986716 -0.1202237 0.0061978227 0.0066612009 7.071068e-011 7.071068e-011 7.071068e-011 7.071068e-011
6621844368.8738 0.23216672 -0.2076955 0.0091146799 -0.00060389447 7.071068e-011 7.071068e-011 7.071068e-011 7.071068e-011
6623524704.941 0.13515721 -0.26203245 0.0052657984 -0.0076908055 7.071068e-011 7.071068e-011 7.071068e-011 7.071068e-011
6625205041.0082 0.023269471 -0.27297506 -0.0030207583 -0.0089865914 7.071068e-011 7.071068e-011 7.071068e-011 7.071068e-011
6626885377.0754 -0.084523782 -0.23743357 -0.0090147946 -0.0029277243 7.071068e-011 7.071068e-011 7.071068e-011 7.071068e-011
6628565713.1426 -0.16909319 -0.16054888 -0.007676159 0.0053333058 7.071068e-011 7.071068e-011 7.071068e-011 7.071068e-011
6630246049.2098 -0.21487691 -0.055463068 -0.000542956 0.0092237582 7.071068e-011 7.071068e-011 7.071068e-011 7.071068e-011
6631926385.2771 -0.21344838 0.058926091 0.0068853251 0.0061778529 7.071068e-011 7.071068e-011 7.071068e-011 7.071068e-011
6633606721.3443 -0.16551284 0.1619381 0.0092045767 -0.0016231454 7.071068e-011 7.071068e-011 7.071068e-011 7.071068e-011
6635287057.4115 -0.080544725 0.23558812 0.0043555759 -0.0083331922 7.071068e-011 7.071068e-011 7.071068e-011 7.071068e-011
6636967393.4787 0.025663495 0.26794925 -0.0038950592 -0.0085055539 7.071068e-011 7.071068e-011 7.071068e-011 7.071068e-011
6638647729.5459 0.13442035 0.25485602 -0.008975652 -0.0022608254 7.071068e-011 7.071068e-011 7.071068e-011 7.071068e-011
6640328065.6131 0.22761473 0.19998398 -0.0074819643 0.005471176 7.071068e-011 7.071068e-011 7.071068e-011 7.071068e-011
6642008401.6803 0.29058245 0.11342727 -0.0006365967 0.0094602928 7.071068e-011 7.071068e-011 7.071068e-011 7.071068e-011
6643688737.7475 0.31382325 0.0096797226 0.00721364 0.0067788386 7.071068e-011 7.071068e-011 7.071068e-011 7.071068e-011
6645369073.8148 0.29392222 -0.094446279 0.010294347 -0.001533882 7.071068e-011 7.071068e-011 7.071068e-011 7.071068e-011
6647049409.882 0.23408213 -0.18189381 0.0052454369 -0.0094983038 7.071068e-011 7.071068e-011 7.071068e-011 7.071068e-011
6648729745.9492 0.14406511 -0.23791201 -0.004517117 -0.010225396 7.071068e-011 7.071068e-011 7.071068e-011 7.071068e-011
6650410082.0164 0.039023742 -0.25270692 -0.011139203 -0.0027304168 7.071068e-011 7.071068e-011 7.071068e-011 7.071068e-011
6652090418.0836 -0.062809534 -0.22336298 -0.0092461584 0.0073567415 7.071068e-011 7.071068e-011 7.071068e-011 7.071068e-011
6653770754.1508 -0.14317001 -0.15507099 0.00022812781 0.012209958 7.071068e-011 7.071068e-011 7.071068e-011 7.071068e-011
6655451090.218 -0.18767934 -0.060660914 0.010180172 0.0073719164 7.071068e-011 7.071068e-011 7.071068e-011 7.071068e-011
6657131426.2853 -0.18907115 0.042035628 0.01223616 -0.0037609562 7.071068e-011 7.071068e-011 7.071068e-011 7.071068e-011
6658811762.3525 -0.14869165 0.13402644 0.0045288121 -0.01214057 7.071068e-011 7.071068e-011 7.071068e-011 7.071068e-011
6660492098.4197 -0.075907469 0.19921276 -0.0068542156 -0.011239427 7.071068e-011 7.071068e-011 7.071068e-011 7.071068e-011
6662172434.4869 0.01426488 0.22758023 -0.013421944 -0.0016546953 7.071068e-011 7.071068e-011 7.071068e-011 7.071068e-011
6663852770.5541 0.10469536 0.21681292 -0.0099547692 0.0098839207 7.071068e-011 7.071068e-011 7.071068e-011 7.071068e-011
6665533106.6213 0.17985673 0.17181633 0.0018145265 0.014504893 7.071068e-011 7.071068e-011 7.071068e-011 7.071068e-011
6667213442.6885 0.22828688 0.10281947 0.013157761 0.0076382575 7.071068e-011 7.071068e-011 7.071068e-011 7.071068e-011
6668893778.7558 0.24383195 0.023046603 0.014556461 -0.0061277463 7.071068e-011 7.071068e-011 7.071068e-011 7.071068e-011
6670574114.823 0.22605874 -0.053425107 0.0039867936 -0.01587658 7.071068e-011 7.071068e-011 7.071068e-011 7.071068e-011
6672254450.8902 0.17992322 -0.11382352 -0.010722973 -0.013136521 7.071068e-011 7.071068e-011 7.071068e-011 7.071068e-011
6673934786.9574 0.11493977 -0.14849311 -0.017492473 0.00085313735 7.071068e-011 7.071068e-011 7.071068e-011 7.071068e-011
6675615123.0246 0.043817103 -0.1525567 -0.0099055776 0.014989658 7.071068e-011 7.071068e-011 7.071068e-011 7.071068e-011
6677295459.0918 -0.019926539 -0.12712543 0.0063259751 0.017209353 7.071068e-011 7.071068e-011 7.071068e-011 7.071068e-011
6678975795.159 -0.064841457 -0.079061292 0.017902523 0.0052700453 7.071068e-011 7.071068e-011 7.071068e-011 7.071068e-011
6680656131.2262 -0.083827794 -0.019357888 0.015216678 -0.011415788 7.071068e-011 7.071068e-011 7.071068e-011 7.071068e-011
6682336467.2935 -0.075538434 0.039079074 -8.582732e-005 -0.019420868 7.071068e-011 7.071068e-011 7.071068e-011 7.071068e-011
6684016803.3607 -0.044917662 0.084461443 -0.015988186 -0.011698432 7.071068e-011 7.071068e-011 7.071068e-011 7.071068e-011
6685697139.4279 -0.0016875555 0.10933593 -0.019203939 0.0060477206 7.071068e-011 7.071068e-011 7.071068e-011 7.071068e-011
6687377475.4951 0.042674642 0.11218354 -0.0065984861 0.019278733 7.071068e-011 7.071068e-011 7.071068e-011 7.071068e-011
6689057811.5623 0.078154534 0.097257555 0.011686514 0.016943581 7.071068e-011 7.071068e-011 7.071068e-011 7.071068e-011
6690738147.6295 0.099032022 0.07292942 0.020774567 0.00072799838 7.071068e-011 7.071068e-011 7.071068e-011 7.071068e-011
6692418483.6967 0.1053613 0.048258353 0.013104859 -0.016423287 7.071068e-011 7.071068e-011 7.071068e-011 7.071068e-011
6694098819.764 0.10152581 0.029500419 -0.0054716952 -0.020517899 7.071068e-011 7.071068e-011 7.071068e-011 7.071068e-011
6695779155.8312 0.093342558 0.019027285 -0.019940373 -0.0078016985 7.071068e-011 7.071068e-011 7.071068e-011 7.071068e-011
6697459491.8984 0.086185902 0.015995326 -0.01814335 0.011517066 7.071068e-011 7.071068e-011 7.071068e-011 7.071068e-011
6699139827.9656 0.083637536 0.016910952 -0.0014438318 0.021391025 7.071068e-011 7.071068e-011 7.071068e-011 7.071068e-011
6700820164.0328 0.086203493 0.017239658 0.016229626 0.013809347 7.071068e-011 7.071068e-011 7.071068e-011 7.071068e-011
6702500500.1 0.091672547 0.013641067 0.020647123 -0.0047033071 7.071068e-011 7.071068e-011 7.071068e-011 7.071068e-011
6704180836.1672 0.096809454 0.0047243317 0.0085800327 -0.01925271 7.071068e-011 7.071068e-011 7.071068e-011 7.071068e-011
6705861172.2344 0.098001704 -0.0091354055 -0.010241801 -0.018288173 7.071068e-011 7.071068e-011 7.071068e-011 7.071068e-011
6707541508.3017 0.092084661 -0.025472917 -0.020576203 -0.0026751887 7.071068e-011 7.071068e-011 7.071068e-011 7.071068e-011
6709221844.3689 0.077666342 -0.040244989 -0.014239349 0.014598927 7.071068e-011 7.071068e-011 7.071068e-011 7.071068e-011
6710902180.4361 0.05542979 -0.049191952 0.00290304 0.019768864 7.071068e-011 7.071068e-011 7.071068e-011 7.071068e-011
6712582516.5033 0.027773447 -0.04823966 0.017097386 0.0096835978 7.071068e-011 7.071068e-011 7.071068e-011 7.071068e-011
6714262852.5705 -0.00057066046 -0.034054857 0.018005028 -0.0074289334 7.071068e-011 7.071068e-011 7.071068e-011 7.071068e-011
6715943188.6377 -0.022634882 -0.006021841 0.0051617627 -0.01874168 7.071068e-011 7.071068e-011 7.071068e-011 7.071068e-011
6717623524.7049 -0.031427626 0.032408793 -0.011730332 -0.015449164 7.071068e-011 7.071068e-011 7.071068e-011 7.071068e-011
6719303860.7722 -0.022333905 0.074435368 -0.019210497 1.6652693e-005 7.071068e-011 7.071068e-011 7.071068e-011 7.071068e-011
6720984196.8394 0.0057735904 0.11146186 -0.011469236 0.014994237 7.071068e-011 7.071068e-011 7.071068e-011 7.071068e-011
6722664532.9066 0.049752273 0.13469751 0.0046801488 0.017933568 7.071068e-011 7.071068e-011 7.071068e-011 7.071068e-011
6724344868.9738 0.10228574 0.13755782 0.016786275 0.0073462953 7.071068e-011 7.071068e-011 7.071068e-011 7.071068e-011
6726025205.041 0.15370272 0.11752725 0.016053937 -0.008651251 7.071068e-011 7.071068e-011 7.071068e-011 7.071068e-011
6727705541.1082 0.19420302 0.076489933 0.0029205154 -0.017885227 7.071068e-011 7.071068e-011 7.071068e-011 7.071068e-011
6729385877.1754 0.21526434 0.020284539 -0.012226701 -0.012967411 7.071068e-011 7.071068e-011 7.071068e-011 7.071068e-011
6731066213.2426 0.21141818 -0.041693959 -0.017282572 0.0016457248 7.071068e-011 7.071068e-011 7.071068e-011 7.071068e-011
6732746549.3099 0.18190967 -0.098286629 -0.0092666121 0.014142873 7.071068e-011 7.071068e-011 7.071068e-011 7.071068e-011
6734426885.3771 0.13083979 -0.13909557 0.0050310106 0.015856057 7.071068e-011 7.071068e-011 7.071068e-011 7.071068e-011
6736107221.4443 0.066178851 -0.15619907 0.015396875 0.0060472246 7.071068e-011 7.071068e-011 7.071068e-011 7.071068e-011
6737787557.5115 -0.0012844196 -0.14535807 0.014301622 -0.0082439473 7.071068e-011 7.071068e-011 7.071068e-011 7.071068e-011
6739467893.5787 -0.059477981 -0.10722946 0.0023748185 -0.016208861 7.071068e-011 7.071068e-011 7.071068e-011 7.071068e-011
6741148229.6459 -0.097538181 -0.047745347 -0.011043792 -0.011784349 7.071068e-011 7.071068e-011 7.071068e-011 7.071068e-011
6742828565.7131 -0.10803363 0.023051007 -0.015898781 0.0011370839 7.071068e-011 7.071068e-011 7.071068e-011 7.071068e-011
6744508901.7804 -0.088276908 0.092733696 -0.0091539519 0.012972249 7.071068e-011 7.071068e-011 7.071068e-011 7.071068e-011
6746189237.8476 -0.04114769 0.14865017 0.0043457914 0.015367707 7.071068e-011 7.071068e-011 7.071068e-011 7.071068e-011
6747869573.9148 0.025187412 0.18058226 0.014861053 0.0061630704 7.071068e-011 7.071068e-011 7.071068e-011 7.071068e-011
6749549909.982 0.099224955 0.18288383 0.013954313 -0.0079347724 7.071068e-011 7.071068e-011 7.071068e-011 7.071068e-011
6751230246.0492 0.16849653 0.15503669 0.0023102236 -0.015650481 7.071068e-011 7.071068e-011 7.071068e-011 7.071068e-011
6752910582.1164 0.22177188 0.10148806 -0.01055411 -0.011347565 7.071068e-011 7.071068e-011 7.071068e-011 7.071068e-011
6754590918.1836 0.24928692 0.030353429 -0.01523792 0.00098666188 7.071068e-011 7.071068e-011 7.071068e-011 7.071068e-011
6756271254.2508 0.24643582 -0.046622816 -0.0088173533 0.012332035 7.071068e-011 7.071068e-011 7.071068e-011 7.071068e-011
6757951590.3181 0.21329425 -0.11706732 0.0040078028 0.01455962 7.071068e-011 7.071068e-011 7.071068e-011 7.071068e-011
6759631926.3853 0.15459998 -0.16953678 0.013735188 0.005977937 7.071068e-011 7.071068e-011 7.071068e-011 7.071068e-011
6761312262.4525 0.079251751 -0.19516008 0.013154911 -0.0067793666 7.071068e-011 7.071068e-011 7.071068e-011 7.071068e-011
6762992598.5197 -0.00086100935 -0.18918225 0.0031659238 -0.014301091 7.071068e-011 7.071068e-011 7.071068e-011 7.071068e-011
6764672934.5869 -0.072759204 -0.15196662 -0.0089158379 -0.011622048 7.071068e-011 7.071068e-011 7.071068e-011 7.071068e-011
6766353270.6541 -0.12447443 -0.089012712 -0.014789379 -0.00060927664 7.071068e-011 7.071068e-011 7.071068e-011 7.071068e-011
6768033606.7213 -0.14696051 -0.010352191 -0.010000623 0.011230749 7.071068e-011 7.071068e-011 7.071068e-011 7.071068e-011
6769713942.7886 -0.13593392 0.070775941 0.0025081723 0.015044654 7.071068e-011 7.071068e-011 7.071068e-011 7.071068e-011
6771394278.8558 -0.093148634 0.14025921 0.013426855 0.0075106202 7.071068e-011 7.071068e-011 7.071068e-011 7.071068e-011
6773074614.923 -0.026224954 0.186014 0.014349413 -0.0058169547 7.071068e-011 7.071068e-011 7.071068e-011 7.071068e-011
6774754950.9902 0.052856449 0.20032218 0.0044526216 -0.014942813 7.071068e-011 7.071068e-011 7.071068e-011 7.071068e-011
6776435287.0574 0.13007596 0.18120575 -0.0089910869 -0.012847343 7.071068e-011 7.071068e-011 7.071068e-011 7.071068e-011
6778115623.1246 0.19212575 0.13274664 -0.01562246 -0.00087808387 7.071068e-011 7.071068e-011 7.071068e-011 7.071068e-011
6779795959.1918 0.22883052 0.063849472 -0.01029468 0.01155425 7.071068e-011 7.071068e-011 7.071068e-011 7.071068e-011
6781476295.2591 0.23450296 -0.013608623 0.0024425162 0.015046068 7.071068e-011 7.071068e-011 7.071068e-011 7.071068e-011
6783156631.3263 0.20849925 -0.086643241 0.013005789 0.0076521221 7.071068e-011 7.071068e-011 7.071068e-011 7.071068e-011
6784836967.3935 0.1553479 -0.14307788 0.014218254 -0.0050710393 7.071068e-011 7.071068e-011 7.071068e-011 7.071068e-011
6786517303.4607 0.084038794 -0.17366426 0.0052045281 -0.014310021 7.071068e-011 7.071068e-011 7.071068e-011 7.071068e-011
6788197639.5279 0.0062694177 -0.17351864 -0.007865834 -0.013191927 7.071068e-011 7.071068e-011 7.071068e-011 7.071068e-011
6789877975.5951 -0.065393142 -0.14268027 -0.015259058 -0.0022176516 7.071068e-011 7.071068e-011 7.071068e-011 7.071068e-011
6791558311.6623 -0.11933234 -0.08605133 -0.011398671 0.010401526 7.071068e-011 7.071068e-011 7.071068e-011 7.071068e-011
6793238647.7295 -0.14684963 -0.012810007 0.00072757766 0.01550045 7.071068e-011 7.071068e-011 7.071068e-011 7.071068e-011
6794918983.7968 -0.14365192 0.065260403 0.012580235 0.0094614904 7.071068e-011 7.071068e-011 7.071068e-011 7.071068e-011
6796599319.864 -0.1103576 0.1357481 0.015589481 -0.0038660779 7.071068e-011 7.071068e-011 7.071068e-011 7.071068e-011
6798279655.9312 -0.052355599 0.18733987 0.0067786467 -0.014845693 7.071068e-011 7.071068e-011 7.071068e-011 7.071068e-011
6799959991.9984 0.020728189 0.21168764 -0.0074844914 -0.014584343 7.071068e-011 7.071068e-011 7.071068e-011 7.071068e-011
6801640328.0656 0.096624978 0.20522292 -0.015987519 -0.0032732426 7.071068e-011 7.071068e-011 7.071068e-011 7.071068e-011
6803320664.1328 0.16292001 0.16963992 -0.012625994 0.010248013 7.071068e-011 7.071068e-011 7.071068e-011 7.071068e-011
6805001000.2 0.20897608 0.11124867 -0.00016202804 0.016355311 7.071068e-011 7.071068e-011 7.071068e-011 7.071068e-011
6806681336.2673 0.22740701 0.040050343 0.012717166 0.010633936 7.071068e-011 7.071068e-011 7.071068e-011 7.071068e-011
6808361672.3345 0.21549736 -0.031633489 0.016465569 -0.003278163 7.071068e-011 7.071068e-011 7.071068e-011 7.071068e-011
6810042008.4017 0.17590517 -0.091517918 0.0077813626 -0.014964431 7.071068e-011 7.071068e-011 7.071068e-011 7.071068e-011
6811722344.4689 0.11595784 -0.12961756 -0.0066947402 -0.015457164 7.071068e-011 7.071068e-011 7.071068e-011 7.071068e-011
6813402680.5361 0.046361305 -0.13974898 -0.016207235 -0.0047119069 7.071068e-011 7.071068e-011 7.071068e-011 7.071068e-011
6815083016.6033 -0.020552652 -0.12070448 -0.014178127 0.0095573384 7.071068e-011 7.071068e-011 7.071068e-011 7.071068e-011
6816763352.6705 -0.073206186 -0.076693542 -0.0016543844 0.017415218 7.071068e-011 7.071068e-011 7.071068e-011 7.071068e-011
6818443688.7377 -0.10334776 -0.016164102 0.012866754 0.012477 7.071068e-011 7.071068e-011 7.071068e-011 7.071068e-011
6820124024.805 -0.10704129 0.050480071 0.018053342 -0.0024468584 7.071068e-011 7.071068e-011 7.071068e-011 7.071068e-011
6821804360.8722 -0.084468149 0.11252236 0.0092769992 -0.015787506 7.071068e-011 7.071068e-011 7.071068e-011 7.071068e-011
6823484696.9394 -0.039917603 0.16015072 -0.0065475754 -0.017086705 7.071068e-011 7.071068e-011 7.071068e-011 7.071068e-011
6825165033.0066 0.018772911 0.18625268 -0.017425135 -0.005643711 7.071068e-011 7.071068e-011 7.071068e-011 7.071068e-011
6826845369.0738 0.081984371 0.18762033 -0.015418077 0.010045982 7.071068e-011 7.071068e-011 7.071068e-011 7.071068e-011
6828525705.141 0.13991287 0.16484965 -0.0018293653 0.018402262 7.071068e-011 7.071068e-011 7.071068e-011 7.071068e-011
6830206041.2082 0.18378858 0.12214869 0.013203796 0.012945472 7.071068e-011 7.071068e-011 7.071068e-011 7.071068e-011
6831886377.2755 0.20722237 0.06681826 0.018286763 -0.0020881477 7.071068e-011 7.071068e-011 7.071068e-011 7.071068e-011
6833566713.3427 0.20732778 0.0078365309 0.010008388 -0.015377626 7.071068e-011 7.071068e-011 7.071068e-011 7.071068e-011
6835247049.4099 0.18475924 -0.045608886 -0.0053977007 -0.017632093 7.071068e-011 7.071068e-011 7.071068e-011 7.071068e-011
6836927385.4771 0.14341535 -0.085144065 -0.017279373 -0.007264297 7.071068e-011 7.071068e-011 7.071068e-011 7.071068e-011
6838607721.5443 0.090446122 -0.10423975 -0.016954139 0.0089505455 7.071068e-011 7.071068e-011 7.071068e-011 7.071068e-011
6840288057.6115 0.035410076 -0.099993706 -0.0037334573 0.019244263 7.071068e-011 7.071068e-011 7.071068e-011 7.071068e-011
6841968393.6787 -0.011789472 -0.074001767 0.012952708 0.015160646 7.071068e-011 7.071068e-011 7.071068e-011 7.071068e-011
6843648729.7459 -0.043105945 -0.03187795 0.020175759 -0.00071629399 7.071068e-011 7.071068e-011 7.071068e-011 7.071068e-011
6845329065.8132 -0.053686764 0.018011225 0.012130815 -0.0163996 7.071068e-011 7.071068e-011 7.071068e-011 7.071068e-011
6847009401.8804 -0.042864516 0.066132918 -0.0053389729 -0.019898444 7.071068e-011 7.071068e-011 7.071068e-011 7.071068e-011
6848689737.9476 -0.01420444 0.10404062 -0.019060984 -0.0082350224 7.071068e-011 7.071068e-011 7.071068e-011 7.071068e-011
6850370074.0148 0.02586635 0.12609342 -0.0183475 0.0098836906 7.071068e-011 7.071068e-011 7.071068e-011 7.071068e-011
6852050410.082 0.069714926 0.12992238 -0.0036687327 0.020501589 7.071068e-011 7.071068e-011 7.071068e-011 7.071068e-011
6853730746.1492 0.10977277 0.11645596 0.013664172 0.015641788 7.071068e-011 7.071068e-011 7.071068e-011 7.071068e-011
6855411082.2164 0.14002284 0.089542076 0.020718889 -0.00078633969 7.071068e-011 7.071068e-011 7.071068e-011 7.071068e-011
6857091418.2837 0.15693757 0.054568797 0.012468397 -0.016601199 7.071068e-011 7.071068e-011 7.071068e-011 7.071068e-011
6858771754.3509 0.15935908 0.017152708 -0.0050542555 -0.020213863 7.071068e-011 7.071068e-011 7.071068e-011 7.071068e-011
6860452090.4181 0.14789669 -0.017434044 -0.018968483 -0.0088327667 7.071068e-011 7.071068e-011 7.071068e-011 7.071068e-011
6862132426.4853 0.12478507 -0.044458956 -0.018876357 0.0092180166 7.071068e-011 7.071068e-011 7.071068e-011 7.071068e-011
6863812762.5525 0.093792953 -0.060236122 -0.0047640577 0.020562882 7.071068e-011 7.071068e-011 7.071068e-011 7.071068e-011
6865493098.6197 0.059840579 -0.062614962 0.013044865 0.016780946 7.071068e-011 7.071068e-011 7.071068e-011 7.071068e-011
6867173434.6869 0.028612673 -0.051489379 0.021449335 0.00042439476 7.071068e-011 7.071068e-011 7.071068e-011 7.071068e-011
6868853770.7542 0.0055304905 -0.029378364 0.013912404 -0.016613491 7.071068e-011 7.071068e-011 7.071068e-011 7.071068e-011
