!Keysight Technologies,N5235B,MY61252044,A.15.00.15
!Date: Friday, January 20, 2023 21:58:46
!Correction: S11(Off) 
!S21(Off) 
!S12(Off) 
!S22(Off) 
!S2P File: Measurements: S11, S21, S12, S22:
# Hz S  RI   R 50
6600000000 0.01739358 -0.17501739 0.015470902 -0.0032054284 7.071068e-011 7.071068e-011 7.071068e-011 7.071068e-011
6608408408.4084 -0.12350223 0.16673072 0.0054393513 0.010804054 7.071068e-011 7.071068e-011 7.071068e-011 7.071068e-011
6616816816.8168 0.30650941 0.091206752 -0.0088875545 0.0038004764 7.071068e-011 7.071068e-011 7.071068e-011 7.071068e-011
6625225225.2252 0.023030186 -0.2727977 -0.0018913629 -0.0093027959 7.071068e-011 7.071068e-011 7.071068e-011 7.071068e-011
6633633633.6336 -0.16485763 0.16269234 0.0093481056 -0.00049791276 7.071068e-011 7.071068e-011 7.071068e-011 7.071068e-011
6642042042.042 0.29069465 0.1119604 -0.0017501916 0.0093543045 7.071068e-011 7.071068e-011 7.071068e-011 7.071068e-011
6650450450.4505 0.037664454 -0.2522991 -0.010785314 -0.0039754547 7.071068e-011 7.071068e-011 7.071068e-011 7.071068e-011
6658858858.8589 -0.14783278 0.13575442 0.0058545964 -0.011574894 7.071068e-011 7.071068e-011 7.071068e-011 7.071068e-011
6667267267.2673 0.22927262 0.1001823 0.012319813 0.0090395128 7.071068e-011 7.071068e-011 7.071068e-011 7.071068e-011
6675675675.6757 0.041776925 -0.15114306 -0.011401698 0.013969227 7.071068e-011 7.071068e-011 7.071068e-011 7.071068e-011
6684084084.0841 -0.043954428 0.084710814 -0.014766227 -0.013217137 7.071068e-011 7.071068e-011 7.071068e-011 7.071068e-011
6692492492.4925 0.10591558 0.047431123 0.014672018 -0.015115973 7.071068e-011 7.071068e-011 7.071068e-011 7.071068e-011
6700900900.9009 0.086091697 0.017811995 0.014959456 0.015272444 7.071068e-011 7.071068e-011 7.071068e-011 7.071068e-011
6709309309.3093 0.076644592 -0.041601103 -0.015435529 0.013302581 7.071068e-011 7.071068e-011 7.071068e-011 7.071068e-011
6717717717.7177 -0.030790865 0.034722455 -0.010353145 -0.016390923 7.071068e-011 7.071068e-011 7.071068e-011 7.071068e-011
6726126126.1261 0.15543318 0.11587939 0.016752455 -0.0072919545 7.071068e-011 7.071068e-011 7.071068e-011 7.071068e-011
6734534534.5345 0.12798259 -0.14099848 0.0037496053 0.016223829 7.071068e-011 7.071068e-011 7.071068e-011 7.071068e-011
6742942942.9429 -0.1079507 0.027603738 -0.015946601 -8.2561062e-005 7.071068e-011 7.071068e-011 7.071068e-011 7.071068e-011
6751351351.3514 0.17252481 0.15208144 0.003436099 -0.015440132 7.071068e-011 7.071068e-011 7.071068e-011 7.071068e-011
6759759759.7598 0.14962594 -0.17220069 0.013289113 0.0069193328 7.071068e-011 7.071068e-011 7.071068e-011 7.071068e-011
6768168168.1682 -0.1468825 -0.0042576469 -0.010744077 0.010558996 7.071068e-011 7.071068e-011 7.071068e-011 7.071068e-011
6776576576.5766 0.13497053 0.17830771 -0.0081782537 -0.01339102 7.071068e-011 7.071068e-011 7.071068e-011 7.071068e-011
6784984984.985 0.15040559 -0.14667316 0.014525617 -0.0041950783 7.071068e-011 7.071068e-011 7.071068e-011 7.071068e-011
6793393393.3934 -0.14761889 -0.0057861507 -0.00016065509 0.015544672 7.071068e-011 7.071068e-011 7.071068e-011 7.071068e-011
6801801801.8018 0.10243887 0.20262365 -0.015789907 -0.0041122464 7.071068e-011 7.071068e-011 7.071068e-011 7.071068e-011
6810210210.2102 0.17191552 -0.095823422 0.0085147731 -0.014555705 7.071068e-011 7.071068e-011 7.071068e-011 7.071068e-011
6818618618.6186 -0.10579247 -0.0093835294 0.012322099 0.013102817 7.071068e-011 7.071068e-011 7.071068e-011 7.071068e-011
6827027027.027 0.08882302 0.18534438 -0.015863208 0.0094187809 7.071068e-011 7.071068e-011 7.071068e-011 7.071068e-011
6835435435.4354 0.18091084 -0.049445849 -0.0047035944 -0.017857686 7.071068e-011 7.071068e-011 7.071068e-011 7.071068e-011
6843843843.8438 -0.045581512 -0.02737149 0.020191994 -1.3185853e-006 7.071068e-011 7.071068e-011 7.071068e-011 7.071068e-011
6852252252.2523 0.075097516 0.12917057 -0.0043376377 0.020368876 7.071068e-011 7.071068e-011 7.071068e-011 7.071068e-011
6860660660.6607 0.14516583 -0.020546854 -0.018735619 -0.0093937917 7.071068e-011 7.071068e-011 7.071068e-011 7.071068e-011
6869069069.0691 0.0036859119 -0.026952697 0.014343192 -0.016279047 7.071068e-011 7.071068e-011 7.071068e-011 7.071068e-011
6877477477.4775 0.054466575 0.072898343 0.012914835 0.01796486 7.071068e-011 7.071068e-011 7.071068e-011 7.071068e-011
6885885885.8859 0.090335883 0.0064603798 -0.020382257 0.0079661328 7.071068e-011 7.071068e-011 7.071068e-011 7.071068e-011
6894294294.2943 0.047060415 -0.00077191991 -0.0025833528 -0.022014735 7.071068e-011 7.071068e-011 7.071068e-011 7.071068e-011
6902702702.7027 0.038360443 0.019263769 0.022056133 0.00297037 7.071068e-011 7.071068e-011 7.071068e-011 7.071068e-011
6911111111.1111 0.030917171 0.037917286 -0.0085293232 0.020344572 7.071068e-011 7.071068e-011 7.071068e-011 7.071068e-011
6919519519.5195 0.078575999 0.049570598 -0.01712697 -0.013418403 7.071068e-011 7.071068e-011 7.071068e-011 7.071068e-011
6927927927.9279 0.050226308 -0.012273371 0.017095629 -0.012999452 7.071068e-011 7.071068e-011 7.071068e-011 7.071068e-011
6936336336.3363 -0.0017784216 0.062471151 0.0075179157 0.019399215 7.071068e-011 7.071068e-011 7.071068e-011 7.071068e-011
6944744744.7447 0.11249764 0.088998698 -0.020842278 0.001404 7.071068e-011 7.071068e-011 7.071068e-011 7.071068e-011
6953153153.1532 0.084005766 -0.045559194 0.0042441874 -0.020069227 7.071068e-011 7.071068e-011 7.071068e-011 7.071068e-011
6961561561.5616 -0.028338008 0.054797217 0.017481048 0.0097473646 7.071068e-011 7.071068e-011 7.071068e-011 7.071068e-011
6969969969.97 0.12519667 0.10574143 -0.014356283 0.013752716 7.071068e-011 7.071068e-011 7.071068e-011 7.071068e-011
6978378378.3784 0.10111462 -0.071326055 -0.0086223651 -0.017277868 7.071068e-011 7.071068e-011 7.071068e-011 7.071068e-011
6986786786.7868 -0.064114332 0.033663087 0.018715372 -0.0025256346 7.071068e-011 7.071068e-011 7.071068e-011 7.071068e-011
6995195195.1952 0.10371648 0.13338104 -0.0033124995 0.018974865 7.071068e-011 7.071068e-011 7.071068e-011 7.071068e-011
7003603603.6036 0.10817247 -0.058187548 -0.016730875 -0.0086947624 7.071068e-011 7.071068e-011 7.071068e-011 7.071068e-011
7012012012.012 -0.072604053 0.033149809 0.013974127 -0.012658165 7.071068e-011 7.071068e-011 7.071068e-011 7.071068e-011
7020420420.4204 0.088549204 0.16120684 0.0080195991 0.017242616 7.071068e-011 7.071068e-011 7.071068e-011 7.071068e-011
7028828828.8288 0.1322913 -0.029507639 -0.018524013 0.0020684418 7.071068e-011 7.071068e-011 7.071068e-011 7.071068e-011
7037237237.2372 -0.05438276 0.031294756 0.0041824239 -0.018724209 7.071068e-011 7.071068e-011 7.071068e-011 7.071068e-011
7045645645.6456 0.090851508 0.17096487 0.016593361 0.0095904414 7.071068e-011 7.071068e-011 7.071068e-011 7.071068e-011
7054054054.0541 0.16722468 -0.0038773825 -0.014526014 0.012249938 7.071068e-011 7.071068e-011 7.071068e-011 7.071068e-011
7062462462.4625 -0.0085599674 -0.0032278893 -0.0070849583 -0.018391192 7.071068e-011 7.071068e-011 7.071068e-011 7.071068e-011
7070870870.8709 0.079020582 0.14028569 0.019764181 -0.001452987 7.071068e-011 7.071068e-011 7.071068e-011 7.071068e-011
7079279279.2793 0.16802193 0.0069432524 -0.0053094528 0.018875895 7.071068e-011 7.071068e-011 7.071068e-011 7.071068e-011
7087687687.6877 0.032325041 -0.026730366 -0.016801495 -0.011280986 7.071068e-011 7.071068e-011 7.071068e-011 7.071068e-011
7096096096.0961 0.059753612 0.089531861 0.015798748 -0.012691878 7.071068e-011 7.071068e-011 7.071068e-011 7.071068e-011
7104504504.5045 0.14799504 0.0099563673 0.0067892014 0.019072328 7.071068e-011 7.071068e-011 7.071068e-011 7.071068e-011
7112912912.9129 0.05034776 -0.044585407 -0.020663796 0.00015050381 7.071068e-011 7.071068e-011 7.071068e-011 7.071068e-011
7121321321.3213 0.034722432 0.032293525 0.0060492582 -0.019940363 7.071068e-011 7.071068e-011 7.071068e-011 7.071068e-011
7129729729.7297 0.089431383 0.014035728 0.016621294 0.011864295 7.071068e-011 7.071068e-011 7.071068e-011 7.071068e-011
7138138138.1381 0.043100569 -0.037640713 -0.017037861 0.011939699 7.071068e-011 7.071068e-011 7.071068e-011 7.071068e-011
7146546546.5465 -0.00036483197 0.013653225 -0.0061178091 -0.020048933 7.071068e-011 7.071068e-011 7.071068e-011 7.071068e-011
7154954954.955 0.030670177 0.041435596 0.020819118 0.00057909841 7.071068e-011 7.071068e-011 7.071068e-011 7.071068e-011
7163363363.3634 0.045059681 0.015429007 -0.0074178753 0.019205531 7.071068e-011 7.071068e-011 7.071068e-011 7.071068e-011
7171771771.7718 0.00083646656 0.020498428 -0.0159315 -0.013288056 7.071068e-011 7.071068e-011 7.071068e-011 7.071068e-011
7180180180.1802 0.018851891 0.072614409 0.017501667 -0.010634425 7.071068e-011 7.071068e-011 7.071068e-011 7.071068e-011
7188588588.5886 0.067657821 0.055869166 0.0041578789 0.020419056 7.071068e-011 7.071068e-011 7.071068e-011 7.071068e-011
7196996996.997 0.039740264 0.01027073 -0.020661216 -0.002461618 7.071068e-011 7.071068e-011 7.071068e-011 7.071068e-011
7205405405.4054 0.012403348 0.067193091 0.0093046268 -0.018138003 7.071068e-011 7.071068e-011 7.071068e-011 7.071068e-011
7213813813.8138 0.083355539 0.067221269 0.014056436 0.015009402 7.071068e-011 7.071068e-011 7.071068e-011 7.071068e-011
7222222222.2222 0.066060156 -0.0057836054 -0.018881224 0.0084796827 7.071068e-011 7.071068e-011 7.071068e-011 7.071068e-011
7230630630.6306 -0.0014535977 0.035621926 -0.0017100862 -0.020477131 7.071068e-011 7.071068e-011 7.071068e-011 7.071068e-011
7239039039.039 0.072021231 0.075334631 0.020032074 0.0055990522 7.071068e-011 7.071068e-011 7.071068e-011 7.071068e-011
7247447447.4474 0.07480254 -0.014966437 -0.01180399 0.017147016 7.071068e-011 7.071068e-011 7.071068e-011 7.071068e-011
7255855855.8559 -0.016518058 0.0076945061 -0.011831435 -0.016880341 7.071068e-011 7.071068e-011 7.071068e-011 7.071068e-011
7264264264.2643 0.03508167 0.083950989 0.020069761 -0.0056199487 7.071068e-011 7.071068e-011 7.071068e-011 7.071068e-011
7272672672.6727 0.074324794 0.0004621734 -0.0012403184 0.020574097 7.071068e-011 7.071068e-011 7.071068e-011 7.071068e-011
7281081081.0811 -0.030144207 0.00091752742 -0.01885397 -0.0081984457 7.071068e-011 7.071068e-011 7.071068e-011 7.071068e-011
7289489489.4895 0.00032317953 0.10790844 0.014506852 -0.014819942 7.071068e-011 7.071068e-011 7.071068e-011 7.071068e-011
7297897897.8979 0.085043117 0.050100975 0.0090586366 0.018714553 7.071068e-011 7.071068e-011 7.071068e-011 7.071068e-011
7306306306.3063 0.00059274404 0.0091629261 -0.020559644 0.0018574664 7.071068e-011 7.071068e-011 7.071068e-011 7.071068e-011
7314714714.7147 0.0045748195 0.11298672 0.0051368237 -0.020368237 7.071068e-011 7.071068e-011 7.071068e-011 7.071068e-011
7323123123.1231 0.11260802 0.075004175 0.017168965 0.011521043 7.071068e-011 7.071068e-011 7.071068e-011 7.071068e-011
7331531531.5315 0.051039897 -0.01171834 -0.017188285 0.011954111 7.071068e-011 7.071068e-011 7.071068e-011 7.071068e-011
7339939939.9399 0.0079484265 0.068870172 -0.0056021381 -0.020500623 7.071068e-011 7.071068e-011 7.071068e-011 7.071068e-011
7348348348.3483 0.10582712 0.063549779 0.020966472 0.0016419058 7.071068e-011 7.071068e-011 7.071068e-011 7.071068e-011
7356756756.7568 0.065776631 -0.037243214 -0.0089437254 0.018930329 7.071068e-011 7.071068e-011 7.071068e-011 7.071068e-011
7365165165.1652 -0.010207646 0.021393761 -0.014960817 -0.014995455 7.071068e-011 7.071068e-011 7.071068e-011 7.071068e-011
7373573573.5736 0.061943371 0.049515918 0.018899389 -0.0088256672 7.071068e-011 7.071068e-011 7.071068e-011 7.071068e-011
7381981981.982 0.043537028 -0.035485666 0.0013541537 0.021111352 7.071068e-011 7.071068e-011 7.071068e-011 7.071068e-011
7390390390.3904 -0.042953782 0.0099533992 -0.020426672 -0.0058909128 7.071068e-011 7.071068e-011 7.071068e-011 7.071068e-011
7398798798.7988 0.013078948 0.071112253 0.012681728 -0.016881753 7.071068e-011 7.071068e-011 7.071068e-011 7.071068e-011
7407207207.2072 0.027937585 0.0096988725 0.011448025 0.01784664 7.071068e-011 7.071068e-011 7.071068e-011 7.071068e-011
7415615615.6156 -0.041192289 0.03545776 -0.020832332 0.0046831942 7.071068e-011 7.071068e-011 7.071068e-011 7.071068e-011
7424024024.024 0.0070902882 0.10520471 0.0027705473 -0.021096541 7.071068e-011 7.071068e-011 7.071068e-011 7.071068e-011
7432432432.4324 0.054657415 0.053751431 0.018837495 0.010156894 7.071068e-011 7.071068e-011 7.071068e-011 7.071068e-011
7440840840.8408 0.0095591089 0.042624682 -0.015946809 0.01428825 7.071068e-011 7.071068e-011 7.071068e-011 7.071068e-011
7449249249.2492 0.03056276 0.087109946 -0.0076062344 -0.019775782 7.071068e-011 7.071068e-011 7.071068e-011 7.071068e-011
7457657657.6577 0.077797227 0.048864987 0.021263342 -0.00012831169 7.071068e-011 7.071068e-011 7.071068e-011 7.071068e-011
7466066066.0661 0.04179167 0.014126383 -0.0072538741 0.020043375 7.071068e-011 7.071068e-011 7.071068e-011 7.071068e-011
7474474474.4745 0.030406931 0.039386716 -0.016133925 -0.013623655 7.071068e-011 7.071068e-011 7.071068e-011 7.071068e-011
7482882882.8829 0.060121279 0.029115366 0.018506873 -0.010065055 7.071068e-011 7.071068e-011 7.071068e-011 7.071068e-011
7491291291.2913 0.038706616 -0.013581204 0.002929294 0.020910632 7.071068e-011 7.071068e-011 7.071068e-011 7.071068e-011
7499699699.6997 -0.0033316468 0.002674852 -0.020445097 -0.0046386761 7.071068e-011 7.071068e-011 7.071068e-011 7.071068e-011
7508108108.1081 0.0034832815 0.031819783 0.011505726 -0.017495571 7.071068e-011 7.071068e-011 7.071068e-011 7.071068e-011
7516516516.5165 0.019251466 0.011891105 0.012230745 0.01682958 7.071068e-011 7.071068e-011 7.071068e-011 7.071068e-011
7524924924.9249 -0.026375003 0.0066378918 -0.019961126 0.0053576007 7.071068e-011 7.071068e-011 7.071068e-011 7.071068e-011
7533333333.3333 -0.029857617 0.06609045 0.0022534123 -0.020536119 7.071068e-011 7.071068e-011 7.071068e-011 7.071068e-011
7541741741.7417 0.028100038 0.068774633 0.0183778 0.0092464229 7.071068e-011 7.071068e-011 7.071068e-011 7.071068e-011
7550150150.1502 0.012651525 0.020476041 -0.01504263 0.013430248 7.071068e-011 7.071068e-011 7.071068e-011 7.071068e-011
7558558558.5586 -0.015155611 0.068793707 -0.0071099722 -0.018955065 7.071068e-011 7.071068e-011 7.071068e-011 7.071068e-011
7566966966.967 0.055740967 0.077825241 0.020017793 0.00022111383 7.071068e-011 7.071068e-011 7.071068e-011 7.071068e-011
7575375375.3754 0.053342782 0.00097553624 -0.0076637901 0.018576533 7.071068e-011 7.071068e-011 7.071068e-011 7.071068e-011
7583783783.7838 -0.011812747 0.024181973 -0.014595893 -0.013887764 7.071068e-011 7.071068e-011 7.071068e-011 7.071068e-011
7592192192.1922 0.045612909 0.060598068 0.017898468 -0.0085618133 7.071068e-011 7.071068e-011 7.071068e-011 7.071068e-011
7600600600.6006 0.051749427 -0.024527559 0.001137257 0.019474881 7.071068e-011 7.071068e-011 7.071068e-011 7.071068e-011
7609009009.009 -0.038209863 -0.010593356 -0.018967394 -0.0062846616 7.071068e-011 7.071068e-011 7.071068e-011 7.071068e-011
7617417417.4174 -0.0047794464 0.058234975 0.012419469 -0.015486402 7.071068e-011 7.071068e-011 7.071068e-011 7.071068e-011
7625825825.8258 0.02622317 -0.0044738231 0.009653246 0.017277889 7.071068e-011 7.071068e-011 7.071068e-011 7.071068e-011
7634234234.2342 -0.060801961 0.0043536276 -0.019522289 0.0026984939 7.071068e-011 7.071068e-011 7.071068e-011 7.071068e-011
7642642642.6426 -0.026297793 0.091584437 0.0047422312 -0.018976869 7.071068e-011 7.071068e-011 7.071068e-011 7.071068e-011
7651051051.0511 0.037424184 0.04235417 0.015916377 0.011502236 7.071068e-011 7.071068e-011 7.071068e-011 7.071068e-011
7659459459.4595 -0.029938631 0.018181447 -0.016639702 0.010898164 7.071068e-011 7.071068e-011 7.071068e-011 7.071068e-011
7667867867.8679 -0.011472936 0.10264546 -0.004157308 -0.019071385 7.071068e-011 7.071068e-011 7.071068e-011 7.071068e-011
7676276276.2763 0.074017905 0.058795348 0.019150322 0.0037016994 7.071068e-011 7.071068e-011 7.071068e-011 7.071068e-011
7684684684.6847 0.021089358 -0.003952208 -0.010548756 0.016758507 7.071068e-011 7.071068e-011 7.071068e-011 7.071068e-011
7693093093.0931 0.00083445688 0.054718047 -0.011692994 -0.015813947 7.071068e-011 7.071068e-011 7.071068e-011 7.071068e-011
7701501501.5015 0.07122194 0.032257009 0.018964909 -0.0050861253 7.071068e-011 7.071068e-011 7.071068e-011 7.071068e-011
7709909909.9099 0.023057725 -0.04239852 -0.0023535069 0.019558299 7.071068e-011 7.071068e-011 7.071068e-011 7.071068e-011
7718318318.3183 -0.033013418 0.010974166 -0.017355816 -0.0093656462 7.071068e-011 7.071068e-011 7.071068e-011 7.071068e-011
7726726726.7267 0.024474619 0.02777715 0.015291419 -0.012461243 7.071068e-011 7.071068e-011 7.071068e-011 7.071068e-011
7735135135.1351 0.0028230145 -0.041457929 0.0062048058 0.018884836 7.071068e-011 7.071068e-011 7.071068e-011 7.071068e-011
7743543543.5435 -0.07519269 -1.7860972e-005 -0.019563073 -0.0011827898 7.071068e-011 7.071068e-011 7.071068e-011 7.071068e-011
7751951951.952 -0.030093594 0.064353727 0.0084829694 -0.017814634 7.071068e-011 7.071068e-011 7.071068e-011 7.071068e-011
7760360360.3604 -0.0027572329 0.017192146 0.013461928 0.014480257 7.071068e-011 7.071068e-011 7.071068e-011 7.071068e-011
7768768768.7688 -0.05847019 0.028663078 -0.018495554 0.0071313134 7.071068e-011 7.071068e-011 7.071068e-011 7.071068e-011
7777177177.1772 -0.027022548 0.095534697 0.00032123728 -0.019736467 7.071068e-011 7.071068e-011 7.071068e-011 7.071068e-011
7785585585.5856 0.033747002 0.05793928 0.018248053 0.0075718891 7.071068e-011 7.071068e-011 7.071068e-011 7.071068e-011
7793993993.994 -0.0055806316 0.027808351 -0.013727654 0.013896836 7.071068e-011 7.071068e-011 7.071068e-011 7.071068e-011
7802402402.4024 -0.00050496857 0.075046659 -0.0078414306 -0.018279187 7.071068e-011 7.071068e-011 7.071068e-011 7.071068e-011
7810810810.8108 0.058227204 0.048824806 0.019781943 -0.00073601783 7.071068e-011 7.071068e-011 7.071068e-011 7.071068e-011
7819219219.2192 0.025776353 -0.0064956993 -0.0068801651 0.018447559 7.071068e-011 7.071068e-011 7.071068e-011 7.071068e-011
7827627627.6276 -0.0035467686 0.027083676 -0.014606175 -0.013255477 7.071068e-011 7.071068e-011 7.071068e-011 7.071068e-011
7836036036.036 0.03762472 0.025595125 0.017730365 -0.0086018266 7.071068e-011 7.071068e-011 7.071068e-011 7.071068e-011
7844444444.4444 0.016370179 -0.023746515 0.0013965387 0.019707428 7.071068e-011 7.071068e-011 7.071068e-011 7.071068e-011
7852852852.8529 -0.028202143 0.00306968 -0.018889926 -0.0060902811 7.071068e-011 7.071068e-011 7.071068e-011 7.071068e-011
7861261261.2613 0.0017117965 0.029526409 0.012567254 -0.015234244 7.071068e-011 7.071068e-011 7.071068e-011 7.071068e-011
7869669669.6697 0.0055443407 -0.0093481643 0.0092703933 0.017439112 7.071068e-011 7.071068e-011 7.071068e-011 7.071068e-011
7878078078.0781 -0.040589381 0.0034486807 -0.019790679 0.0022515603 7.071068e-011 7.071068e-011 7.071068e-011 7.071068e-011
7886486486.4865 -0.024220934 0.047069799 0.0051116757 -0.019106831 7.071068e-011 7.071068e-011 7.071068e-011 7.071068e-011
7894894894.8949 0.010896262 0.030071335 0.01558903 0.011766034 7.071068e-011 7.071068e-011 7.071068e-011 7.071068e-011
7903303303.3033 -0.013639227 0.011237405 -0.01695165 0.0099453758 7.071068e-011 7.071068e-011 7.071068e-011 7.071068e-011
7911711711.7117 -0.01773656 0.043951664 -0.0030455485 -0.019447682 7.071068e-011 7.071068e-011 7.071068e-011 7.071068e-011
7920120120.1201 0.023082618 0.044912297 0.018967181 0.0044551506 7.071068e-011 7.071068e-011 7.071068e-011 7.071068e-011
7928528528.5285 0.023629589 0.0018632131 -0.011236539 0.015893703 7.071068e-011 7.071068e-011 7.071068e-011 7.071068e-011
7936936936.9369 -0.010105349 0.011299471 -0.010392512 -0.016251028 7.071068e-011 7.071068e-011 7.071068e-011 7.071068e-011
7945345345.3453 0.018072737 0.032159496 0.018986586 -0.0033632296 7.071068e-011 7.071068e-011 7.071068e-011 7.071068e-011
