!Keysight Technologies,N5235B,MY61252044,A.15.00.15
!Date: Friday, January 20, 2023 23:48:13
!Correction: S11(Off) 
!S21(Off) 
!S12(Off) 
!S22(Off) 
!S2P File: Measurements: S11, S21, S12, S22:
# Hz S  RI   R 50
6600000000 0.018828195 -0.17535819 0.015448902 -0.0030353535 7.071068e-011 7.071068e-011 7.071068e-011 7.071068e-011
6608408408.4084 -0.12480517 0.16529343 0.0052928692 0.01083462 7.071068e-011 7.071068e-011 7.071068e-011 7.071068e-011
6616816816.8168 0.30581579 0.093068667 -0.008911551 0.0036787221 7.071068e-011 7.071068e-011 7.071068e-011 7.071068e-011
6625225225.2252 0.025059249 -0.27297112 -0.0017685265 -0.0093046054 7.071068e-011 7.071068e-011 7.071068e-011 7.071068e-011
6633633633.6336 -0.16593312 0.16102487 0.0093349526 -0.00037427497 7.071068e-011 7.071068e-011 7.071068e-011 7.071068e-011
6642042042.042 0.28966287 0.11351657 -0.0018681014 0.0093160691 7.071068e-011 7.071068e-011 7.071068e-011 7.071068e-011
6650450450.4505 0.039546479 -0.25201139 -0.010716826 -0.0041062357 7.071068e-011 7.071068e-011 7.071068e-011 7.071068e-011
6658858858.8589 -0.14854389 0.13402662 0.0059942519 -0.011485127 7.071068e-011 7.071068e-011 7.071068e-011 7.071068e-011
6667267267.2673 0.2282787 0.10150346 0.012189431 0.0091831349 7.071068e-011 7.071068e-011 7.071068e-011 7.071068e-011
6675675675.6757 0.043157268 -0.15102164 -0.011554352 0.013805394 7.071068e-011 7.071068e-011 7.071068e-011 7.071068e-011
6684084084.0841 -0.044423718 0.083947785 -0.014579099 -0.013367752 7.071068e-011 7.071068e-011 7.071068e-011 7.071068e-011
6692492492.4925 0.10566922 0.047547616 0.014834373 -0.01489509 7.071068e-011 7.071068e-011 7.071068e-011 7.071068e-011
6700900900.9009 0.085987017 0.018428763 0.014736034 0.015430288 7.071068e-011 7.071068e-011 7.071068e-011 7.071068e-011
6709309309.3093 0.077368118 -0.041885816 -0.015562363 0.013082596 7.071068e-011 7.071068e-011 7.071068e-011 7.071068e-011
6717717717.7177 -0.031246288 0.034171671 -0.010113427 -0.016488511 7.071068e-011 7.071068e-011 7.071068e-011 7.071068e-011
6726126126.1261 0.15487243 0.1164604 0.016804844 -0.0070575811 7.071068e-011 7.071068e-011 7.071068e-011 7.071068e-011
6734534534.5345 0.12890689 -0.14051522 0.0035342867 0.01622971 7.071068e-011 7.071068e-011 7.071068e-011 7.071068e-011
6742942942.9429 -0.10789637 0.026274011 -0.015904399 -0.00030194974 7.071068e-011 7.071068e-011 7.071068e-011 7.071068e-011
6751351351.3514 0.17115504 0.1527967 0.0036388892 -0.015360105 7.071068e-011 7.071068e-011 7.071068e-011 7.071068e-011
6759759759.7598 0.15103015 -0.17131822 0.013167369 0.0070861243 7.071068e-011 7.071068e-011 7.071068e-011 7.071068e-011
6768168168.1682 -0.14685912 -0.005941858 -0.010867469 0.010388083 7.071068e-011 7.071068e-011 7.071068e-011 7.071068e-011
6776576576.5766 0.13361202 0.17909169 -0.0079791453 -0.013479996 7.071068e-011 7.071068e-011 7.071068e-011 7.071068e-011
6784984984.985 0.15153466 -0.14588271 0.014558647 -0.0039919098 7.071068e-011 7.071068e-011 7.071068e-011 7.071068e-011
6793393393.3934 -0.14728691 -0.0070241494 -0.00037149488 0.015515023 7.071068e-011 7.071068e-011 7.071068e-011 7.071068e-011
6801801801.8018 0.10108215 0.2027493 -0.015703592 -0.0043209507 7.071068e-011 7.071068e-011 7.071068e-011 7.071068e-011
6810210210.2102 0.17269996 -0.094566099 0.0086928466 -0.014411749 7.071068e-011 7.071068e-011 7.071068e-011 7.071068e-011
6818618618.6186 -0.10514217 -0.010719942 0.012115028 0.013248798 7.071068e-011 7.071068e-011 7.071068e-011 7.071068e-011
6827027027.027 0.087444372 0.18546936 -0.015967006 0.0091766613 7.071068e-011 7.071068e-011 7.071068e-011 7.071068e-011
6835435435.4354 0.18162537 -0.048452701 -0.0044501475 -0.017892277 7.071068e-011 7.071068e-011 7.071068e-011 7.071068e-011
6843843843.8438 -0.045236494 -0.028296305 0.020159923 0.00028267494 7.071068e-011 7.071068e-011 7.071068e-011 7.071068e-011
6852252252.2523 0.074461713 0.12921292 -0.0046132407 0.020281909 7.071068e-011 7.071068e-011 7.071068e-011 7.071068e-011
6860660660.6607 0.14515948 -0.020044185 -0.018581256 -0.0096323537 7.071068e-011 7.071068e-011 7.071068e-011 7.071068e-011
6869069069.0691 0.0043109315 -0.027165128 0.014538787 -0.016056141 7.071068e-011 7.071068e-011 7.071068e-011 7.071068e-011
6877477477.4775 0.053888023 0.072481647 0.012645217 0.018103592 7.071068e-011 7.071068e-011 7.071068e-011 7.071068e-011
6885885885.8859 0.090353757 0.0070110392 -0.020451929 0.007667718 7.071068e-011 7.071068e-011 7.071068e-011 7.071068e-011
6894294294.2943 0.047321968 -0.0010141386 -0.0022705917 -0.022006765 7.071068e-011 7.071068e-011 7.071068e-011 7.071068e-011
6902702702.7027 0.038228799 0.019318977 0.021969313 0.0032759062 7.071068e-011 7.071068e-011 7.071068e-011 7.071068e-011
6911111111.1111 0.030939553 0.037635315 -0.0088065723 0.020182647 7.071068e-011 7.071068e-011 7.071068e-011 7.071068e-011
6919519519.5195 0.078256555 0.050016027 -0.016912222 -0.013639488 7.071068e-011 7.071068e-011 7.071068e-011 7.071068e-011
6927927927.9279 0.050866261 -0.012403577 0.017252229 -0.012741131 7.071068e-011 7.071068e-011 7.071068e-011 7.071068e-011
6936336336.3363 -0.0022355032 0.062077619 0.0072358842 0.019474933 7.071068e-011 7.071068e-011 7.071068e-011 7.071068e-011
6944744744.7447 0.11233245 0.089484274 -0.02082474 0.0011145226 7.071068e-011 7.071068e-011 7.071068e-011 7.071068e-011
6953153153.1532 0.084481776 -0.045494419 0.0045141415 -0.019974416 7.071068e-011 7.071068e-011 7.071068e-011 7.071068e-011
6961561561.5616 -0.028374687 0.054250631 0.017308259 0.0099719241 7.071068e-011 7.071068e-011 7.071068e-011 7.071068e-011
6969969969.97 0.12449329 0.10601696 -0.014523415 0.013515114 7.071068e-011 7.071068e-011 7.071068e-011 7.071068e-011
6978378378.3784 0.10188506 -0.070704579 -0.0083524231 -0.017371645 7.071068e-011 7.071068e-011 7.071068e-011 7.071068e-011
6986786786.7868 -0.064075261 0.032520574 0.018722508 -0.0022497866 7.071068e-011 7.071068e-011 7.071068e-011 7.071068e-011
6995195195.1952 0.10278686 0.13400382 -0.0035802627 0.018900074 7.071068e-011 7.071068e-011 7.071068e-011 7.071068e-011
7003603603.6036 0.10908299 -0.057764158 -0.01658144 -0.0089241518 7.071068e-011 7.071068e-011 7.071068e-011 7.071068e-011
7012012012.012 -0.072641075 0.032262698 0.014131211 -0.012443531 7.071068e-011 7.071068e-011 7.071068e-011 7.071068e-011
7020420420.4204 0.087826163 0.16147903 0.0077610565 0.017329194 7.071068e-011 7.071068e-011 7.071068e-011 7.071068e-011
7028828828.8288 0.13275346 -0.028855445 -0.018519515 0.001802914 7.071068e-011 7.071068e-011 7.071068e-011 7.071068e-011
7037237237.2372 -0.053898089 0.030491462 0.0044456315 -0.018624919 7.071068e-011 7.071068e-011 7.071068e-011 7.071068e-011
7045645645.6456 0.089845829 0.17090197 0.01642295 0.009820289 7.071068e-011 7.071068e-011 7.071068e-011 7.071068e-011
7054054054.0541 0.16766337 -0.0029168702 -0.014684802 0.01201627 7.071068e-011 7.071068e-011 7.071068e-011 7.071068e-011
7062462462.4625 -0.0080055222 -0.0041450025 -0.006802802 -0.018472835 7.071068e-011 7.071068e-011 7.071068e-011 7.071068e-011
7070870870.8709 0.078102104 0.14035179 0.019763172 -0.0011655267 7.071068e-011 7.071068e-011 7.071068e-011 7.071068e-011
7079279279.2793 0.16837277 0.0075092698 -0.0055721812 0.018778363 7.071068e-011 7.071068e-011 7.071068e-011 7.071068e-011
7087687687.6877 0.032648504 -0.027055353 -0.016619511 -0.011505441 7.071068e-011 7.071068e-011 7.071068e-011 7.071068e-011
7096096096.0961 0.059396308 0.089192025 0.015952403 -0.012451858 7.071068e-011 7.071068e-011 7.071068e-011 7.071068e-011
7104504504.5045 0.14775257 0.010507729 0.0065037115 0.019137455 7.071068e-011 7.071068e-011 7.071068e-011 7.071068e-011
7112912912.9129 0.050964743 -0.04467839 -0.020630099 -0.00015651032 7.071068e-011 7.071068e-011 7.071068e-011 7.071068e-011
7121321321.3213 0.03432649 0.03181373 0.0063317935 -0.019819843 7.071068e-011 7.071068e-011 7.071068e-011 7.071068e-011
7129729729.7297 0.089238897 0.014551505 0.016419342 0.012095201 7.071068e-011 7.071068e-011 7.071068e-011 7.071068e-011
7138138138.1381 0.043495484 -0.037771668 -0.017191885 0.011668105 7.071068e-011 7.071068e-011 7.071068e-011 7.071068e-011
7146546546.5465 -0.00052902941 0.013547367 -0.0058166939 -0.020117581 7.071068e-011 7.071068e-011 7.071068e-011 7.071068e-011
7154954954.955 0.030588379 0.041337732 0.020790488 0.00088432449 7.071068e-011 7.071068e-011 7.071068e-011 7.071068e-011
7163363363.3634 0.044982012 0.015813762 -0.0076823565 0.019078035 7.071068e-011 7.071068e-011 7.071068e-011 7.071068e-011
7171771771.7718 0.0012418824 0.020204764 -0.015720252 -0.013493633 7.071068e-011 7.071068e-011 7.071068e-011 7.071068e-011
7180180180.1802 0.018386982 0.072509736 0.017625257 -0.010361351 7.071068e-011 7.071068e-011 7.071068e-011 7.071068e-011
7188588588.5886 0.067758702 0.056229115 0.0038508964 0.02044197 7.071068e-011 7.071068e-011 7.071068e-011 7.071068e-011
7196996996.997 0.03996522 0.010109467 -0.020593306 -0.0027711317 7.071068e-011 7.071068e-011 7.071068e-011 7.071068e-011
7205405405.4054 0.012246942 0.067040078 0.0095659159 -0.017974244 7.071068e-011 7.071068e-011 7.071068e-011 7.071068e-011
7213813813.8138 0.083143361 0.067305349 0.01381611 0.015202316 7.071068e-011 7.071068e-011 7.071068e-011 7.071068e-011
7222222222.2222 0.066310696 -0.0054487381 -0.01899066 0.0081891408 7.071068e-011 7.071068e-011 7.071068e-011 7.071068e-011
7230630630.6306 -0.0013107866 0.035005085 -0.0014084681 -0.020483609 7.071068e-011 7.071068e-011 7.071068e-011 7.071068e-011
7239039039.039 0.071407452 0.075645156 0.019934837 0.0058756182 7.071068e-011 7.071068e-011 7.071068e-011 7.071068e-011
7247447447.4474 0.075352341 -0.014724848 -0.012031799 0.016951689 7.071068e-011 7.071068e-011 7.071068e-011 7.071068e-011
7255855855.8559 -0.016561318 0.0072087422 -0.011566116 -0.017025298 7.071068e-011 7.071068e-011 7.071068e-011 7.071068e-011
7264264264.2643 0.034719869 0.084066972 0.020117089 -0.0053159823 7.071068e-011 7.071068e-011 7.071068e-011 7.071068e-011
7272672672.6727 0.074448206 0.00078846124 -0.0015484905 0.020524459 7.071068e-011 7.071068e-011 7.071068e-011 7.071068e-011
7281081081.0811 -0.029754093 0.00068552117 -0.018702453 -0.0084755905 7.071068e-011 7.071068e-011 7.071068e-011 7.071068e-011
7289489489.4895 -0.00017646237 0.10754225 0.014709397 -0.014587565 7.071068e-011 7.071068e-011 7.071068e-011 7.071068e-011
7297897897.8979 0.084981546 0.050831512 0.0087715676 0.0188292 7.071068e-011 7.071068e-011 7.071068e-011 7.071068e-011
7306306306.3063 0.0012254384 0.0087856008 -0.020569544 0.001546336 7.071068e-011 7.071068e-011 7.071068e-011 7.071068e-011
7314714714.7147 0.0039712409 0.11268649 0.0054224906 -0.020273577 7.071068e-011 7.071068e-011 7.071068e-011 7.071068e-011
7323123123.1231 0.11262053 0.075515971 0.016981827 0.011752109 7.071068e-011 7.071068e-011 7.071068e-011 7.071068e-011
7331531531.5315 0.051385045 -0.01184801 -0.017337684 0.011680665 7.071068e-011 7.071068e-011 7.071068e-011 7.071068e-011
7339939939.9399 0.0078413179 0.068503588 -0.0052883462 -0.020550517 7.071068e-011 7.071068e-011 7.071068e-011 7.071068e-011
7348348348.3483 0.10537943 0.063795589 0.020908715 0.0019548964 7.071068e-011 7.071068e-011 7.071068e-011 7.071068e-011
7356756756.7568 0.066313021 -0.036943197 -0.0092245257 0.018763969 7.071068e-011 7.071068e-011 7.071068e-011 7.071068e-011
7365165165.1652 -0.010255573 0.020706417 -0.01471408 -0.015205069 7.071068e-011 7.071068e-011 7.071068e-011 7.071068e-011
7373573573.5736 0.061404187 0.049914271 0.019014409 -0.0085354885 7.071068e-011 7.071068e-011 7.071068e-011 7.071068e-011
7381981981.982 0.044075757 -0.035294611 0.0010389308 0.02111103 7.071068e-011 7.071068e-011 7.071068e-011 7.071068e-011
7390390390.3904 -0.043065105 0.0095334835 -0.020315301 -0.0061829709 7.071068e-011 7.071068e-011 7.071068e-011 7.071068e-011
7398798798.7988 0.012841105 0.071252123 0.012907336 -0.016671555 7.071068e-011 7.071068e-011 7.071068e-011 7.071068e-011
7407207207.2072 0.028002439 0.0099433716 0.011159116 0.017988715 7.071068e-011 7.071068e-011 7.071068e-011 7.071068e-011
7415615615.6156 -0.040873069 0.035247847 -0.020869905 0.0043630679 7.071068e-011 7.071068e-011 7.071068e-011 7.071068e-011
7424024024.024 0.0066380291 0.1049975 0.0030854426 -0.021023259 7.071068e-011 7.071068e-011 7.071068e-011 7.071068e-011
7432432432.4324 0.054747861 0.054248098 0.018652102 0.010435012 7.071068e-011 7.071068e-011 7.071068e-011 7.071068e-011
7440840840.8408 0.0098863151 0.042268712 -0.016146142 0.014025423 7.071068e-011 7.071068e-011 7.071068e-011 7.071068e-011
7449249249.2492 0.030164553 0.087060966 -0.0072968937 -0.019870361 7.071068e-011 7.071068e-011 7.071068e-011 7.071068e-011
7457657657.6577 0.077941313 0.049074117 0.021245265 0.00019448386 7.071068e-011 7.071068e-011 7.071068e-011 7.071068e-011
7466066066.0661 0.041839704 0.014044011 -0.0075418055 0.019915482 7.071068e-011 7.071068e-011 7.071068e-011 7.071068e-011
7474474474.4745 0.030457877 0.039237864 -0.015911955 -0.013844558 7.071068e-011 7.071068e-011 7.071068e-011 7.071068e-011
7482882882.8829 0.059806954 0.029167717 0.018633211 -0.0097720185 7.071068e-011 7.071068e-011 7.071068e-011 7.071068e-011
7491291291.2913 0.038991332 -0.013343171 0.0026134881 0.02091999 7.071068e-011 7.071068e-011 7.071068e-011 7.071068e-011
7499699699.6997 -0.0033260144 0.0023183429 -0.020342007 -0.0049482994 7.071068e-011 7.071068e-011 7.071068e-011 7.071068e-011
7508108108.1081 0.0032017704 0.03194344 0.011765799 -0.017291965 7.071068e-011 7.071068e-011 7.071068e-011 7.071068e-011
7516516516.5165 0.019414334 0.012032909 0.011960403 0.016998814 7.071068e-011 7.071068e-011 7.071068e-011 7.071068e-011
7524924924.9249 -0.026318774 0.006535253 -0.020023141 0.0050397506 7.071068e-011 7.071068e-011 7.071068e-011 7.071068e-011
7533333333.3333 -0.029898122 0.065913692 0.0025680447 -0.020481352 7.071068e-011 7.071068e-011 7.071068e-011 7.071068e-011
7541741741.7417 0.02779381 0.068983011 0.018223412 0.0095094778 7.071068e-011 7.071068e-011 7.071068e-011 7.071068e-011
7550150150.1502 0.013151948 0.020584624 -0.015227429 0.013185827 7.071068e-011 7.071068e-011 7.071068e-011 7.071068e-011
7558558558.5586 -0.0153913 0.068314552 -0.0068147941 -0.019036986 7.071068e-011 7.071068e-011 7.071068e-011 7.071068e-011
7566966966.967 0.055515237 0.078204945 0.019983998 0.0005235995 7.071068e-011 7.071068e-011 7.071068e-011 7.071068e-011
7575375375.3754 0.053708885 0.0010162212 -0.0079432316 0.018430997 7.071068e-011 7.071068e-011 7.071068e-011 7.071068e-011
7583783783.7838 -0.01186986 0.023853755 -0.014360001 -0.014096747 7.071068e-011 7.071068e-011 7.071068e-011 7.071068e-011
7592192192.1922 0.045328502 0.060687225 0.018010501 -0.008268645 7.071068e-011 7.071068e-011 7.071068e-011 7.071068e-011
7600600600.6006 0.051899046 -0.02421977 0.00083182589 0.019469589 7.071068e-011 7.071068e-011 7.071068e-011 7.071068e-011
7609009009.009 -0.037911657 -0.010966445 -0.018850982 -0.0065721008 7.071068e-011 7.071068e-011 7.071068e-011 7.071068e-011
7617417417.4174 -0.0053680222 0.05813545 0.012648395 -0.015278513 7.071068e-011 7.071068e-011 7.071068e-011 7.071068e-011
7625825825.8258 0.026501436 -0.0039158138 0.0093812328 0.017403906 7.071068e-011 7.071068e-011 7.071068e-011 7.071068e-011
7634234234.2342 -0.060518496 0.0038039787 -0.019536749 0.0024016844 7.071068e-011 7.071068e-011 7.071068e-011 7.071068e-011
7642642642.6426 -0.026797602 0.091603324 0.0050269319 -0.018874638 7.071068e-011 7.071068e-011 7.071068e-011 7.071068e-011
7651051051.0511 0.037576586 0.042683236 0.015711376 0.011730553 7.071068e-011 7.071068e-011 7.071068e-011 7.071068e-011
7659459459.4595 -0.029641798 0.018007416 -0.016788183 0.010617334 7.071068e-011 7.071068e-011 7.071068e-011 7.071068e-011
7667867867.8679 -0.011738001 0.10232171 -0.0038469555 -0.019113364 7.071068e-011 7.071068e-011 7.071068e-011 7.071068e-011
7676276276.2763 0.073801711 0.059215982 0.01906999 0.0040014004 7.071068e-011 7.071068e-011 7.071068e-011 7.071068e-011
7684684684.6847 0.021622477 -0.0039723041 -0.010800512 0.0165802 7.071068e-011 7.071068e-011 7.071068e-011 7.071068e-011
7693093093.0931 0.00053398259 0.054209437 -0.011433912 -0.01598048 7.071068e-011 7.071068e-011 7.071068e-011 7.071068e-011
7701501501.5015 0.070963666 0.032761332 0.01902152 -0.0047884402 7.071068e-011 7.071068e-011 7.071068e-011 7.071068e-011
7709909909.9099 0.023545446 -0.042484522 -0.0026492069 0.019494267 7.071068e-011 7.071068e-011 7.071068e-011 7.071068e-011
7718318318.3183 -0.033240195 0.010657335 -0.017183848 -0.0096255979 7.071068e-011 7.071068e-011 7.071068e-011 7.071068e-011
7726726726.7267 0.02425668 0.027924959 0.015462078 -0.012196861 7.071068e-011 7.071068e-011 7.071068e-011 7.071068e-011
7735135135.1351 0.0030241662 -0.041180622 0.0058949785 0.018957268 7.071068e-011 7.071068e-011 7.071068e-011 7.071068e-011
7743543543.5435 -0.074950583 -0.00043884819 -0.019519562 -0.0014992305 7.071068e-011 7.071068e-011 7.071068e-011 7.071068e-011
7751951951.952 -0.030615073 0.06434314 0.0087580327 -0.017659284 7.071068e-011 7.071068e-011 7.071068e-011 7.071068e-011
7760360360.3604 -0.0025110163 0.017630272 0.013216944 0.014678755 7.071068e-011 7.071068e-011 7.071068e-011 7.071068e-011
7768768768.7688 -0.058198988 0.028260054 -0.018590994 0.0068295151 7.071068e-011 7.071068e-011 7.071068e-011 7.071068e-011
7777177177.1772 -0.027447788 0.095504761 0.00063089794 -0.01970724 7.071068e-011 7.071068e-011 7.071068e-011 7.071068e-011
7785585585.5856 0.033887818 0.058202375 0.018102372 0.0078480933 7.071068e-011 7.071068e-011 7.071068e-011 7.071068e-011
7793993993.994 -0.005416729 0.027693046 -0.013925945 0.013656405 7.071068e-011 7.071068e-011 7.071068e-011 7.071068e-011
7802402402.4024 -0.00059195969 0.074781127 -0.0075347745 -0.018378377 7.071068e-011 7.071068e-011 7.071068e-011 7.071068e-011
7810810810.8108 0.057938714 0.049085781 0.019765161 -0.00041351505 7.071068e-011 7.071068e-011 7.071068e-011 7.071068e-011
7819219219.2192 0.026219672 -0.0064444849 -0.0071753031 0.018310973 7.071068e-011 7.071068e-011 7.071068e-011 7.071068e-011
7827627627.6276 -0.003721392 0.026663678 -0.014372502 -0.01347894 7.071068e-011 7.071068e-011 7.071068e-011 7.071068e-011
7836036036.036 0.037397079 0.025897583 0.017852671 -0.0083052609 7.071068e-011 7.071068e-011 7.071068e-011 7.071068e-011
7844444444.4444 0.016689166 -0.023736818 0.0010763707 0.019711468 7.071068e-011 7.071068e-011 7.071068e-011 7.071068e-011
7852852852.8529 -0.028290156 0.0028477323 -0.018771898 -0.0063882661 7.071068e-011 7.071068e-011 7.071068e-011 7.071068e-011
7861261261.2613 0.0015631036 0.029559517 0.012794631 -0.01501478 7.071068e-011 7.071068e-011 7.071068e-011 7.071068e-011
7869669669.6697 0.0055705858 -0.0091300132 0.0089723971 0.017568799 7.071068e-011 7.071068e-011 7.071068e-011 7.071068e-011
7878078078.0781 -0.040311575 0.0032662109 -0.019801429 0.0019229645 7.071068e-011 7.071068e-011 7.071068e-011 7.071068e-011
7886486486.4865 -0.024565741 0.046880398 0.0054206718 -0.018997734 7.071068e-011 7.071068e-011 7.071068e-011 7.071068e-011
7894894894.8949 0.010921371 0.030435901 0.015373228 0.012015237 7.071068e-011 7.071068e-011 7.071068e-011 7.071068e-011
7903303303.3033 -0.01337986 0.011037459 -0.017100863 0.0096549382 7.071068e-011 7.071068e-011 7.071068e-011 7.071068e-011
7911711711.7117 -0.017917184 0.043834396 -0.0027251863 -0.019481769 7.071068e-011 7.071068e-011 7.071068e-011 7.071068e-011
7920120120.1201 0.023013052 0.044984724 0.018877491 0.0047625653 7.071068e-011 7.071068e-011 7.071068e-011 7.071068e-011
7928528528.5285 0.023739992 0.0020076602 -0.011482901 0.015694179 7.071068e-011 7.071068e-011 7.071068e-011 7.071068e-011
7936936936.9369 -0.0099341692 0.011022059 -0.01011763 -0.016400196 7.071068e-011 7.071068e-011 7.071068e-011 7.071068e-011
7945345345.3453 0.017675795 0.032140158 0.019019697 -0.003044368 7.071068e-011 7.071068e-011 7.071068e-011 7.071068e-011
