!Keysight Technologies,N5235B,MY61252044,A.15.00.15
!Date: Friday, January 20, 2023 22:06:23
!Correction: S11(Off) 
!S21(Off) 
!S12(Off) 
!S22(Off) 
!S2P File: Measurements: S11, S21, S12, S22:
# Hz S  RI   R 50
6600000000 0.017661918 -0.17484885 0.015480735 -0.0030435461 7.071068e-011 7.071068e-011 7.071068e-011 7.071068e-011
6608408408.4084 -0.12374917 0.16643752 0.0053220484 0.010844621 7.071068e-011 7.071068e-011 7.071068e-011 7.071068e-011
6616816816.8168 0.30643943 0.091518551 -0.0089137787 0.003705879 7.071068e-011 7.071068e-011 7.071068e-011 7.071068e-011
6625225225.2252 0.023259586 -0.27287444 -0.0017940354 -0.0093102995 7.071068e-011 7.071068e-011 7.071068e-011 7.071068e-011
6633633633.6336 -0.16496289 0.16256993 0.0093402006 -0.00040233054 7.071068e-011 7.071068e-011 7.071068e-011 7.071068e-011
6642042042.042 0.29052684 0.11203051 -0.001844425 0.0093239192 7.071068e-011 7.071068e-011 7.071068e-011 7.071068e-011
6650450450.4505 0.037881628 -0.25212371 -0.010730718 -0.0040815901 7.071068e-011 7.071068e-011 7.071068e-011 7.071068e-011
6658858858.8589 -0.14789142 0.13541715 0.0059642605 -0.011501009 7.071068e-011 7.071068e-011 7.071068e-011 7.071068e-011
6667267267.2673 0.22908118 0.10045212 0.012210666 0.0091576241 7.071068e-011 7.071068e-011 7.071068e-011 7.071068e-011
6675675675.6757 0.042072378 -0.15123318 -0.011526477 0.013836094 7.071068e-011 7.071068e-011 7.071068e-011 7.071068e-011
6684084084.0841 -0.044214487 0.08474046 -0.014611238 -0.013342953 7.071068e-011 7.071068e-011 7.071068e-011 7.071068e-011
6692492492.4925 0.10612956 0.047276672 0.014818587 -0.01493523 7.071068e-011 7.071068e-011 7.071068e-011 7.071068e-011
6700900900.9009 0.085855559 0.018076772 0.014787555 0.015414576 7.071068e-011 7.071068e-011 7.071068e-011 7.071068e-011
6709309309.3093 0.076902665 -0.041806232 -0.015551051 0.013133299 7.071068e-011 7.071068e-011 7.071068e-011 7.071068e-011
6717717717.7177 -0.030992823 0.034793701 -0.010169342 -0.016481815 7.071068e-011 7.071068e-011 7.071068e-011 7.071068e-011
6726126126.1261 0.15549354 0.11585304 0.016806126 -0.0071125156 7.071068e-011 7.071068e-011 7.071068e-011 7.071068e-011
6734534534.5345 0.12793332 -0.14088789 0.003582319 0.016239025 7.071068e-011 7.071068e-011 7.071068e-011 7.071068e-011
6742942942.9429 -0.10776759 0.027449926 -0.015921816 -0.000254324 7.071068e-011 7.071068e-011 7.071068e-011 7.071068e-011
6751351351.3514 0.17218998 0.15211436 0.0035946085 -0.015384751 7.071068e-011 7.071068e-011 7.071068e-011 7.071068e-011
6759759759.7598 0.14993297 -0.17199357 0.013200569 0.0070520444 7.071068e-011 7.071068e-011 7.071068e-011 7.071068e-011
6768168168.1682 -0.14697304 -0.0045982613 -0.010845823 0.010433726 7.071068e-011 7.071068e-011 7.071068e-011 7.071068e-011
6776576576.5766 0.13486381 0.17855977 -0.0080310069 -0.013465099 7.071068e-011 7.071068e-011 7.071068e-011 7.071068e-011
6784984984.985 0.15051435 -0.14673917 0.014556898 -0.0040397896 7.071068e-011 7.071068e-011 7.071068e-011 7.071068e-011
6793393393.3934 -0.14758508 -0.0057592965 -0.00032024327 0.015526896 7.071068e-011 7.071068e-011 7.071068e-011 7.071068e-011
6801801801.8018 0.10231347 0.2024648 -0.015728444 -0.004269606 7.071068e-011 7.071068e-011 7.071068e-011 7.071068e-011
6810210210.2102 0.17191406 -0.09551385 0.0086544743 -0.014447266 7.071068e-011 7.071068e-011 7.071068e-011 7.071068e-011
6818618618.6186 -0.10558904 -0.0096539566 0.012169204 0.013218777 7.071068e-011 7.071068e-011 7.071068e-011 7.071068e-011
6827027027.027 0.088492051 0.18540363 -0.015949644 0.0092368172 7.071068e-011 7.071068e-011 7.071068e-011 7.071068e-011
6835435435.4354 0.18115143 -0.049300913 -0.0045051402 -0.017892929 7.071068e-011 7.071068e-011 7.071068e-011 7.071068e-011
6843843843.8438 -0.045738235 -0.027558012 0.020176977 0.00021385567 7.071068e-011 7.071068e-011 7.071068e-011 7.071068e-011
6852252252.2523 0.075209469 0.12929358 -0.0045498423 0.020309905 7.071068e-011 7.071068e-011 7.071068e-011 7.071068e-011
6860660660.6607 0.14495853 -0.020639881 -0.018621996 -0.0095835915 7.071068e-011 7.071068e-011 7.071068e-011 7.071068e-011
6869069069.0691 0.0039119264 -0.026791209 0.014493845 -0.016118137 7.071068e-011 7.071068e-011 7.071068e-011 7.071068e-011
6877477477.4775 0.054283049 0.072643749 0.012713206 0.018075328 7.071068e-011 7.071068e-011 7.071068e-011 7.071068e-011
6885885885.8859 0.090366624 0.0067217038 -0.020444058 0.0077360049 7.071068e-011 7.071068e-011 7.071068e-011 7.071068e-011
6894294294.2943 0.047121491 -0.00099954056 -0.0023477715 -0.022015532 7.071068e-011 7.071068e-011 7.071068e-011 7.071068e-011
6902702702.7027 0.038224053 0.019466918 0.021999838 0.0032052202 7.071068e-011 7.071068e-011 7.071068e-011 7.071068e-011
6911111111.1111 0.031095864 0.037696943 -0.008750028 0.020229246 7.071068e-011 7.071068e-011 7.071068e-011 7.071068e-011
6919519519.5195 0.078320414 0.049760159 -0.016974276 -0.013594115 7.071068e-011 7.071068e-011 7.071068e-011 7.071068e-011
6927927927.9279 0.050518785 -0.012376137 0.017221913 -0.012810446 7.071068e-011 7.071068e-011 7.071068e-011 7.071068e-011
6936336336.3363 -0.0020391047 0.062451873 0.0073055485 0.019466538 7.071068e-011 7.071068e-011 7.071068e-011 7.071068e-011
6944744744.7447 0.11264522 0.089082696 -0.020838145 0.0011868092 7.071068e-011 7.071068e-011 7.071068e-011 7.071068e-011
6953153153.1532 0.083901361 -0.045639589 0.0044478285 -0.020008959 7.071068e-011 7.071068e-011 7.071068e-011 7.071068e-011
6961561561.5616 -0.02822738 0.054888073 0.017357798 0.0099212276 7.071068e-011 7.071068e-011 7.071068e-011 7.071068e-011
6969969969.97 0.12502219 0.10557061 -0.014487819 0.013579683 7.071068e-011 7.071068e-011 7.071068e-011 7.071068e-011
6978378378.3784 0.10120283 -0.071029924 -0.0084205195 -0.017357485 7.071068e-011 7.071068e-011 7.071068e-011 7.071068e-011
6986786786.7868 -0.064055912 0.033319987 0.018730447 -0.0023182188 7.071068e-011 7.071068e-011 7.071068e-011 7.071068e-011
6995195195.1952 0.10349137 0.13361181 -0.0035135639 0.018928589 7.071068e-011 7.071068e-011 7.071068e-011 7.071068e-011
7003603603.6036 0.10840326 -0.058249988 -0.016625717 -0.0088704396 7.071068e-011 7.071068e-011 7.071068e-011 7.071068e-011
7012012012.012 -0.07276462 0.033103105 0.014094745 -0.012504005 7.071068e-011 7.071068e-011 7.071068e-011 7.071068e-011
7020420420.4204 0.08862225 0.16121377 0.0078321286 0.017312307 7.071068e-011 7.071068e-011 7.071068e-011 7.071068e-011
7028828828.8288 0.13217264 -0.029484564 -0.018525736 0.0018690237 7.071068e-011 7.071068e-011 7.071068e-011 7.071068e-011
7037237237.2372 -0.054183122 0.03129549 0.0043764785 -0.018656196 7.071068e-011 7.071068e-011 7.071068e-011 7.071068e-011
7045645645.6456 0.090635583 0.17081 0.01647079 0.009763822 7.071068e-011 7.071068e-011 7.071068e-011 7.071068e-011
7054054054.0541 0.16728349 -0.0035947738 -0.01465218 0.012078603 7.071068e-011 7.071068e-011 7.071068e-011 7.071068e-011
7062462462.4625 -0.0084474403 -0.0035124761 -0.0068796333 -0.018462511 7.071068e-011 7.071068e-011 7.071068e-011 7.071068e-011
7070870870.8709 0.07879509 0.14045022 0.019770691 -0.0012406607 7.071068e-011 7.071068e-011 7.071068e-011 7.071068e-011
7079279279.2793 0.16819985 0.0068806969 -0.005508495 0.018812064 7.071068e-011 7.071068e-011 7.071068e-011 7.071068e-011
7087687687.6877 0.03216581 -0.026669523 -0.016676227 -0.011452159 7.071068e-011 7.071068e-011 7.071068e-011 7.071068e-011
7096096096.0961 0.059892721 0.089440532 0.015916949 -0.012520736 7.071068e-011 7.071068e-011 7.071068e-011 7.071068e-011
7104504504.5045 0.14777587 0.010009889 0.0065775337 0.019127561 7.071068e-011 7.071068e-011 7.071068e-011 7.071068e-011
7112912912.9129 0.050541766 -0.044517353 -0.020646857 -7.8210716e-005 7.071068e-011 7.071068e-011 7.071068e-011 7.071068e-011
7121321321.3213 0.034588967 0.032108858 0.0062613869 -0.019861223 7.071068e-011 7.071068e-011 7.071068e-011 7.071068e-011
7129729729.7297 0.089418173 0.014254726 0.016476283 0.01204498 7.071068e-011 7.071068e-011 7.071068e-011 7.071068e-011
7138138138.1381 0.043189246 -0.037835214 -0.017162303 0.011742826 7.071068e-011 7.071068e-011 7.071068e-011 7.071068e-011
7146546546.5465 -0.00049475464 0.013820867 -0.0058970349 -0.020110561 7.071068e-011 7.071068e-011 7.071068e-011 7.071068e-011
7154954954.955 0.030824708 0.04125594 0.02080966 0.00080745236 7.071068e-011 7.071068e-011 7.071068e-011 7.071068e-011
7163363363.3634 0.044855673 0.015593926 -0.0076145162 0.019122405 7.071068e-011 7.071068e-011 7.071068e-011 7.071068e-011
7171771771.7718 0.0010761247 0.020395553 -0.015781691 -0.013442538 7.071068e-011 7.071068e-011 7.071068e-011 7.071068e-011
7180180180.1802 0.018615445 0.07259582 0.017600533 -0.010433927 7.071068e-011 7.071068e-011 7.071068e-011 7.071068e-011
7188588588.5886 0.06780155 0.055965602 0.003932457 0.02044468 7.071068e-011 7.071068e-011 7.071068e-011 7.071068e-011
7196996996.997 0.039661929 0.010145403 -0.020618649 -0.00269079 7.071068e-011 7.071068e-011 7.071068e-011 7.071068e-011
7205405405.4054 0.012407063 0.067320265 0.0095066894 -0.018022401 7.071068e-011 7.071068e-011 7.071068e-011 7.071068e-011
7213813813.8138 0.083354183 0.067047276 0.013886695 0.015159494 7.071068e-011 7.071068e-011 7.071068e-011 7.071068e-011
7222222222.2222 0.065975256 -0.0055621942 -0.018971192 0.0082694478 7.071068e-011 7.071068e-011 7.071068e-011 7.071068e-011
7230630630.6306 -0.0012928561 0.035391979 -0.0014859178 -0.020494381 7.071068e-011 7.071068e-011 7.071068e-011 7.071068e-011
7239039039.039 0.071766973 0.075465098 0.019971881 0.005800426 7.071068e-011 7.071068e-011 7.071068e-011 7.071068e-011
7247447447.4474 0.07504186 -0.014979359 -0.011976682 0.017011946 7.071068e-011 7.071068e-011 7.071068e-011 7.071068e-011
7255855855.8559 -0.016689053 0.0076142908 -0.011641137 -0.016994443 7.071068e-011 7.071068e-011 7.071068e-011 7.071068e-011
7264264264.2643 0.035177812 0.084035121 0.020112494 -0.005401168 7.071068e-011 7.071068e-011 7.071068e-011 7.071068e-011
7272672672.6727 0.074235827 0.00037040986 -0.0014691585 0.020545313 7.071068e-011 7.071068e-011 7.071068e-011 7.071068e-011
7281081081.0811 -0.030057156 0.0010484576 -0.018749474 -0.0084074186 7.071068e-011 7.071068e-011 7.071068e-011 7.071068e-011
7289489489.4895 0.00028937866 0.10768794 0.014665761 -0.014657408 7.071068e-011 7.071068e-011 7.071068e-011 7.071068e-011
7297897897.8979 0.084943965 0.050335918 0.0088525135 0.018809766 7.071068e-011 7.071068e-011 7.071068e-011 7.071068e-011
7306306306.3063 0.00078860694 0.0090090465 -0.020579005 0.0016306777 7.071068e-011 7.071068e-011 7.071068e-011 7.071068e-011
7314714714.7147 0.0043399441 0.11299282 0.0053494354 -0.020309445 7.071068e-011 7.071068e-011 7.071068e-011 7.071068e-011
7323123123.1231 0.11276225 0.075065009 0.017040875 0.01169535 7.071068e-011 7.071068e-011 7.071068e-011 7.071068e-011
7331531531.5315 0.050905727 -0.011800583 -0.017301308 0.011760575 7.071068e-011 7.071068e-011 7.071068e-011 7.071068e-011
7339939939.9399 0.0080753174 0.06892883 -0.0053730975 -0.02054254 7.071068e-011 7.071068e-011 7.071068e-011 7.071068e-011
7348348348.3483 0.10565803 0.063420869 0.020929866 0.0018743825 7.071068e-011 7.071068e-011 7.071068e-011 7.071068e-011
7356756756.7568 0.06586358 -0.037045714 -0.0091575673 0.018815706 7.071068e-011 7.071068e-011 7.071068e-011 7.071068e-011
7365165165.1652 -0.010177042 0.021166427 -0.014783306 -0.015159625 7.071068e-011 7.071068e-011 7.071068e-011 7.071068e-011
7373573573.5736 0.061781593 0.049680676 0.018995423 -0.0086163264 7.071068e-011 7.071068e-011 7.071068e-011 7.071068e-011
7381981981.982 0.043740757 -0.035529416 0.0011243365 0.021123501 7.071068e-011 7.071068e-011 7.071068e-011 7.071068e-011
7390390390.3904 -0.043138139 0.009922957 -0.020355502 -0.0061083143 7.071068e-011 7.071068e-011 7.071068e-011 7.071068e-011
7398798798.7988 0.013226045 0.071161099 0.012849986 -0.016738242 7.071068e-011 7.071068e-011 7.071068e-011 7.071068e-011
7407207207.2072 0.02778489 0.0096429121 0.011241777 0.017955691 7.071068e-011 7.071068e-011 7.071068e-011 7.071068e-011
7415615615.6156 -0.041044645 0.035550542 -0.020866502 0.0044448758 7.071068e-011 7.071068e-011 7.071068e-011 7.071068e-011
7424024024.024 0.0069685034 0.10502415 0.0030027761 -0.021051873 7.071068e-011 7.071068e-011 7.071068e-011 7.071068e-011
7432432432.4324 0.054652225 0.053952005 0.018708851 0.010368425 7.071068e-011 7.071068e-011 7.071068e-011 7.071068e-011
7440840840.8408 0.0096633369 0.042452678 -0.01610329 0.014101206 7.071068e-011 7.071068e-011 7.071068e-011 7.071068e-011
7449249249.2492 0.030390661 0.087193042 -0.0073852646 -0.019854477 7.071068e-011 7.071068e-011 7.071068e-011 7.071068e-011
7457657657.6577 0.077971421 0.048841078 0.021262983 0.00011177819 7.071068e-011 7.071068e-011 7.071068e-011 7.071068e-011
7466066066.0661 0.041622445 0.014104303 -0.0074672117 0.019960809 7.071068e-011 7.071068e-011 7.071068e-011 7.071068e-011
7474474474.4745 0.030572219 0.039429087 -0.015980985 -0.013790934 7.071068e-011 7.071068e-011 7.071068e-011 7.071068e-011
7482882882.8829 0.059951439 0.029021993 0.018609267 -0.0098525882 7.071068e-011 7.071068e-011 7.071068e-011 7.071068e-011
7491291291.2913 0.038816746 -0.013424814 0.0027013891 0.020927591 7.071068e-011 7.071068e-011 7.071068e-011 7.071068e-011
7499699699.6997 -0.0033523571 0.0025065104 -0.020380462 -0.0048700618 7.071068e-011 7.071068e-011 7.071068e-011 7.071068e-011
7508108108.1081 0.0034063745 0.03194515 0.011707839 -0.017354315 7.071068e-011 7.071068e-011 7.071068e-011 7.071068e-011
7516516516.5165 0.019363768 0.011821245 0.012039363 0.016964301 7.071068e-011 7.071068e-011 7.071068e-011 7.071068e-011
7524924924.9249 -0.026509322 0.0066637876 -0.02002115 0.0051268218 7.071068e-011 7.071068e-011 7.071068e-011 7.071068e-011
7533333333.3333 -0.029702749 0.066068299 0.0024896569 -0.020510722 7.071068e-011 7.071068e-011 7.071068e-011 7.071068e-011
7541741741.7417 0.027894476 0.068730526 0.018278828 0.0094433026 7.071068e-011 7.071068e-011 7.071068e-011 7.071068e-011
7550150150.1502 0.012845597 0.020581 -0.01518794 0.013259655 7.071068e-011 7.071068e-011 7.071068e-011 7.071068e-011
7558558558.5586 -0.015278303 0.068612725 -0.0068968893 -0.019026957 7.071068e-011 7.071068e-011 7.071068e-011 7.071068e-011
7566966966.967 0.055748414 0.077992782 0.020004883 0.00044281958 7.071068e-011 7.071068e-011 7.071068e-011 7.071068e-011
7575375375.3754 0.053401694 0.00087311538 -0.0078740036 0.018479574 7.071068e-011 7.071068e-011 7.071068e-011 7.071068e-011
7583783783.7838 -0.01189315 0.02422658 -0.014429777 -0.014051735 7.071068e-011 7.071068e-011 7.071068e-011 7.071068e-011
7592192192.1922 0.045685645 0.06056105 0.01799429 -0.0083538117 7.071068e-011 7.071068e-011 7.071068e-011 7.071068e-011
7600600600.6006 0.051629346 -0.024481682 0.0009135158 0.019483564 7.071068e-011 7.071068e-011 7.071068e-011 7.071068e-011
7609009009.009 -0.038044214 -0.010591925 -0.018894278 -0.0065021622 7.071068e-011 7.071068e-011 7.071068e-011 7.071068e-011
7617417417.4174 -0.004955302 0.058123063 0.012595815 -0.015344295 7.071068e-011 7.071068e-011 7.071068e-011 7.071068e-011
7625825825.8258 0.026317064 -0.0042871782 0.0094652111 0.017381236 7.071068e-011 7.071068e-011 7.071068e-011 7.071068e-011
7634234234.2342 -0.06078054 0.0041421815 -0.019545939 0.0024838336 7.071068e-011 7.071068e-011 7.071068e-011 7.071068e-011
7642642642.6426 -0.026394172 0.091714717 0.0049532196 -0.018912129 7.071068e-011 7.071068e-011 7.071068e-011 7.071068e-011
7651051051.0511 0.037518475 0.042269152 0.015776023 0.011672341 7.071068e-011 7.071068e-011 7.071068e-011 7.071068e-011
7659459459.4595 -0.030006515 0.018235695 -0.016757157 0.010698729 7.071068e-011 7.071068e-011 7.071068e-011 7.071068e-011
7667867867.8679 -0.011393296 0.10256889 -0.0039281333 -0.019113751 7.071068e-011 7.071068e-011 7.071068e-011 7.071068e-011
7676276276.2763 0.073880121 0.058818132 0.019102257 0.0039227377 7.071068e-011 7.071068e-011 7.071068e-011 7.071068e-011
7684684684.6847 0.021225074 -0.003879986 -0.010737711 0.016639667 7.071068e-011 7.071068e-011 7.071068e-011 7.071068e-011
7693093093.0931 0.00075919885 0.054546017 -0.011509756 -0.015947752 7.071068e-011 7.071068e-011 7.071068e-011 7.071068e-011
7701501501.5015 0.071175501 0.032442182 0.019018542 -0.0048747752 7.071068e-011 7.071068e-011 7.071068e-011 7.071068e-011
7709909909.9099 0.023168469 -0.042533923 -0.0025684086 0.019522807 7.071068e-011 7.071068e-011 7.071068e-011 7.071068e-011
7718318318.3183 -0.033141054 0.011044459 -0.017238613 -0.0095601417 7.071068e-011 7.071068e-011 7.071068e-011 7.071068e-011
7726726726.7267 0.024572855 0.027709089 0.015424408 -0.012276939 7.071068e-011 7.071068e-011 7.071068e-011 7.071068e-011
7735135135.1351 0.0027152998 -0.041386422 0.0059803193 0.018949712 7.071068e-011 7.071068e-011 7.071068e-011 7.071068e-011
7743543543.5435 -0.07503321 -6.5829503e-005 -0.019542454 -0.001417 7.071068e-011 7.071068e-011 7.071068e-011 7.071068e-011
7751951951.952 -0.03024332 0.064291805 0.008689397 -0.017714761 7.071068e-011 7.071068e-011 7.071068e-011 7.071068e-011
7760360360.3604 -0.0026847646 0.017318364 0.013292314 0.014635866 7.071068e-011 7.071068e-011 7.071068e-011 7.071068e-011
7768768768.7688 -0.058420956 0.028511049 -0.018577021 0.0069163069 7.071068e-011 7.071068e-011 7.071068e-011 7.071068e-011
7777177177.1772 -0.027141338 0.095620923 0.00054505025 -0.019731395 7.071068e-011 7.071068e-011 7.071068e-011 7.071068e-011
7785585585.5856 0.033861563 0.057883564 0.018155152 0.0077791563 7.071068e-011 7.071068e-011 7.071068e-011 7.071068e-011
7793993993.994 -0.0057016201 0.027837571 -0.013879332 0.013732888 7.071068e-011 7.071068e-011 7.071068e-011 7.071068e-011
7802402402.4024 -0.00037427287 0.074996352 -0.0076229945 -0.018362094 7.071068e-011 7.071068e-011 7.071068e-011 7.071068e-011
7810810810.8108 0.058048185 0.048815832 0.019783283 -0.00049708947 7.071068e-011 7.071068e-011 7.071068e-011 7.071068e-011
7819219219.2192 0.025919393 -0.0064287852 -0.0070990603 0.018361639 7.071068e-011 7.071068e-011 7.071068e-011 7.071068e-011
7827627627.6276 -0.0036169461 0.026939427 -0.014448193 -0.01342558 7.071068e-011 7.071068e-011 7.071068e-011 7.071068e-011
7836036036.036 0.037594076 0.025723746 0.017830931 -0.0083884662 7.071068e-011 7.071068e-011 7.071068e-011 7.071068e-011
7844444444.4444 0.016456082 -0.023838812 0.0011664378 0.019723244 7.071068e-011 7.071068e-011 7.071068e-011 7.071068e-011
7852852852.8529 -0.028301481 0.0031117143 -0.01881741 -0.0063062692 7.071068e-011 7.071068e-011 7.071068e-011 7.071068e-011
7861261261.2613 0.0018111623 0.029488321 0.012740548 -0.015082242 7.071068e-011 7.071068e-011 7.071068e-011 7.071068e-011
7869669669.6697 0.0054270895 -0.0093297176 0.0090582659 0.017541785 7.071068e-011 7.071068e-011 7.071068e-011 7.071068e-011
7878078078.0781 -0.040444657 0.0034708325 -0.019808235 0.002015003 7.071068e-011 7.071068e-011 7.071068e-011 7.071068e-011
7886486486.4865 -0.024340227 0.046954185 0.005340769 -0.019037645 7.071068e-011 7.071068e-011 7.071068e-011 7.071068e-011
7894894894.8949 0.010929872 0.030203912 0.015440646 0.011956584 7.071068e-011 7.071068e-011 7.071068e-011 7.071068e-011
7903303303.3033 -0.013598326 0.011098028 -0.017071782 0.0097432788 7.071068e-011 7.071068e-011 7.071068e-011 7.071068e-011
7911711711.7117 -0.017813329 0.044028714 -0.0028150941 -0.019486986 7.071068e-011 7.071068e-011 7.071068e-011 7.071068e-011
7920120120.1201 0.023163194 0.044832945 0.018917371 0.0046818634 7.071068e-011 7.071068e-011 7.071068e-011 7.071068e-011
7928528528.5285 0.023529897 0.0019150366 -0.011420446 0.015761487 7.071068e-011 7.071068e-011 7.071068e-011 7.071068e-011
7936936936.9369 -0.0099706762 0.011271887 -0.010200121 -0.016365934 7.071068e-011 7.071068e-011 7.071068e-011 7.071068e-011
7945345345.3453 0.017927153 0.032103822 0.019023206 -0.0031347403 7.071068e-011 7.071068e-011 7.071068e-011 7.071068e-011
