!Keysight Technologies,N5235B,MY61252044,A.15.00.15
!Date: Friday, January 20, 2023 19:05:14
!Correction: S11(Off) 
!S21(Off) 
!S12(Off) 
!S22(Off) 
!S2P File: Measurements: S11, S21, S12, S22:
# Hz S  RI   R 50
6600000000 0.016925948 -0.17441958 0.014908366 -0.0052211359 7.071068e-011 7.071068e-011 7.071068e-011 7.071068e-011
6608400000 -0.12356064 0.16662031 0.0067786057 0.010016344 7.071068e-011 7.071068e-011 7.071068e-011 7.071068e-011
6616800000 0.30685449 0.091639638 -0.0083277747 0.004872418 7.071068e-011 7.071068e-011 7.071068e-011 7.071068e-011
6625200000 0.02365076 -0.27298042 -0.0029940302 -0.0089938035 7.071068e-011 7.071068e-011 7.071068e-011 7.071068e-011
6633600000 -0.16578539 0.16151185 0.0092107747 -0.0015874096 7.071068e-011 7.071068e-011 7.071068e-011 7.071068e-011
6642000000 0.29031187 0.11394496 -0.00068037579 0.0094607919 7.071068e-011 7.071068e-011 7.071068e-011 7.071068e-011
6650400000 0.039714638 -0.25274539 -0.011134895 -0.0028055348 7.071068e-011 7.071068e-011 7.071068e-011 7.071068e-011
6658800000 -0.14916447 0.13342613 0.0046075401 -0.012104481 7.071068e-011 7.071068e-011 7.071068e-011 7.071068e-011
6667200000 0.22806063 0.10348703 0.013086973 0.0077437097 7.071068e-011 7.071068e-011 7.071068e-011 7.071068e-011
6675600000 0.044476945 -0.15273018 -0.010049502 0.014890043 7.071068e-011 7.071068e-011 7.071068e-011 7.071068e-011
6684000000 -0.04539866 0.084129013 -0.015871357 -0.011864835 7.071068e-011 7.071068e-011 7.071068e-011 7.071068e-011
6692400000 0.1054645 0.04854488 0.013295889 -0.016283527 7.071068e-011 7.071068e-011 7.071068e-011 7.071068e-011
6700800000 0.086085521 0.017148253 0.016065871 0.014020313 7.071068e-011 7.071068e-011 7.071068e-011 7.071068e-011
6709200000 0.077878088 -0.039999414 -0.014426501 0.014424055 7.071068e-011 7.071068e-011 7.071068e-011 7.071068e-011
6717600000 -0.031327132 0.031791527 -0.011526679 -0.01561421 7.071068e-011 7.071068e-011 7.071068e-011 7.071068e-011
6726000000 0.15292646 0.11794964 0.016188923 -0.0084268823 7.071068e-011 7.071068e-011 7.071068e-011 7.071068e-011
6734400000 0.13178931 -0.13854969 0.0048081405 0.015935378 7.071068e-011 7.071068e-011 7.071068e-011 7.071068e-011
6742800000 -0.10805163 0.021777036 -0.01592263 0.00089497375 7.071068e-011 7.071068e-011 7.071068e-011 7.071068e-011
6751200000 0.16730389 0.15575847 0.002567926 -0.015617874 7.071068e-011 7.071068e-011 7.071068e-011 7.071068e-011
6759600000 0.15590461 -0.1687067 0.013637342 0.0062219435 7.071068e-011 7.071068e-011 7.071068e-011 7.071068e-011
6768000000 -0.14680235 -0.01203073 -0.010210736 0.011042842 7.071068e-011 7.071068e-011 7.071068e-011 7.071068e-011
6776400000 0.12854648 0.18191564 -0.0087392218 -0.013017587 7.071068e-011 7.071068e-011 7.071068e-011 7.071068e-011
6784800000 0.15674099 -0.14205803 0.014323547 -0.0047797593 7.071068e-011 7.071068e-011 7.071068e-011 7.071068e-011
6793200000 -0.14654249 -0.01461775 0.00040612437 0.015501598 7.071068e-011 7.071068e-011 7.071068e-011 7.071068e-011
6801600000 0.094836548 0.20572235 -0.015911361 -0.0036335967 7.071068e-011 7.071068e-011 7.071068e-011 7.071068e-011
6810000000 0.17718305 -0.090229861 0.0081216553 -0.014786428 7.071068e-011 7.071068e-011 7.071068e-011 7.071068e-011
6818400000 -0.10289374 -0.017904149 0.012558038 0.012786506 7.071068e-011 7.071068e-011 7.071068e-011 7.071068e-011
6826800000 0.08028812 0.18790713 -0.015647717 0.0096580861 7.071068e-011 7.071068e-011 7.071068e-011 7.071068e-011
6835200000 0.18567057 -0.044248868 -0.0049510361 -0.017765712 7.071068e-011 7.071068e-011 7.071068e-011 7.071068e-011
6843600000 -0.042485293 -0.033288673 0.020177288 -0.00017574606 7.071068e-011 7.071068e-011 7.071068e-011 7.071068e-011
6852000000 0.068416208 0.13007507 -0.004233384 0.02038803 7.071068e-011 7.071068e-011 7.071068e-011 7.071068e-011
6860400000 0.14845417 -0.016473573 -0.018708782 -0.0093592517 7.071068e-011 7.071068e-011 7.071068e-011 7.071068e-011
6868800000 0.0060685659 -0.030242763 0.014386416 -0.01619515 7.071068e-011 7.071068e-011 7.071068e-011 7.071068e-011
6877200000 0.050715558 0.072497055 0.01276513 0.018068627 7.071068e-011 7.071068e-011 7.071068e-011 7.071068e-011
6885600000 0.09194494 0.0087886406 -0.02045615 0.0077447076 7.071068e-011 7.071068e-011 7.071068e-011 7.071068e-011
6894000000 0.047727529 -0.0018301528 -0.0022237035 -0.022043515 7.071068e-011 7.071068e-011 7.071068e-011 7.071068e-011
6902400000 0.038350292 0.019246681 0.021997662 0.0034399524 7.071068e-011 7.071068e-011 7.071068e-011 7.071068e-011
6910800000 0.030915854 0.036182202 -0.0090417415 0.020135153 7.071068e-011 7.071068e-011 7.071068e-011 7.071068e-011
6919200000 0.076554276 0.051531237 -0.016753245 -0.013893559 7.071068e-011 7.071068e-011 7.071068e-011 7.071068e-011
6927600000 0.053674463 -0.011684967 0.017540151 -0.012467477 7.071068e-011 7.071068e-011 7.071068e-011 7.071068e-011
6936000000 -0.0031342343 0.05767855 0.0068468116 0.019692518 7.071068e-011 7.071068e-011 7.071068e-011 7.071068e-011
6944400000 0.10801674 0.093256123 -0.0208892 0.00055225764 7.071068e-011 7.071068e-011 7.071068e-011 7.071068e-011
6952800000 0.09020409 -0.043332461 0.0051304032 -0.019875335 7.071068e-011 7.071068e-011 7.071068e-011 7.071068e-011
6961200000 -0.029098641 0.047516249 0.017000474 0.010575848 7.071068e-011 7.071068e-011 7.071068e-011 7.071068e-011
6969600000 0.11794819 0.110655 -0.015083492 0.012972633 7.071068e-011 7.071068e-011 7.071068e-011 7.071068e-011
6978000000 0.11000695 -0.066616707 -0.0076701366 -0.01774611 7.071068e-011 7.071068e-011 7.071068e-011 7.071068e-011
6986400000 -0.063906074 0.023193974 0.018831782 -0.0014400734 7.071068e-011 7.071068e-011 7.071068e-011 7.071068e-011
6994800000 0.094379939 0.13787791 -0.0045641554 0.018751485 7.071068e-011 7.071068e-011 7.071068e-011 7.071068e-011
7003200000 0.11726889 -0.051667314 -0.016141631 -0.0098688779 7.071068e-011 7.071068e-011 7.071068e-011 7.071068e-011
7011600000 -0.07133013 0.021236956 0.014819349 -0.011615507 7.071068e-011 7.071068e-011 7.071068e-011 7.071068e-011
7020000000 0.077957243 0.16484174 0.0066850083 0.01779229 7.071068e-011 7.071068e-011 7.071068e-011 7.071068e-011
7028400000 0.13976347 -0.021462139 -0.018632775 0.00061002601 7.071068e-011 7.071068e-011 7.071068e-011 7.071068e-011
7036800000 -0.050876249 0.019637778 0.0057657668 -0.018286182 7.071068e-011 7.071068e-011 7.071068e-011 7.071068e-011
7045200000 0.078765497 0.17308308 0.01569397 0.01104098 7.071068e-011 7.071068e-011 7.071068e-011 7.071068e-011
7053600000 0.17297556 0.0060204705 -0.015583999 0.010858593 7.071068e-011 7.071068e-011 7.071068e-011 7.071068e-011
7062000000 -0.0027046064 -0.012700859 -0.0052383705 -0.01899193 7.071068e-011 7.071068e-011 7.071068e-011 7.071068e-011
7070400000 0.068234541 0.14020944 0.019855341 0.00055952772 7.071068e-011 7.071068e-011 7.071068e-011 7.071068e-011
7078800000 0.17135215 0.016133653 -0.0072035948 0.01819716 7.071068e-011 7.071068e-011 7.071068e-011 7.071068e-011
7087200000 0.038831115 -0.032431841 -0.015440849 -0.01306338 7.071068e-011 7.071068e-011 7.071068e-011 7.071068e-011
7095600000 0.052033454 0.087309681 0.017178124 -0.010843249 7.071068e-011 7.071068e-011 7.071068e-011 7.071068e-011
7104000000 0.14881682 0.017464167 0.0045167184 0.019757845 7.071068e-011 7.071068e-011 7.071068e-011 7.071068e-011
7112400000 0.056773417 -0.046494111 -0.020487851 -0.002352501 7.071068e-011 7.071068e-011 7.071068e-011 7.071068e-011
7120800000 0.030919731 0.028360836 0.0085335933 -0.019011203 7.071068e-011 7.071068e-011 7.071068e-011 7.071068e-011
7129200000 0.089022502 0.018893417 0.014962642 0.013929215 7.071068e-011 7.071068e-011 7.071068e-011 7.071068e-011
7137600000 0.047508333 -0.037959609 -0.018518666 0.0095411018 7.071068e-011 7.071068e-011 7.071068e-011 7.071068e-011
7146000000 -0.00012522857 0.0096135102 -0.0033038009 -0.020751096 7.071068e-011 7.071068e-011 7.071068e-011 7.071068e-011
7154400000 0.028091757 0.04195356 0.020524407 0.003522923 7.071068e-011 7.071068e-011 7.071068e-011 7.071068e-011
7162800000 0.046310343 0.017140515 -0.010119564 0.01790503 7.071068e-011 7.071068e-011 7.071068e-011 7.071068e-011
7171200000 0.0033690361 0.01786511 -0.013763587 -0.015554287 7.071068e-011 7.071068e-011 7.071068e-011 7.071068e-011
7179600000 0.014799159 0.07015837 0.018985903 -0.0078788325 7.071068e-011 7.071068e-011 7.071068e-011 7.071068e-011
7188000000 0.066360034 0.059856445 0.00087006803 0.020808332 7.071068e-011 7.071068e-011 7.071068e-011 7.071068e-011
7196400000 0.043875065 0.010308363 -0.019988013 -0.0058273277 7.071068e-011 7.071068e-011 7.071068e-011 7.071068e-011
7204800000 0.010080225 0.062536366 0.012162422 -0.016324736 7.071068e-011 7.071068e-011 7.071068e-011 7.071068e-011
7213200000 0.07902281 0.071584634 0.011317331 0.017189123 7.071068e-011 7.071068e-011 7.071068e-011 7.071068e-011
7221600000 0.071833178 -0.0026705079 -0.020123307 0.0050930786 7.071068e-011 7.071068e-011 7.071068e-011 7.071068e-011
7230000000 -0.00081655558 0.028688185 0.0019351048 -0.020517584 7.071068e-011 7.071068e-011 7.071068e-011 7.071068e-011
7238400000 0.064912163 0.078652166 0.018658642 0.0091571677 7.071068e-011 7.071068e-011 7.071068e-011 7.071068e-011
7246800000 0.081076778 -0.0094033377 -0.014831169 0.01463014 7.071068e-011 7.071068e-011 7.071068e-011 7.071068e-011
7255200000 -0.012920136 7.5677912e-005 -0.0084213931 -0.018791039 7.071068e-011 7.071068e-011 7.071068e-011 7.071068e-011
7263600000 0.02686929 0.084008113 0.020770382 -0.0016278345 7.071068e-011 7.071068e-011 7.071068e-011 7.071068e-011
7272000000 0.078663088 0.0080694696 -0.0052694469 0.019963305 7.071068e-011 7.071068e-011 7.071068e-011 7.071068e-011
7280400000 -0.02355548 -0.0063183727 -0.016849043 -0.011866954 7.071068e-011 7.071068e-011 7.071068e-011 7.071068e-011
7288800000 -0.00893592 0.10322006 0.017260756 -0.011473341 7.071068e-011 7.071068e-011 7.071068e-011 7.071068e-011
7297200000 0.084911346 0.059800159 0.0048944587 0.02021208 7.071068e-011 7.071068e-011 7.071068e-011 7.071068e-011
7305600000 0.0086668953 0.0044945348 -0.020472789 -0.00254041 7.071068e-011 7.071068e-011 7.071068e-011 7.071068e-011
7314000000 -0.0039174343 0.10617187 0.0094595421 -0.018782165 7.071068e-011 7.071068e-011 7.071068e-011 7.071068e-011
7322400000 0.10861486 0.085631326 0.01425378 0.015038121 7.071068e-011 7.071068e-011 7.071068e-011 7.071068e-011
7330800000 0.060458239 -0.011676154 -0.019417655 0.0076959901 7.071068e-011 7.071068e-011 7.071068e-011 7.071068e-011
7339200000 0.003990714 0.060677435 -0.00066452549 -0.021254502 7.071068e-011 7.071068e-011 7.071068e-011 7.071068e-011
7347600000 0.099177055 0.072245285 0.020014562 0.0064999289 7.071068e-011 7.071068e-011 7.071068e-011 7.071068e-011
7356000000 0.076075606 -0.033674769 -0.013124942 0.016225599 7.071068e-011 7.071068e-011 7.071068e-011 7.071068e-011
7364400000 -0.010159831 0.012434646 -0.010840556 -0.018196834 7.071068e-011 7.071068e-011 7.071068e-011 7.071068e-011
7372800000 0.054666843 0.054704782 0.020579608 -0.0039442042 7.071068e-011 7.071068e-011 7.071068e-011 7.071068e-011
7381200000 0.052937325 -0.030827422 -0.0039692591 0.02076599 7.071068e-011 7.071068e-011 7.071068e-011 7.071068e-011
7389600000 -0.040786989 0.00050451362 -0.018236415 -0.010891343 7.071068e-011 7.071068e-011 7.071068e-011 7.071068e-011
7398000000 0.0053725084 0.072006151 0.016560119 -0.013004989 7.071068e-011 7.071068e-011 7.071068e-011 7.071068e-011
7406400000 0.033093952 0.01497053 0.0063748271 0.020217834 7.071068e-011 7.071068e-011 7.071068e-011 7.071068e-011
7414800000 -0.038057368 0.027166942 -0.021338336 -0.0010416425 7.071068e-011 7.071068e-011 7.071068e-011 7.071068e-011
7423200000 -0.0017479945 0.10365853 0.0083616367 -0.019576337 7.071068e-011 7.071068e-011 7.071068e-011 7.071068e-011
7431600000 0.055606917 0.06058624 0.015258043 0.01491468 7.071068e-011 7.071068e-011 7.071068e-011 7.071068e-011
7440000000 0.013289256 0.038426679 -0.019333787 0.0092463614 7.071068e-011 7.071068e-011 7.071068e-011 7.071068e-011
7448400000 0.02413433 0.085552 -0.0017370714 -0.021118395 7.071068e-011 7.071068e-011 7.071068e-011 7.071068e-011
7456800000 0.077380463 0.055419333 0.02040394 0.0059474469 7.071068e-011 7.071068e-011 7.071068e-011 7.071068e-011
7465200000 0.046188794 0.013912445 -0.012763097 0.017077237 7.071068e-011 7.071068e-011 7.071068e-011 7.071068e-011
7473600000 0.028490609 0.036901735 -0.011422499 -0.01779451 7.071068e-011 7.071068e-011 7.071068e-011 7.071068e-011
7482000000 0.058388386 0.033314198 0.020652987 -0.0040642521 7.071068e-011 7.071068e-011 7.071068e-011 7.071068e-011
7490400000 0.043632634 -0.010893276 -0.0035251118 0.020811319 7.071068e-011 7.071068e-011 7.071068e-011 7.071068e-011
7498800000 -0.00077087351 -0.0014854935 -0.018036067 -0.010641593 7.071068e-011 7.071068e-011 7.071068e-011 7.071068e-011
7507200000 0.0005266192 0.030865625 0.016364357 -0.01305131 7.071068e-011 7.071068e-011 7.071068e-011 7.071068e-011
7515600000 0.020608442 0.015440928 0.0063125351 0.019828852 7.071068e-011 7.071068e-011 7.071068e-011 7.071068e-011
7524000000 -0.020952938 0.0030901621 -0.020656139 -0.0012960412 7.071068e-011 7.071068e-011 7.071068e-011 7.071068e-011
7532400000 -0.03422625 0.060042478 0.0087282304 -0.018707048 7.071068e-011 7.071068e-011 7.071068e-011 7.071068e-011
7540800000 0.022791808 0.073296718 0.014387964 0.014729844 7.071068e-011 7.071068e-011 7.071068e-011 7.071068e-011
7549200000 0.019514786 0.022302637 -0.018577795 0.0077684619 7.071068e-011 7.071068e-011 7.071068e-011 7.071068e-011
7557600000 -0.018414617 0.061040513 -0.00035921478 -0.020250354 7.071068e-011 7.071068e-011 7.071068e-011 7.071068e-011
7566000000 0.047859602 0.083555482 0.018842004 0.0069601806 7.071068e-011 7.071068e-011 7.071068e-011 7.071068e-011
7574400000 0.060926467 0.0079121804 -0.013526882 0.014840513 7.071068e-011 7.071068e-011 7.071068e-011 7.071068e-011
7582800000 -0.009866924 0.015314041 -0.0088678161 -0.018015031 7.071068e-011 7.071068e-011 7.071068e-011 7.071068e-011
7591200000 0.036568362 0.064416923 0.019740269 -0.0017776437 7.071068e-011 7.071068e-011 7.071068e-011 7.071068e-011
7599600000 0.059282534 -0.015043963 -0.0057304166 0.018660706 7.071068e-011 7.071068e-011 7.071068e-011 7.071068e-011
7608000000 -0.031035736 -0.02060839 -0.015450922 -0.012654335 7.071068e-011 7.071068e-011 7.071068e-011 7.071068e-011
7616400000 -0.01496011 0.056794949 0.017213142 -0.010008152 7.071068e-011 7.071068e-011 7.071068e-011 7.071068e-011
7624800000 0.031499177 0.0050392267 0.0026782413 0.019553214 7.071068e-011 7.071068e-011 7.071068e-011 7.071068e-011
7633200000 -0.052672394 -0.006193975 -0.019121587 -0.0046824026 7.071068e-011 7.071068e-011 7.071068e-011 7.071068e-011
7641600000 -0.038328044 0.0867953 0.011421558 -0.015854159 7.071068e-011 7.071068e-011 7.071068e-011 7.071068e-011
7650000000 0.03771456 0.053191107 0.01045663 0.016604697 7.071068e-011 7.071068e-011 7.071068e-011 7.071068e-011
7658400000 -0.020849792 0.011648714 -0.019538647 0.0037346417 7.071068e-011 7.071068e-011 7.071068e-011 7.071068e-011
7666800000 -0.022874733 0.095814638 0.0034811466 -0.019254006 7.071068e-011 7.071068e-011 7.071068e-011 7.071068e-011
7675200000 0.069659896 0.071709752 0.016138578 0.010779402 7.071068e-011 7.071068e-011 7.071068e-011 7.071068e-011
7683600000 0.03194844 -0.0041359854 -0.016273027 0.011232661 7.071068e-011 7.071068e-011 7.071068e-011 7.071068e-011
7692000000 -0.0052576638 0.046961628 -0.0045344504 -0.019139893 7.071068e-011 7.071068e-011 7.071068e-011 7.071068e-011
7700400000 0.065760918 0.04379113 0.019430617 0.0028554774 7.071068e-011 7.071068e-011 7.071068e-011 7.071068e-011
7708800000 0.035653662 -0.039724082 -0.010008967 0.016921088 7.071068e-011 7.071068e-011 7.071068e-011 7.071068e-011
7717200000 -0.0336418 0.00069296465 -0.012006137 -0.015644528 7.071068e-011 7.071068e-011 7.071068e-011 7.071068e-011
7725600000 0.016828556 0.033830721 0.018995615 -0.0050942539 7.071068e-011 7.071068e-011 7.071068e-011 7.071068e-011
7734000000 0.01410862 -0.035626344 -0.0021702859 0.01974462 7.071068e-011 7.071068e-011 7.071068e-011 7.071068e-011
7742400000 -0.070772976 -0.012292894 -0.017286982 -0.0091963382 7.071068e-011 7.071068e-011 7.071068e-011 7.071068e-011
7750800000 -0.040578328 0.062488969 0.015234062 -0.012530786 7.071068e-011 7.071068e-011 7.071068e-011 7.071068e-011
7759200000 0.0015386152 0.02526653 0.0059991316 0.018891549 7.071068e-011 7.071068e-011 7.071068e-011 7.071068e-011
7767600000 -0.053348988 0.019510167 -0.019763073 -0.0015048322 7.071068e-011 7.071068e-011 7.071068e-011 7.071068e-011
7776000000 -0.037770219 0.090926066 0.0087749045 -0.01759162 7.071068e-011 7.071068e-011 7.071068e-011 7.071068e-011
7784400000 0.031445514 0.068096831 0.013085777 0.014777113 7.071068e-011 7.071068e-011 7.071068e-011 7.071068e-011
7792800000 0.0012935721 0.024762934 -0.01846857 0.0065047955 7.071068e-011 7.071068e-011 7.071068e-011 7.071068e-011
7801200000 -0.0076801619 0.070220739 0.0011130932 -0.019843288 7.071068e-011 7.071068e-011 7.071068e-011 7.071068e-011
7809600000 0.053134486 0.05851043 0.018031098 0.0082288356 7.071068e-011 7.071068e-011 7.071068e-011 7.071068e-011
7818000000 0.035326928 -0.0043545919 -0.014421257 0.013303448 7.071068e-011 7.071068e-011 7.071068e-011 7.071068e-011
7826400000 -0.0055537359 0.02086262 -0.0069605978 -0.018462053 7.071068e-011 7.071068e-011 7.071068e-011 7.071068e-011
7834800000 0.032565065 0.031589631 0.019715471 0.00046306819 7.071068e-011 7.071068e-011 7.071068e-011 7.071068e-011
7843200000 0.025285328 -0.019670345 -0.007868899 0.018149361 7.071068e-011 7.071068e-011 7.071068e-011 7.071068e-011
7851600000 -0.026784342 -0.0046483716 -0.013846983 -0.014204842 7.071068e-011 7.071068e-011 7.071068e-011 7.071068e-011
7860000000 -0.0041577285 0.030781223 0.018273884 -0.0075473776 7.071068e-011 7.071068e-011 7.071068e-011 7.071068e-011
7868400000 0.010394036 -0.0035113131 -8.3416744e-005 0.019723153 7.071068e-011 7.071068e-011 7.071068e-011 7.071068e-011
7876800000 -0.036228176 -0.0038279551 -0.018467279 -0.0074963453 7.071068e-011 7.071068e-011 7.071068e-011 7.071068e-011
7885200000 -0.030560626 0.043481994 0.013678306 -0.014314854 7.071068e-011 7.071068e-011 7.071068e-011 7.071068e-011
7893600000 0.0088434415 0.036157679 0.007968111 0.017864497 7.071068e-011 7.071068e-011 7.071068e-011 7.071068e-011
7902000000 -0.0082851108 0.0093214633 -0.019654455 0.00036595963 7.071068e-011 7.071068e-011 7.071068e-011 7.071068e-011
7910400000 -0.021395702 0.039039675 0.0069613252 -0.018494789 7.071068e-011 7.071068e-011 7.071068e-011 7.071068e-011
7918800000 0.017080087 0.04901801 0.014323563 0.013219032 7.071068e-011 7.071068e-011 7.071068e-011 7.071068e-011
7927200000 0.028591661 0.0074055255 -0.017661931 0.0081634987 7.071068e-011 7.071068e-011 7.071068e-011 7.071068e-011
7935600000 -0.0080189584 0.0057901954 -0.0008176344 -0.019318523 7.071068e-011 7.071068e-011 7.071068e-011 7.071068e-011
7944000000 0.010963697 0.033215392 0.018134652 0.0067181261 7.071068e-011 7.071068e-011 7.071068e-011 7.071068e-011
7952400000 0.03753588 -0.0056076273 -0.013127848 0.014202638 7.071068e-011 7.071068e-011 7.071068e-011 7.071068e-011
7960800000 -0.015030519 -0.033367168 -0.0082428586 -0.017462134 7.071068e-011 7.071068e-011 7.071068e-011 7.071068e-011
7969200000 -0.029219709 0.020802554 0.019008925 -0.00087580964 7.071068e-011 7.071068e-011 7.071068e-011 7.071068e-011
7977600000 0.020010948 0.0068573952 -0.0065621138 0.017875135 7.071068e-011 7.071068e-011 7.071068e-011 7.071068e-011
7986000000 -0.024184812 -0.039761826 -0.014048233 -0.012847376 7.071068e-011 7.071068e-011 7.071068e-011 7.071068e-011
7994400000 -0.065396868 0.024771042 0.017131936 -0.0081006875 7.071068e-011 7.071068e-011 7.071068e-011 7.071068e-011
