!Keysight Technologies,N5235B,MY61252044,A.15.00.15
!Date: Friday, January 20, 2023 23:04:52
!Correction: S11(Off) 
!S21(Off) 
!S12(Off) 
!S22(Off) 
!S2P File: Measurements: S11, S21, S12, S22:
# Hz S  RI   R 50
6600000000 0.018346909 -0.17512062 0.015464849 -0.0030347549 7.071068e-011 7.071068e-011 7.071068e-011 7.071068e-011
6608408408.4084 -0.1243644 0.16575657 0.0053040856 0.010840531 7.071068e-011 7.071068e-011 7.071068e-011 7.071068e-011
6616816816.8168 0.30607474 0.092423223 -0.0089155613 0.0036852385 7.071068e-011 7.071068e-011 7.071068e-011 7.071068e-011
6625225225.2252 0.024312302 -0.27293128 -0.0017783592 -0.0093073882 7.071068e-011 7.071068e-011 7.071068e-011 7.071068e-011
6633633633.6336 -0.16553818 0.16166474 0.0093375947 -0.00038453369 7.071068e-011 7.071068e-011 7.071068e-011 7.071068e-011
6642042042.042 0.29002342 0.11290595 -0.0018620795 0.0093181506 7.071068e-011 7.071068e-011 7.071068e-011 7.071068e-011
6650450450.4505 0.038860857 -0.25206327 -0.010722145 -0.0040981499 7.071068e-011 7.071068e-011 7.071068e-011 7.071068e-011
6658858858.8589 -0.14828822 0.1346063 0.0059840544 -0.011490232 7.071068e-011 7.071068e-011 7.071068e-011 7.071068e-011
6667267267.2673 0.22861651 0.10108021 0.012193314 0.0091776261 7.071068e-011 7.071068e-011 7.071068e-011 7.071068e-011
6675675675.6757 0.042713776 -0.15112089 -0.011545145 0.013815342 7.071068e-011 7.071068e-011 7.071068e-011 7.071068e-011
6684084084.0841 -0.04435458 0.084283099 -0.014586817 -0.013363145 7.071068e-011 7.071068e-011 7.071068e-011 7.071068e-011
6692492492.4925 0.10587811 0.04743968 0.014833189 -0.014906568 7.071068e-011 7.071068e-011 7.071068e-011 7.071068e-011
6700900900.9009 0.085923746 0.018271532 0.014756419 0.015425832 7.071068e-011 7.071068e-011 7.071068e-011 7.071068e-011
6709309309.3093 0.077167816 -0.041839376 -0.015564018 0.013098275 7.071068e-011 7.071068e-011 7.071068e-011 7.071068e-011
6717717717.7177 -0.031128017 0.034424968 -0.010132213 -0.016488358 7.071068e-011 7.071068e-011 7.071068e-011 7.071068e-011
6726126126.1261 0.15512179 0.11620656 0.016807107 -0.0070770881 7.071068e-011 7.071068e-011 7.071068e-011 7.071068e-011
6734534534.5345 0.12850238 -0.1406642 0.0035498266 0.016236208 7.071068e-011 7.071068e-011 7.071068e-011 7.071068e-011
6742942942.9429 -0.10784387 0.026761232 -0.015913339 -0.00028691956 7.071068e-011 7.071068e-011 7.071068e-011 7.071068e-011
6751351351.3514 0.17158335 0.15251365 0.0036234953 -0.015369468 7.071068e-011 7.071068e-011 7.071068e-011 7.071068e-011
6759759759.7598 0.15057476 -0.17159776 0.013181328 0.0070734993 7.071068e-011 7.071068e-011 7.071068e-011 7.071068e-011
6768168168.1682 -0.14691223 -0.0053832433 -0.010863482 0.010404011 7.071068e-011 7.071068e-011 7.071068e-011 7.071068e-011
6776576576.5766 0.13413851 0.17887747 -0.008000358 -0.01347587 7.071068e-011 7.071068e-011 7.071068e-011 7.071068e-011
6784984984.985 0.15111756 -0.14624768 0.014558576 -0.0040107127 7.071068e-011 7.071068e-011 7.071068e-011 7.071068e-011
6793393393.3934 -0.14742613 -0.0064965785 -0.0003566067 0.015520807 7.071068e-011 7.071068e-011 7.071068e-011 7.071068e-011
6801801801.8018 0.1016027 0.2026445 -0.015713757 -0.0043016346 7.071068e-011 7.071068e-011 7.071068e-011 7.071068e-011
6810210210.2102 0.17238353 -0.094966471 0.0086810747 -0.014426752 7.071068e-011 7.071068e-011 7.071068e-011 7.071068e-011
6818618618.6186 -0.10534297 -0.010280146 0.012133892 0.013241629 7.071068e-011 7.071068e-011 7.071068e-011 7.071068e-011
6827027027.027 0.087884985 0.18545043 -0.015962606 0.0091986218 7.071068e-011 7.071068e-011 7.071068e-011 7.071068e-011
6835435435.4354 0.18143569 -0.04881113 -0.0044716182 -0.017893117 7.071068e-011 7.071068e-011 7.071068e-011 7.071068e-011
6843843843.8438 -0.045453578 -0.027995436 0.020166658 0.0002600076 7.071068e-011 7.071068e-011 7.071068e-011 7.071068e-011
6852252252.2523 0.07478115 0.12926149 -0.0045937411 0.020293688 7.071068e-011 7.071068e-011 7.071068e-011 7.071068e-011
6860660660.6607 0.14508969 -0.020303106 -0.018596545 -0.0096153943 7.071068e-011 7.071068e-011 7.071068e-011 7.071068e-011
6869069069.0691 0.0041417363 -0.027014362 0.014524835 -0.01607772 7.071068e-011 7.071068e-011 7.071068e-011 7.071068e-011
6877477477.4775 0.054058544 0.072561443 0.012671986 0.01809266 7.071068e-011 7.071068e-011 7.071068e-011 7.071068e-011
6885885885.8859 0.090372548 0.0068847123 -0.020452242 0.0076936651 7.071068e-011 7.071068e-011 7.071068e-011 7.071068e-011
6894294294.2943 0.047235951 -0.0010094945 -0.0022946256 -0.022014072 7.071068e-011 7.071068e-011 7.071068e-011 7.071068e-011
6902702702.7027 0.038229469 0.019386979 0.021983344 0.00324795 7.071068e-011 7.071068e-011 7.071068e-011 7.071068e-011
6911111111.1111 0.031016124 0.037658706 -0.0087909736 0.020202337 7.071068e-011 7.071068e-011 7.071068e-011 7.071068e-011
6919519519.5195 0.078284122 0.049910281 -0.016934307 -0.013625491 7.071068e-011 7.071068e-011 7.071068e-011 7.071068e-011
6927927927.9279 0.050723534 -0.012389066 0.017242266 -0.012770602 7.071068e-011 7.071068e-011 7.071068e-011 7.071068e-011
6936336336.3363 -0.0021483828 0.062236987 0.0072584888 0.019474952 7.071068e-011 7.071068e-011 7.071068e-011 7.071068e-011
6944744744.7447 0.11246101 0.089311548 -0.020832323 0.0011407415 7.071068e-011 7.071068e-011 7.071068e-011 7.071068e-011
6953153153.1532 0.084237151 -0.045552514 0.0044888444 -0.019988826 7.071068e-011 7.071068e-011 7.071068e-011 7.071068e-011
6961561561.5616 -0.028311692 0.054517809 0.0173271 0.0099534746 7.071068e-011 7.071068e-011 7.071068e-011 7.071068e-011
6969969969.97 0.12471417 0.10582603 -0.0145125 0.013540123 7.071068e-011 7.071068e-011 7.071068e-011 7.071068e-011
6978378378.3784 0.10160131 -0.070842654 -0.0083776657 -0.017367268 7.071068e-011 7.071068e-011 7.071068e-011 7.071068e-011
6986786786.7868 -0.064068981 0.032854661 0.018726259 -0.0022760427 7.071068e-011 7.071068e-011 7.071068e-011 7.071068e-011
6995195195.1952 0.10308781 0.13384148 -0.0035578336 0.018912366 7.071068e-011 7.071068e-011 7.071068e-011 7.071068e-011
7003603603.6036 0.10879593 -0.057971142 -0.016598199 -0.0089039747 7.071068e-011 7.071068e-011 7.071068e-011 7.071068e-011
7012012012.012 -0.0726946 0.032615371 0.014119032 -0.012465479 7.071068e-011 7.071068e-011 7.071068e-011 7.071068e-011
7020420420.4204 0.088169113 0.16136843 0.0077878172 0.017324187 7.071068e-011 7.071068e-011 7.071068e-011 7.071068e-011
7028828828.8288 0.1325132 -0.029124642 -0.018521124 0.0018283757 7.071068e-011 7.071068e-011 7.071068e-011 7.071068e-011
7037237237.2372 -0.054018769 0.030826865 0.0044216453 -0.018636774 7.071068e-011 7.071068e-011 7.071068e-011 7.071068e-011
7045645645.6456 0.090181664 0.17086725 0.016441409 0.0098005459 7.071068e-011 7.071068e-011 7.071068e-011 7.071068e-011
7054054054.0541 0.1675124 -0.0032046922 -0.014673089 0.012041322 7.071068e-011 7.071068e-011 7.071068e-011 7.071068e-011
7062462462.4625 -0.0081914514 -0.0038799834 -0.0068291361 -0.018469088 7.071068e-011 7.071068e-011 7.071068e-011 7.071068e-011
7070870870.8709 0.078402393 0.14039786 0.019768259 -0.0011939834 7.071068e-011 7.071068e-011 7.071068e-011 7.071068e-011
7079279279.2793 0.16831276 0.0072433222 -0.005549279 0.018794788 7.071068e-011 7.071068e-011 7.071068e-011 7.071068e-011
7087687687.6877 0.032443687 -0.02689594 -0.016640916 -0.011489197 7.071068e-011 7.071068e-011 7.071068e-011 7.071068e-011
7096096096.0961 0.059609912 0.089302272 0.015939798 -0.012479372 7.071068e-011 7.071068e-011 7.071068e-011 7.071068e-011
7104504504.5045 0.14777333 0.010298671 0.0065319659 0.019136693 7.071068e-011 7.071068e-011 7.071068e-011 7.071068e-011
7112912912.9129 0.05078702 -0.044617057 -0.020638717 -0.00013144406 7.071068e-011 7.071068e-011 7.071068e-011 7.071068e-011
7121321321.3213 0.034438558 0.031943899 0.0063045649 -0.019838031 7.071068e-011 7.071068e-011 7.071068e-011 7.071068e-011
7129729729.7297 0.089321494 0.014425471 0.016442847 0.012078788 7.071068e-011 7.071068e-011 7.071068e-011 7.071068e-011
7138138138.1381 0.043365162 -0.037801754 -0.017184019 0.011695589 7.071068e-011 7.071068e-011 7.071068e-011 7.071068e-011
7146546546.5465 -0.00051528076 0.013665748 -0.0058477488 -0.020117518 7.071068e-011 7.071068e-011 7.071068e-011 7.071068e-011
7154954954.955 0.030693416 0.041304618 0.020801304 0.00085760205 7.071068e-011 7.071068e-011 7.071068e-011 7.071068e-011
7163363363.3634 0.044929955 0.015722135 -0.0076609105 0.019097168 7.071068e-011 7.071068e-011 7.071068e-011 7.071068e-011
7171771771.7718 0.0011713692 0.020285167 -0.015745763 -0.013474957 7.071068e-011 7.071068e-011 7.071068e-011 7.071068e-011
7180180180.1802 0.018485786 0.072551399 0.017619235 -0.010389593 7.071068e-011 7.071068e-011 7.071068e-011 7.071068e-011
7188588588.5886 0.067777254 0.05611413 0.0038790151 0.020445058 7.071068e-011 7.071068e-011 7.071068e-011 7.071068e-011
7196996996.997 0.039836276 0.010123575 -0.020603856 -0.0027392912 7.071068e-011 7.071068e-011 7.071068e-011 7.071068e-011
7205405405.4054 0.012317779 0.067159355 0.0095430482 -0.017993877 7.071068e-011 7.071068e-011 7.071068e-011 7.071068e-011
7213813813.8138 0.083233923 0.06719511 0.01384178 0.01518895 7.071068e-011 7.071068e-011 7.071068e-011 7.071068e-011
7222222222.2222 0.066171333 -0.0054982724 -0.018985696 0.008221074 7.071068e-011 7.071068e-011 7.071068e-011 7.071068e-011
7230630630.6306 -0.0013019583 0.035167363 -0.001437771 -0.020490021 7.071068e-011 7.071068e-011 7.071068e-011 7.071068e-011
7239039039.039 0.071558431 0.075569652 0.019947533 0.0058486941 7.071068e-011 7.071068e-011 7.071068e-011 7.071068e-011
7247447447.4474 0.075220831 -0.0148326 -0.01200881 0.016977601 7.071068e-011 7.071068e-011 7.071068e-011 7.071068e-011
7255855855.8559 -0.016612403 0.0073826066 -0.011593178 -0.0170158 7.071068e-011 7.071068e-011 7.071068e-011 7.071068e-011
7264264264.2643 0.034915276 0.084052593 0.020116359 -0.0053485576 7.071068e-011 7.071068e-011 7.071068e-011 7.071068e-011
7272672672.6727 0.074362323 0.00061334507 -0.0015160023 0.020533852 7.071068e-011 7.071068e-011 7.071068e-011 7.071068e-011
7281081081.0811 -0.029882427 0.00083821249 -0.018722579 -0.0084548602 7.071068e-011 7.071068e-011 7.071068e-011 7.071068e-011
7289489489.4895 2.1554917e-005 0.10761227 0.014696018 -0.014618465 7.071068e-011 7.071068e-011 7.071068e-011 7.071068e-011
7297897897.8979 0.084969006 0.050624836 0.0088048736 0.018824287 7.071068e-011 7.071068e-011 7.071068e-011 7.071068e-011
7306306306.3063 0.001040463 0.0088794567 -0.020576123 0.0015757527 7.071068e-011 7.071068e-011 7.071068e-011 7.071068e-011
7314714714.7147 0.0041289269 0.11282013 0.005394931 -0.02029085 7.071068e-011 7.071068e-011 7.071068e-011 7.071068e-011
7323123123.1231 0.11268674 0.07532572 0.017007792 0.011731841 7.071068e-011 7.071068e-011 7.071068e-011 7.071068e-011
7331531531.5315 0.051185079 -0.011826151 -0.017327355 0.011710785 7.071068e-011 7.071068e-011 7.071068e-011 7.071068e-011
7339939939.9399 0.00794286 0.068682216 -0.0053204182 -0.020548934 7.071068e-011 7.071068e-011 7.071068e-011 7.071068e-011
7348348348.3483 0.10549611 0.063637488 0.020920578 0.0019228358 7.071068e-011 7.071068e-011 7.071068e-011 7.071068e-011
7356756756.7568 0.066121437 -0.036988687 -0.0092018861 0.018787827 7.071068e-011 7.071068e-011 7.071068e-011 7.071068e-011
7365165165.1652 -0.01022444 0.020902602 -0.014745574 -0.01518922 7.071068e-011 7.071068e-011 7.071068e-011 7.071068e-011
7373573573.5736 0.061561495 0.049815387 0.019008441 -0.0085691176 7.071068e-011 7.071068e-011 7.071068e-011 7.071068e-011
7381981981.982 0.043934245 -0.03539256 0.0010686421 0.021117236 7.071068e-011 7.071068e-011 7.071068e-011 7.071068e-011
7390390390.3904 -0.043094698 0.0097003384 -0.020331906 -0.006152851 7.071068e-011 7.071068e-011 7.071068e-011 7.071068e-011
7398798798.7988 0.013007003 0.071212843 0.012886534 -0.016699547 7.071068e-011 7.071068e-011 7.071068e-011 7.071068e-011
7407207207.2072 0.02791026 0.0098158652 0.011188788 0.017979812 7.071068e-011 7.071068e-011 7.071068e-011 7.071068e-011
7415615615.6156 -0.040945493 0.035374276 -0.020870648 0.0043976447 7.071068e-011 7.071068e-011 7.071068e-011 7.071068e-011
7424024024.024 0.0067793177 0.1050125 0.0030540472 -0.021036502 7.071068e-011 7.071068e-011 7.071068e-011 7.071068e-011
7432432432.4324 0.054711986 0.054120097 0.018675525 0.01041339 7.071068e-011 7.071068e-011 7.071068e-011 7.071068e-011
7440840840.8408 0.0097913062 0.042344049 -0.016128208 0.014059967 7.071068e-011 7.071068e-011 7.071068e-011 7.071068e-011
7449249249.2492 0.030261947 0.087113708 -0.0073315864 -0.019866567 7.071068e-011 7.071068e-011 7.071068e-011 7.071068e-011
7457657657.6577 0.077953637 0.048973437 0.021251692 0.00016550373 7.071068e-011 7.071068e-011 7.071068e-011 7.071068e-011
7466066066.0661 0.041745495 0.014069427 -0.0075113149 0.019935325 7.071068e-011 7.071068e-011 7.071068e-011 7.071068e-011
7474474474.4745 0.030506928 0.03931997 -0.015938977 -0.013825607 7.071068e-011 7.071068e-011 7.071068e-011 7.071068e-011
7482882882.8829 0.0598673 0.029106408 0.018625401 -0.00980072 7.071068e-011 7.071068e-011 7.071068e-011 7.071068e-011
7491291291.2913 0.038918205 -0.013377692 0.0026492064 0.020922564 7.071068e-011 7.071068e-011 7.071068e-011 7.071068e-011
7499699699.6997 -0.0033388524 0.0024014965 -0.020356566 -0.0049183578 7.071068e-011 7.071068e-011 7.071068e-011 7.071068e-011
7508108108.1081 0.0032917762 0.031943068 0.011746876 -0.017313661 7.071068e-011 7.071068e-011 7.071068e-011 7.071068e-011
7516516516.5165 0.019391213 0.011943273 0.01199269 0.016985951 7.071068e-011 7.071068e-011 7.071068e-011 7.071068e-011
7524924924.9249 -0.026399124 0.0065897834 -0.020023931 0.0050752945 7.071068e-011 7.071068e-011 7.071068e-011 7.071068e-011
7533333333.3333 -0.029813841 0.065981962 0.0025423388 -0.020493632 7.071068e-011 7.071068e-011 7.071068e-011 7.071068e-011
7541741741.7417 0.027833672 0.068875484 0.018246442 0.0094838301 7.071068e-011 7.071068e-011 7.071068e-011 7.071068e-011
7550150150.1502 0.013022322 0.020586504 -0.015212839 0.013214548 7.071068e-011 7.071068e-011 7.071068e-011 7.071068e-011
7558558558.5586 -0.015343462 0.068438947 -0.0068434309 -0.01903295 7.071068e-011 7.071068e-011 7.071068e-011 7.071068e-011
7566966966.967 0.055613659 0.078111149 0.0199905 0.00049001019 7.071068e-011 7.071068e-011 7.071068e-011 7.071068e-011
7575375375.3754 0.053574 0.00095681084 -0.0079171145 0.018448463 7.071068e-011 7.071068e-011 7.071068e-011 7.071068e-011
7583783783.7838 -0.011877717 0.024010774 -0.014386118 -0.014080843 7.071068e-011 7.071068e-011 7.071068e-011 7.071068e-011
7592192192.1922 0.045475692 0.060630523 0.018001519 -0.008301856 7.071068e-011 7.071068e-011 7.071068e-011 7.071068e-011
7600600600.6006 0.051780939 -0.024329033 0.00086250395 0.019475698 7.071068e-011 7.071068e-011 7.071068e-011 7.071068e-011
7609009009.009 -0.03796437 -0.010804431 -0.018865183 -0.0065464708 7.071068e-011 7.071068e-011 7.071068e-011 7.071068e-011
7617417417.4174 -0.0051912805 0.058128592 0.012624806 -0.015304616 7.071068e-011 7.071068e-011 7.071068e-011 7.071068e-011
7625825825.8258 0.02642238 -0.0040698564 0.0094103105 0.017396044 7.071068e-011 7.071068e-011 7.071068e-011 7.071068e-011
7634234234.2342 -0.060629167 0.0039463895 -0.019539462 0.0024309228 7.071068e-011 7.071068e-011 7.071068e-011 7.071068e-011
7642642642.6426 -0.026628885 0.091653079 0.0049968679 -0.01888627 7.071068e-011 7.071068e-011 7.071068e-011 7.071068e-011
7651051051.0511 0.037553851 0.042507142 0.015734123 0.011707642 7.071068e-011 7.071068e-011 7.071068e-011 7.071068e-011
7659459459.4595 -0.02979533 0.018103393 -0.016776044 0.010646181 7.071068e-011 7.071068e-011 7.071068e-011 7.071068e-011
7667867867.8679 -0.011591503 0.10243054 -0.0038793688 -0.019112904 7.071068e-011 7.071068e-011 7.071068e-011 7.071068e-011
7676276276.2763 0.073839054 0.059049871 0.019081956 0.0039721588 7.071068e-011 7.071068e-011 7.071068e-011 7.071068e-011
7684684684.6847 0.021452297 -0.0039320383 -0.010777846 0.016601535 7.071068e-011 7.071068e-011 7.071068e-011 7.071068e-011
7693093093.0931 0.00063296722 0.054356102 -0.011465056 -0.015966276 7.071068e-011 7.071068e-011 7.071068e-011 7.071068e-011
7701501501.5015 0.07105501 0.032626376 0.019019509 -0.0048220372 7.071068e-011 7.071068e-011 7.071068e-011 7.071068e-011
7709909909.9099 0.023385726 -0.042509027 -0.0026198416 0.019503476 7.071068e-011 7.071068e-011 7.071068e-011 7.071068e-011
7718318318.3183 -0.033202082 0.010823722 -0.017203579 -0.0095983744 7.071068e-011 7.071068e-011 7.071068e-011 7.071068e-011
7726726726.7267 0.024392096 0.027836366 0.015445949 -0.012228046 7.071068e-011 7.071068e-011 7.071068e-011 7.071068e-011
7735135135.1351 0.0028936479 -0.041265484 0.0059256577 0.018954633 7.071068e-011 7.071068e-011 7.071068e-011 7.071068e-011
7743543543.5435 -0.074988209 -0.00027677545 -0.019527815 -0.0014665419 7.071068e-011 7.071068e-011 7.071068e-011 7.071068e-011
7751951951.952 -0.030456327 0.06432762 0.0087311426 -0.017679546 7.071068e-011 7.071068e-011 7.071068e-011 7.071068e-011
7760360360.3604 -0.0025846167 0.017500291 0.013243289 0.014661409 7.071068e-011 7.071068e-011 7.071068e-011 7.071068e-011
7768768768.7688 -0.058293179 0.028369127 -0.018583881 0.006862931 7.071068e-011 7.071068e-011 7.071068e-011 7.071068e-011
7777177177.1772 -0.027313517 0.095555022 0.00059772062 -0.019716406 7.071068e-011 7.071068e-011 7.071068e-011 7.071068e-011
7785585585.5856 0.033877619 0.058068007 0.01812288 0.0078220759 7.071068e-011 7.071068e-011 7.071068e-011 7.071068e-011
7793993993.994 -0.0055377749 0.027754858 -0.01390816 0.01368655 7.071068e-011 7.071068e-011 7.071068e-011 7.071068e-011
7802402402.4024 -0.00049885694 0.074876569 -0.0075673857 -0.018373035 7.071068e-011 7.071068e-011 7.071068e-011 7.071068e-011
7810810810.8108 0.057987161 0.048970606 0.019771587 -0.00044664898 7.071068e-011 7.071068e-011 7.071068e-011 7.071068e-011
7819219219.2192 0.026092675 -0.0064394521 -0.0071446695 0.018328976 7.071068e-011 7.071068e-011 7.071068e-011 7.071068e-011
7827627627.6276 -0.0036772059 0.02677927 -0.014399859 -0.013458835 7.071068e-011 7.071068e-011 7.071068e-011 7.071068e-011
7836036036.036 0.037483387 0.025821719 0.01784296 -0.0083376914 7.071068e-011 7.071068e-011 7.071068e-011 7.071068e-011
7844444444.4444 0.01658776 -0.023779646 0.0011117511 0.0197163 7.071068e-011 7.071068e-011 7.071068e-011 7.071068e-011
7852852852.8529 -0.028293917 0.0029634384 -0.018788772 -0.0063573071 7.071068e-011 7.071068e-011 7.071068e-011 7.071068e-011
7861261261.2613 0.0016708289 0.029530978 0.012772578 -0.015043265 7.071068e-011 7.071068e-011 7.071068e-011 7.071068e-011
7869669669.6697 0.0055098361 -0.009212886 0.0090058437 0.01755761 7.071068e-011 7.071068e-011 7.071068e-011 7.071068e-011
7878078078.0781 -0.040370293 0.0033563806 -0.019803096 0.0019576408 7.071068e-011 7.071068e-011 7.071068e-011 7.071068e-011
7886486486.4865 -0.024467954 0.046916738 0.0053890548 -0.019013083 7.071068e-011 7.071068e-011 7.071068e-011 7.071068e-011
7894894894.8949 0.010927115 0.030337015 0.015398799 0.011991893 7.071068e-011 7.071068e-011 7.071068e-011 7.071068e-011
7903303303.3033 -0.013474711 0.011066334 -0.017090226 0.009687596 7.071068e-011 7.071068e-011 7.071068e-011 7.071068e-011
7911711711.7117 -0.017871549 0.043921292 -0.0027580149 -0.019484341 7.071068e-011 7.071068e-011 7.071068e-011 7.071068e-011
7920120120.1201 0.023078378 0.044918321 0.018892756 0.0047297915 7.071068e-011 7.071068e-011 7.071068e-011 7.071068e-011
7928528528.5285 0.023649622 0.001968873 -0.011460486 0.015720353 7.071068e-011 7.071068e-011 7.071068e-011 7.071068e-011
7936936936.9369 -0.0099503696 0.011130891 -0.01014745 -0.016387707 7.071068e-011 7.071068e-011 7.071068e-011 7.071068e-011
7945345345.3453 0.017782485 0.03212636 0.019020831 -0.0030799336 7.071068e-011 7.071068e-011 7.071068e-011 7.071068e-011
