!Keysight Technologies,N5235B,MY61252044,A.15.00.15
!Date: Friday, January 20, 2023 22:04:54
!Correction: S11(Off) 
!S21(Off) 
!S12(Off) 
!S22(Off) 
!S2P File: Measurements: S11, S21, S12, S22:
# Hz S  RI   R 50
6600000000 0.017616175 -0.17490223 0.015492057 -0.0030616554 7.071068e-011 7.071068e-011 7.071068e-011 7.071068e-011
6608408408.4084 -0.12370221 0.16650723 0.0053330422 0.010850959 7.071068e-011 7.071068e-011 7.071068e-011 7.071068e-011
6616816816.8168 0.30645984 0.091447011 -0.0089207757 0.0037123135 7.071068e-011 7.071068e-011 7.071068e-011 7.071068e-011
6625225225.2252 0.023208747 -0.27285174 -0.0018031806 -0.0093172258 7.071068e-011 7.071068e-011 7.071068e-011 7.071068e-011
6633633633.6336 -0.16493244 0.16259193 0.0093483375 -0.00040848865 7.071068e-011 7.071068e-011 7.071068e-011 7.071068e-011
6642042042.042 0.2905536 0.11202384 -0.0018407995 0.0093330871 7.071068e-011 7.071068e-011 7.071068e-011 7.071068e-011
6650450450.4505 0.037856087 -0.25216207 -0.010742811 -0.0040761689 7.071068e-011 7.071068e-011 7.071068e-011 7.071068e-011
6658858858.8589 -0.14789777 0.13548656 0.0059619662 -0.011513696 7.071068e-011 7.071068e-011 7.071068e-011 7.071068e-011
6667267267.2673 0.22913986 0.10039599 0.012226099 0.0091599226 7.071068e-011 7.071068e-011 7.071068e-011 7.071068e-011
6675675675.6757 0.042000074 -0.15120915 -0.011527898 0.013855159 7.071068e-011 7.071068e-011 7.071068e-011 7.071068e-011
6684084084.0841 -0.044149004 0.084736288 -0.014631723 -0.013348289 7.071068e-011 7.071068e-011 7.071068e-011 7.071068e-011
6692492492.4925 0.10606898 0.047297973 0.014821982 -0.014960127 7.071068e-011 7.071068e-011 7.071068e-011 7.071068e-011
6700900900.9009 0.085933752 0.018040441 0.014812182 0.015414658 7.071068e-011 7.071068e-011 7.071068e-011 7.071068e-011
6709309309.3093 0.076817527 -0.041779011 -0.015555155 0.013154936 7.071068e-011 7.071068e-011 7.071068e-011 7.071068e-011
6717717717.7177 -0.030917425 0.034791552 -0.010188533 -0.016487988 7.071068e-011 7.071068e-011 7.071068e-011 7.071068e-011
6726126126.1261 0.15545253 0.11584777 0.016815383 -0.007129984 7.071068e-011 7.071068e-011 7.071068e-011 7.071068e-011
6734534534.5345 0.12796466 -0.14090526 0.003594843 0.016252361 7.071068e-011 7.071068e-011 7.071068e-011 7.071068e-011
6742942942.9429 -0.10782292 0.027466839 -0.015938027 -0.00024268603 7.071068e-011 7.071068e-011 7.071068e-011 7.071068e-011
6751351351.3514 0.17226616 0.15212372 0.0035864732 -0.01540168 7.071068e-011 7.071068e-011 7.071068e-011 7.071068e-011
6759759759.7598 0.14985956 -0.17204463 0.013218068 0.0070500779 7.071068e-011 7.071068e-011 7.071068e-011 7.071068e-011
6768168168.1682 -0.14695244 -0.0045096697 -0.01084722 0.010451224 7.071068e-011 7.071068e-011 7.071068e-011 7.071068e-011
6776576576.5766 0.13488847 0.17848226 -0.008048607 -0.013470194 7.071068e-011 7.071068e-011 7.071068e-011 7.071068e-011
6784984984.985 0.15047631 -0.14671162 0.014566202 -0.0040548188 7.071068e-011 7.071068e-011 7.071068e-011 7.071068e-011
6793393393.3934 -0.14757258 -0.0057737548 -0.00031220919 0.015541612 7.071068e-011 7.071068e-011 7.071068e-011 7.071068e-011
6801801801.8018 0.10232011 0.20250872 -0.015746897 -0.004263801 7.071068e-011 7.071068e-011 7.071068e-011 7.071068e-011
6810210210.2102 0.17194018 -0.095584556 0.0086529152 -0.014468205 7.071068e-011 7.071068e-011 7.071068e-011 7.071068e-011
6818618618.6186 -0.10565992 -0.0095958337 0.012190066 0.013224543 7.071068e-011 7.071068e-011 7.071068e-011 7.071068e-011
6827027027.027 0.088595681 0.18539947 -0.015956143 0.0092585851 7.071068e-011 7.071068e-011 7.071068e-011 7.071068e-011
6835435435.4354 0.18108465 -0.049349673 -0.0045267069 -0.017905846 7.071068e-011 7.071068e-011 7.071068e-011 7.071068e-011
6843843843.8438 -0.045689963 -0.027503002 0.020195706 0.00020239958 7.071068e-011 7.071068e-011 7.071068e-011 7.071068e-011
6852252252.2523 0.075184748 0.12924083 -0.004537466 0.020334633 7.071068e-011 7.071068e-011 7.071068e-011 7.071068e-011
6860660660.6607 0.14499915 -0.020594371 -0.01864847 -0.0095753409 7.071068e-011 7.071068e-011 7.071068e-011 7.071068e-011
6869069069.0691 0.0038745555 -0.026862603 0.01449784 -0.016140312 7.071068e-011 7.071068e-011 7.071068e-011 7.071068e-011
6877477477.4775 0.054309633 0.072732851 0.012738107 0.018082988 7.071068e-011 7.071068e-011 7.071068e-011 7.071068e-011
6885885885.8859 0.090381309 0.006629922 -0.020458106 0.0077609592 7.071068e-011 7.071068e-011 7.071068e-011 7.071068e-011
6894294294.2943 0.047090132 -0.00092485506 -0.002363127 -0.022038693 7.071068e-011 7.071068e-011 7.071068e-011 7.071068e-011
6902702702.7027 0.038281664 0.019405888 0.022025043 0.003191432 7.071068e-011 7.071068e-011 7.071068e-011 7.071068e-011
6911111111.1111 0.031028671 0.037748691 -0.0087383064 0.020259172 7.071068e-011 7.071068e-011 7.071068e-011 7.071068e-011
6919519519.5195 0.07841067 0.049723465 -0.016999178 -0.013593885 7.071068e-011 7.071068e-011 7.071068e-011 7.071068e-011
6927927927.9279 0.050423913 -0.01237221 0.01722791 -0.012834908 7.071068e-011 7.071068e-011 7.071068e-011 7.071068e-011
6936336336.3363 -0.0019485927 0.062480316 0.0073298761 0.019477567 7.071068e-011 7.071068e-011 7.071068e-011 7.071068e-011
6944744744.7447 0.11259089 0.089039102 -0.020859594 0.0012000479 7.071068e-011 7.071068e-011 7.071068e-011 7.071068e-011
6953153153.1532 0.083946355 -0.045597091 0.0044395188 -0.020030685 7.071068e-011 7.071068e-011 7.071068e-011 7.071068e-011
6961561561.5616 -0.028258918 0.054839779 0.017385239 0.0099176941 7.071068e-011 7.071068e-011 7.071068e-011 7.071068e-011
6969969969.97 0.12506205 0.10564084 -0.014494083 0.013605713 7.071068e-011 7.071068e-011 7.071068e-011 7.071068e-011
6978378378.3784 0.10120604 -0.071122028 -0.008444136 -0.017368935 7.071068e-011 7.071068e-011 7.071068e-011 7.071068e-011
6986786786.7868 -0.064096361 0.03341471 0.01874722 -0.0023401661 7.071068e-011 7.071068e-011 7.071068e-011 7.071068e-011
6995195195.1952 0.1035751 0.13355288 -0.0035022614 0.01894952 7.071068e-011 7.071068e-011 7.071068e-011 7.071068e-011
7003603603.6036 0.10832451 -0.058239564 -0.016648073 -0.0088659301 7.071068e-011 7.071068e-011 7.071068e-011 7.071068e-011
7012012012.012 -0.072703265 0.033123896 0.014097898 -0.012528067 7.071068e-011 7.071068e-011 7.071068e-011 7.071068e-011
7020420420.4204 0.088586003 0.16120686 0.007850579 0.017324844 7.071068e-011 7.071068e-011 7.071068e-011 7.071068e-011
7028828828.8288 0.13223135 -0.029468771 -0.018545123 0.0018853287 7.071068e-011 7.071068e-011 7.071068e-011 7.071068e-011
7037237237.2372 -0.054242212 0.031265814 0.0043674512 -0.018682901 7.071068e-011 7.071068e-011 7.071068e-011 7.071068e-011
7045645645.6456 0.090691961 0.17087854 0.016497506 0.0097620096 7.071068e-011 7.071068e-011 7.071068e-011 7.071068e-011
7054054054.0541 0.16728562 -0.0036885939 -0.014656574 0.012105648 7.071068e-011 7.071068e-011 7.071068e-011 7.071068e-011
7062462462.4625 -0.0084877349 -0.0034248235 -0.0069030831 -0.018471507 7.071068e-011 7.071068e-011 7.071068e-011 7.071068e-011
7070870870.8709 0.078873977 0.14040451 0.019788638 -0.0012591641 7.071068e-011 7.071068e-011 7.071068e-011 7.071068e-011
7079279279.2793 0.1681392 0.0068981596 -0.0054996819 0.018833933 7.071068e-011 7.071068e-011 7.071068e-011 7.071068e-011
7087687687.6877 0.032238983 -0.026675945 -0.016699808 -0.011451288 7.071068e-011 7.071068e-011 7.071068e-011 7.071068e-011
7096096096.0961 0.059828743 0.089442424 0.01592485 -0.012543718 7.071068e-011 7.071068e-011 7.071068e-011 7.071068e-011
7104504504.5045 0.14786902 0.010031299 0.00659966 0.019146075 7.071068e-011 7.071068e-011 7.071068e-011 7.071068e-011
7112912912.9129 0.050477613 -0.044573657 -0.020670975 -6.1667779e-005 7.071068e-011 7.071068e-011 7.071068e-011 7.071068e-011
7121321321.3213 0.03463446 0.032188985 0.0062525794 -0.019887745 7.071068e-011 7.071068e-011 7.071068e-011 7.071068e-011
7129729729.7297 0.08942312 0.014171501 0.016507497 0.012040313 7.071068e-011 7.071068e-011 7.071068e-011 7.071068e-011
7138138138.1381 0.043160774 -0.037764799 -0.017168192 0.011772491 7.071068e-011 7.071068e-011 7.071068e-011 7.071068e-011
7146546546.5465 -0.00044207959 0.013761468 -0.0059206076 -0.020124901 7.071068e-011 7.071068e-011 7.071068e-011 7.071068e-011
7154954954.955 0.030755481 0.041304223 0.020829532 0.00078749895 7.071068e-011 7.071068e-011 7.071068e-011 7.071068e-011
7163363363.3634 0.044942927 0.015560425 -0.0076065348 0.01914618 7.071068e-011 7.071068e-011 7.071068e-011 7.071068e-011
7171771771.7718 0.00098332914 0.020400604 -0.015807066 -0.01344857 7.071068e-011 7.071068e-011 7.071068e-011 7.071068e-011
7180180180.1802 0.0187103 0.072633058 0.017613512 -0.010463378 7.071068e-011 7.071068e-011 7.071068e-011 7.071068e-011
7188588588.5886 0.067740507 0.055908553 0.0039534806 0.02046703 7.071068e-011 7.071068e-011 7.071068e-011 7.071068e-011
7196996996.997 0.039701726 0.010216077 -0.020647127 -0.0026780399 7.071068e-011 7.071068e-011 7.071068e-011 7.071068e-011
7205405405.4054 0.012400126 0.067250013 0.0094955089 -0.018055104 7.071068e-011 7.071068e-011 7.071068e-011 7.071068e-011
7213813813.8138 0.083349198 0.067126296 0.013914545 0.015162815 7.071068e-011 7.071068e-011 7.071068e-011 7.071068e-011
7222222222.2222 0.066021353 -0.0056403973 -0.018983306 0.0082942098 7.071068e-011 7.071068e-011 7.071068e-011 7.071068e-011
7230630630.6306 -0.001363876 0.035459589 -0.0015090484 -0.020511935 7.071068e-011 7.071068e-011 7.071068e-011 7.071068e-011
7239039039.039 0.07186906 0.075437963 0.019993806 0.005794371 7.071068e-011 7.071068e-011 7.071068e-011 7.071068e-011
7247447447.4474 0.074950531 -0.014989265 -0.011977631 0.017039286 7.071068e-011 7.071068e-011 7.071068e-011 7.071068e-011
7255855855.8559 -0.016608231 0.0076561607 -0.01166809 -0.017006446 7.071068e-011 7.071068e-011 7.071068e-011 7.071068e-011
7264264264.2643 0.035126239 0.08398331 0.020133991 -0.005425442 7.071068e-011 7.071068e-011 7.071068e-011 7.071068e-011
7272672672.6727 0.074281052 0.00043621365 -0.0014496143 0.020572567 7.071068e-011 7.071068e-011 7.071068e-011 7.071068e-011
7281081081.0811 -0.030080145 0.00097244879 -0.018779429 -0.0083974218 7.071068e-011 7.071068e-011 7.071068e-011 7.071068e-011
7289489489.4895 0.0002841283 0.10778761 0.014663666 -0.014687791 7.071068e-011 7.071068e-011 7.071068e-011 7.071068e-011
7297897897.8979 0.084999576 0.050252989 0.0088788867 0.018818449 7.071068e-011 7.071068e-011 7.071068e-011 7.071068e-011
7306306306.3063 0.00070589321 0.0090683177 -0.020595906 0.001650509 7.071068e-011 7.071068e-011 7.071068e-011 7.071068e-011
7314714714.7147 0.0044367411 0.11298969 0.0053353393 -0.020333806 7.071068e-011 7.071068e-011 7.071068e-011 7.071068e-011
7323123123.1231 0.11269008 0.075046182 0.017066384 0.011694745 7.071068e-011 7.071068e-011 7.071068e-011 7.071068e-011
7331531531.5315 0.050976668 -0.011759077 -0.01731449 0.011787183 7.071068e-011 7.071068e-011 7.071068e-011 7.071068e-011
7339939939.9399 0.0080187153 0.068876922 -0.0054006246 -0.020564063 7.071068e-011 7.071068e-011 7.071068e-011 7.071068e-011
7348348348.3483 0.1057177 0.063503347 0.020959256 0.0018556439 7.071068e-011 7.071068e-011 7.071068e-011 7.071068e-011
7356756756.7568 0.065852918 -0.037146967 -0.0091465218 0.018849548 7.071068e-011 7.071068e-011 7.071068e-011 7.071068e-011
7365165165.1652 -0.01020467 0.021263685 -0.014818783 -0.015158399 7.071068e-011 7.071068e-011 7.071068e-011 7.071068e-011
7373573573.5736 0.061856173 0.049608111 0.019005112 -0.0086444234 7.071068e-011 7.071068e-011 7.071068e-011 7.071068e-011
7381981981.982 0.043654721 -0.035497308 0.0011437855 0.021140888 7.071068e-011 7.071068e-011 7.071068e-011 7.071068e-011
7390390390.3904 -0.043050483 0.0099268174 -0.020381466 -0.0060961084 7.071068e-011 7.071068e-011 7.071068e-011 7.071068e-011
7398798798.7988 0.013148797 0.071132831 0.012853486 -0.016766358 7.071068e-011 7.071068e-011 7.071068e-011 7.071068e-011
7407207207.2072 0.027857738 0.0096909385 0.011269792 0.017969945 7.071068e-011 7.071068e-011 7.071068e-011 7.071068e-011
7415615615.6156 -0.04110267 0.035480961 -0.020888839 0.0044736094 7.071068e-011 7.071068e-011 7.071068e-011 7.071068e-011
7424024024.024 0.0070054559 0.10512315 0.0029851338 -0.021080544 7.071068e-011 7.071068e-011 7.071068e-011 7.071068e-011
7432432432.4324 0.054665159 0.053852927 0.018741498 0.010360066 7.071068e-011 7.071068e-011 7.071068e-011 7.071068e-011
7440840840.8408 0.0096151838 0.042536013 -0.016104607 0.014135009 7.071068e-011 7.071068e-011 7.071068e-011 7.071068e-011
7449249249.2492 0.030469077 0.087135047 -0.007410896 -0.019866733 7.071068e-011 7.071068e-011 7.071068e-011 7.071068e-011
7457657657.6577 0.077883087 0.048857834 0.02128263 9.0343747e-005 7.071068e-011 7.071068e-011 7.071068e-011 7.071068e-011
7466066066.0661 0.041709706 0.014113904 -0.0074561322 0.019987704 7.071068e-011 7.071068e-011 7.071068e-011 7.071068e-011
7474474474.4745 0.030489359 0.039392732 -0.016008098 -0.013794616 7.071068e-011 7.071068e-011 7.071068e-011 7.071068e-011
7482882882.8829 0.060024031 0.02908607 0.018622084 -0.0098817842 7.071068e-011 7.071068e-011 7.071068e-011 7.071068e-011
7491291291.2913 0.038773209 -0.013514237 0.0027236964 0.020950031 7.071068e-011 7.071068e-011 7.071068e-011 7.071068e-011
7499699699.6997 -0.0033456802 0.0026060627 -0.020409189 -0.0048566856 7.071068e-011 7.071068e-011 7.071068e-011 7.071068e-011
7508108108.1081 0.0034386017 0.031862359 0.011698393 -0.017388513 7.071068e-011 7.071068e-011 7.071068e-011 7.071068e-011
7516516516.5165 0.01930543 0.011880741 0.012073041 0.016967129 7.071068e-011 7.071068e-011 7.071068e-011 7.071068e-011
7524924924.9249 -0.026434924 0.006629447 -0.020033745 0.0051508755 7.071068e-011 7.071068e-011 7.071068e-011 7.071068e-011
7533333333.3333 -0.02978937 0.066081263 0.0024670225 -0.020529339 7.071068e-011 7.071068e-011 7.071068e-011 7.071068e-011
7541741741.7417 0.027987342 0.068758503 0.018302584 0.0094363801 7.071068e-011 7.071068e-011 7.071068e-011 7.071068e-011
7550150150.1502 0.012764201 0.020520918 -0.015191102 0.013283239 7.071068e-011 7.071068e-011 7.071068e-011 7.071068e-011
7558558558.5586 -0.015227079 0.06870427 -0.0069246427 -0.019040091 7.071068e-011 7.071068e-011 7.071068e-011 7.071068e-011
7566966966.967 0.05574118 0.077894732 0.020028802 0.00042344432 7.071068e-011 7.071068e-011 7.071068e-011 7.071068e-011
7575375375.3754 0.053375807 0.00095602224 -0.007865563 0.01851053 7.071068e-011 7.071068e-011 7.071068e-011 7.071068e-011
7583783783.7838 -0.01184414 0.024162509 -0.014466153 -0.014048016 7.071068e-011 7.071068e-011 7.071068e-011 7.071068e-011
7592192192.1922 0.045622207 0.060602337 0.018000919 -0.0083816834 7.071068e-011 7.071068e-011 7.071068e-011 7.071068e-011
7600600600.6006 0.051706735 -0.024502827 0.00093522499 0.01950022 7.071068e-011 7.071068e-011 7.071068e-011 7.071068e-011
7609009009.009 -0.038134441 -0.01060457 -0.01892026 -0.0064836857 7.071068e-011 7.071068e-011 7.071068e-011 7.071068e-011
7617417417.4174 -0.0048695887 0.058177017 0.012590459 -0.015371605 7.071068e-011 7.071068e-011 7.071068e-011 7.071068e-011
7625825825.8258 0.026262201 -0.0043736598 0.0094840657 0.017390901 7.071068e-011 7.071068e-011 7.071068e-011 7.071068e-011
7634234234.2342 -0.060766555 0.0042433585 -0.019564211 0.0025049795 7.071068e-011 7.071068e-011 7.071068e-011 7.071068e-011
7642642642.6426 -0.026361255 0.091627076 0.0049386653 -0.018942278 7.071068e-011 7.071068e-011 7.071068e-011 7.071068e-011
7651051051.0511 0.03746644 0.042336199 0.015807189 0.011674431 7.071068e-011 7.071068e-011 7.071068e-011 7.071068e-011
7659459459.4595 -0.02993951 0.018188009 -0.01676398 0.010733495 7.071068e-011 7.071068e-011 7.071068e-011 7.071068e-011
7667867867.8679 -0.011472321 0.10260195 -0.0039623408 -0.01912887 7.071068e-011 7.071068e-011 7.071068e-011 7.071068e-011
7676276276.2763 0.073977023 0.05882379 0.019124756 0.0039074421 7.071068e-011 7.071068e-011 7.071068e-011 7.071068e-011
7684684684.6847 0.021138374 -0.0039256867 -0.01072852 0.01666541 7.071068e-011 7.071068e-011 7.071068e-011 7.071068e-011
7693093093.0931 0.00081785134 0.054630686 -0.011539222 -0.015946664 7.071068e-011 7.071068e-011 7.071068e-011 7.071068e-011
7701501501.5015 0.071163677 0.03234509 0.019033521 -0.0048907246 7.071068e-011 7.071068e-011 7.071068e-011 7.071068e-011
7709909909.9099 0.023138614 -0.04244436 -0.00255387 0.019548651 7.071068e-011 7.071068e-011 7.071068e-011 7.071068e-011
7718318318.3183 -0.033085905 0.01097595 -0.017271712 -0.0095518045 7.071068e-011 7.071068e-011 7.071068e-011 7.071068e-011
7726726726.7267 0.024501806 0.0277604 0.015432077 -0.012307472 7.071068e-011 7.071068e-011 7.071068e-011 7.071068e-011
7735135135.1351 0.0028040325 -0.041417286 0.0060131704 0.018964656 7.071068e-011 7.071068e-011 7.071068e-011 7.071068e-011
7743543543.5435 -0.075139172 -6.4498847e-005 -0.019565552 -0.001390203 7.071068e-011 7.071068e-011 7.071068e-011 7.071068e-011
7751951951.952 -0.030147864 0.064342804 0.008678331 -0.017742006 7.071068e-011 7.071068e-011 7.071068e-011 7.071068e-011
7760360360.3604 -0.0027470673 0.017237715 0.013321918 0.014632409 7.071068e-011 7.071068e-011 7.071068e-011 7.071068e-011
7768768768.7688 -0.05840287 0.028610624 -0.018587044 0.0069439667 7.071068e-011 7.071068e-011 7.071068e-011 7.071068e-011
7777177177.1772 -0.027112354 0.095533803 0.00052891613 -0.019751601 7.071068e-011 7.071068e-011 7.071068e-011 7.071068e-011
7785585585.5856 0.033812262 0.05795471 0.018185597 0.0077681658 7.071068e-011 7.071068e-011 7.071068e-011 7.071068e-011
7793993993.994 -0.0056271711 0.027788725 -0.013882273 0.013765617 7.071068e-011 7.071068e-011 7.071068e-011 7.071068e-011
7802402402.4024 -0.00046168768 0.075027384 -0.0076542287 -0.018377986 7.071068e-011 7.071068e-011 7.071068e-011 7.071068e-011
7810810810.8108 0.058156133 0.048824728 0.019806832 -0.00052759727 7.071068e-011 7.071068e-011 7.071068e-011 7.071068e-011
7819219219.2192 0.025827518 -0.0064791818 -0.0070807077 0.01839228 7.071068e-011 7.071068e-011 7.071068e-011 7.071068e-011
7827627627.6276 -0.003552801 0.027025573 -0.0144779 -0.013424032 7.071068e-011 7.071068e-011 7.071068e-011 7.071068e-011
7836036036.036 0.037577789 0.025625946 0.017837578 -0.0084221913 7.071068e-011 7.071068e-011 7.071068e-011 7.071068e-011
7844444444.4444 0.01643626 -0.02374828 0.0011896256 0.019742917 7.071068e-011 7.071068e-011 7.071068e-011 7.071068e-011
7852852852.8529 -0.028250583 0.0030396972 -0.018845182 -0.0062964419 7.071068e-011 7.071068e-011 7.071068e-011 7.071068e-011
7861261261.2613 0.0017404619 0.029546076 0.012738235 -0.015117821 7.071068e-011 7.071068e-011 7.071068e-011 7.071068e-011
7869669669.6697 0.0055199997 -0.0093573751 0.0090929046 0.017556643 7.071068e-011 7.071068e-011 7.071068e-011 7.071068e-011
7878078078.0781 -0.040549722 0.0034645086 -0.019835934 0.0020399517 7.071068e-011 7.071068e-011 7.071068e-011 7.071068e-011
7886486486.4865 -0.024249496 0.047013599 0.0053191222 -0.01907249 7.071068e-011 7.071068e-011 7.071068e-011 7.071068e-011
7894894894.8949 0.010874714 0.030122625 0.015476313 0.011947338 7.071068e-011 7.071068e-011 7.071068e-011 7.071068e-011
7903303303.3033 -0.013583492 0.011199444 -0.017076785 0.0097738123 7.071068e-011 7.071068e-011 7.071068e-011 7.071068e-011
7911711711.7117 -0.017792974 0.043941822 -0.002840505 -0.01950432 7.071068e-011 7.071068e-011 7.071068e-011 7.071068e-011
7920120120.1201 0.023115776 0.044914354 0.018941971 0.0046656714 7.071068e-011 7.071068e-011 7.071068e-011 7.071068e-011
7928528528.5285 0.023606794 0.0018560905 -0.011419831 0.015792139 7.071068e-011 7.071068e-011 7.071068e-011 7.071068e-011
7936936936.9369 -0.010069613 0.011300771 -0.010231724 -0.016378289 7.071068e-011 7.071068e-011 7.071068e-011 7.071068e-011
7945345345.3453 0.018033721 0.032120276 0.019044012 -0.0031621985 7.071068e-011 7.071068e-011 7.071068e-011 7.071068e-011
