!Keysight Technologies,N5235B,MY61252044,A.15.00.15
!Date: Friday, January 20, 2023 18:30:17
!Correction: S11(Off) 
!S21(Off) 
!S12(Off) 
!S22(Off) 
!S2P File: Measurements: S11, S21, S12, S22:
# Hz S  RI   R 50
6600000000 0.016517917 -0.17422217 0.014917225 -0.0052192099 7.071068e-011 7.071068e-011 7.071068e-011 7.071068e-011
6608400000 -0.12318171 0.16698343 0.006787742 0.010014392 7.071068e-011 7.071068e-011 7.071068e-011 7.071068e-011
6616800000 0.30705723 0.091074415 -0.0083361389 0.0048798234 7.071068e-011 7.071068e-011 7.071068e-011 7.071068e-011
6625200000 0.023006557 -0.27296352 -0.0029952994 -0.008999397 7.071068e-011 7.071068e-011 7.071068e-011 7.071068e-011
6633600000 -0.16544929 0.16206971 0.0092122396 -0.0015931189 7.071068e-011 7.071068e-011 7.071068e-011 7.071068e-011
6642000000 0.29060939 0.11339625 -0.00067645131 0.0094600432 7.071068e-011 7.071068e-011 7.071068e-011 7.071068e-011
6650400000 0.039112493 -0.25279367 -0.011116711 -0.0027895784 7.071068e-011 7.071068e-011 7.071068e-011 7.071068e-011
6658800000 -0.14893998 0.13391246 0.0046052607 -0.012109965 7.071068e-011 7.071068e-011 7.071068e-011 7.071068e-011
6667200000 0.2283379 0.10312185 0.013093965 0.0077345027 7.071068e-011 7.071068e-011 7.071068e-011 7.071068e-011
6675600000 0.044099122 -0.15284233 -0.0100401 0.01489929 7.071068e-011 7.071068e-011 7.071068e-011 7.071068e-011
6684000000 -0.045360681 0.084418908 -0.01587108 -0.011857979 7.071068e-011 7.071068e-011 7.071068e-011 7.071068e-011
6692400000 0.10566808 0.048432164 0.01328396 -0.01628761 7.071068e-011 7.071068e-011 7.071068e-011 7.071068e-011
6700800000 0.086011864 0.017017614 0.01608311 0.014004185 7.071068e-011 7.071068e-011 7.071068e-011 7.071068e-011
6709200000 0.077711351 -0.039997555 -0.014434197 0.014432916 7.071068e-011 7.071068e-011 7.071068e-011 7.071068e-011
6717600000 -0.031245966 0.032030273 -0.01153311 -0.015614516 7.071068e-011 7.071068e-011 7.071068e-011 7.071068e-011
6726000000 0.15313984 0.11770056 0.016185787 -0.0084346412 7.071068e-011 7.071068e-011 7.071068e-011 7.071068e-011
6734400000 0.13142918 -0.13868801 0.0048139133 0.015939131 7.071068e-011 7.071068e-011 7.071068e-011 7.071068e-011
6742800000 -0.10801473 0.0221898 -0.015927119 0.00090422516 7.071068e-011 7.071068e-011 7.071068e-011 7.071068e-011
6751200000 0.16765486 0.1554976 0.0025631734 -0.015622088 7.071068e-011 7.071068e-011 7.071068e-011 7.071068e-011
6759600000 0.15550938 -0.16895451 0.013644682 0.0062134522 7.071068e-011 7.071068e-011 7.071068e-011 7.071068e-011
6768000000 -0.14687052 -0.011568541 -0.010198297 0.011055032 7.071068e-011 7.071068e-011 7.071068e-011 7.071068e-011
6776400000 0.12898338 0.1817527 -0.0087546278 -0.013009069 7.071068e-011 7.071068e-011 7.071068e-011 7.071068e-011
6784800000 0.15638551 -0.14240144 0.014315778 -0.004803645 7.071068e-011 7.071068e-011 7.071068e-011 7.071068e-011
6793200000 -0.14665207 -0.014154917 0.00042421281 0.015511133 7.071068e-011 7.071068e-011 7.071068e-011 7.071068e-011
6801600000 0.095276937 0.20560679 -0.015920397 -0.0036119374 7.071068e-011 7.071068e-011 7.071068e-011 7.071068e-011
6810000000 0.17690985 -0.090581022 0.0081048319 -0.014789417 7.071068e-011 7.071068e-011 7.071068e-011 7.071068e-011
6818400000 -0.10305005 -0.017534353 0.012571837 0.012771063 7.071068e-011 7.071068e-011 7.071068e-011 7.071068e-011
6826800000 0.080653891 0.18789178 -0.01565166 0.0096783657 7.071068e-011 7.071068e-011 7.071068e-011 7.071068e-011
6835200000 0.18554902 -0.044590708 -0.0049721259 -0.017761685 7.071068e-011 7.071068e-011 7.071068e-011 7.071068e-011
6843600000 -0.042705923 -0.033050809 0.020188713 -0.00019494483 7.071068e-011 7.071068e-011 7.071068e-011 7.071068e-011
6852000000 0.068704188 0.13015072 -0.0042123948 0.020404933 7.071068e-011 7.071068e-011 7.071068e-011 7.071068e-011
6860400000 0.14838697 -0.016712341 -0.018727934 -0.0093470942 7.071068e-011 7.071068e-011 7.071068e-011 7.071068e-011
6868800000 0.0059481459 -0.030112252 0.014380098 -0.016213514 7.071068e-011 7.071068e-011 7.071068e-011 7.071068e-011
6877200000 0.050842334 0.072545908 0.01278257 0.018063456 7.071068e-011 7.071068e-011 7.071068e-011 7.071068e-011
6885600000 0.09195932 0.0087008979 -0.020457445 0.0077654901 7.071068e-011 7.071068e-011 7.071068e-011 7.071068e-011
6894000000 0.047647126 -0.0018597465 -0.0022469615 -0.022050172 7.071068e-011 7.071068e-011 7.071068e-011 7.071068e-011
6902400000 0.038329061 0.019307736 0.021998068 0.0034236861 7.071068e-011 7.071068e-011 7.071068e-011 7.071068e-011
6910800000 0.030988617 0.036190037 -0.0090320418 0.020144636 7.071068e-011 7.071068e-011 7.071068e-011 7.071068e-011
6919200000 0.076557018 0.051441055 -0.01677312 -0.013879683 7.071068e-011 7.071068e-011 7.071068e-011 7.071068e-011
6927600000 0.053569242 -0.011703735 0.017522609 -0.012482276 7.071068e-011 7.071068e-011 7.071068e-011 7.071068e-011
6936000000 -0.0030950124 0.057807837 0.0068658958 0.01970287 7.071068e-011 7.071068e-011 7.071068e-011 7.071068e-011
6944400000 0.10816005 0.09310808 -0.020898184 0.00057490397 7.071068e-011 7.071068e-011 7.071068e-011 7.071068e-011
6952800000 0.089974783 -0.043415364 0.0051120524 -0.019890634 7.071068e-011 7.071068e-011 7.071068e-011 7.071068e-011
6961200000 -0.029044505 0.047745541 0.017014842 0.010562605 7.071068e-011 7.071068e-011 7.071068e-011 7.071068e-011
6969600000 0.11812365 0.11047096 -0.015074602 0.01300116 7.071068e-011 7.071068e-011 7.071068e-011 7.071068e-011
6978000000 0.10976676 -0.06674549 -0.0076831095 -0.017752184 7.071068e-011 7.071068e-011 7.071068e-011 7.071068e-011
6986400000 -0.063904904 0.023462497 0.018840125 -0.0014549722 7.071068e-011 7.071068e-011 7.071068e-011 7.071068e-011
6994800000 0.094629139 0.13776079 -0.0045458418 0.018754184 7.071068e-011 7.071068e-011 7.071068e-011 7.071068e-011
7003200000 0.11707651 -0.051889945 -0.016158387 -0.009845023 7.071068e-011 7.071068e-011 7.071068e-011 7.071068e-011
7011600000 -0.071430333 0.021535536 0.014804376 -0.011630369 7.071068e-011 7.071068e-011 7.071068e-011 7.071068e-011
7020000000 0.078268148 0.16475768 0.0067031388 0.017796595 7.071068e-011 7.071068e-011 7.071068e-011 7.071068e-011
7028400000 0.13956752 -0.021725303 -0.018635336 0.000629685 7.071068e-011 7.071068e-011 7.071068e-011 7.071068e-011
7036800000 -0.050987918 0.019927315 0.0057477225 -0.018305693 7.071068e-011 7.071068e-011 7.071068e-011 7.071068e-011
7045200000 0.079044983 0.17304303 0.01571138 0.011033643 7.071068e-011 7.071068e-011 7.071068e-011 7.071068e-011
7053600000 0.17286715 0.0057774014 -0.015571829 0.010872232 7.071068e-011 7.071068e-011 7.071068e-011 7.071068e-011
7062000000 -0.0028911242 -0.012523177 -0.0052478095 -0.018986845 7.071068e-011 7.071068e-011 7.071068e-011 7.071068e-011
7070400000 0.068483144 0.14028981 0.019856961 0.00054537767 7.071068e-011 7.071068e-011 7.071068e-011 7.071068e-011
7078800000 0.17133455 0.015889695 -0.0071903896 0.01821002 7.071068e-011 7.071068e-011 7.071068e-011 7.071068e-011
7087200000 0.038611911 -0.032326046 -0.015463454 -0.013041715 7.071068e-011 7.071068e-011 7.071068e-011 7.071068e-011
7095600000 0.052215654 0.087427989 0.017176539 -0.010864231 7.071068e-011 7.071068e-011 7.071068e-011 7.071068e-011
7104000000 0.14883471 0.017280389 0.0045292466 0.01975695 7.071068e-011 7.071068e-011 7.071068e-011 7.071068e-011
7112400000 0.05663722 -0.046460859 -0.020492407 -0.0023427252 7.071068e-011 7.071068e-011 7.071068e-011 7.071068e-011
7120800000 0.030987881 0.028456021 0.0085165855 -0.019025758 7.071068e-011 7.071068e-011 7.071068e-011 7.071068e-011
7129200000 0.089100063 0.018812768 0.01498378 0.013920542 7.071068e-011 7.071068e-011 7.071068e-011 7.071068e-011
7137600000 0.047400929 -0.038024209 -0.018516518 0.0095593594 7.071068e-011 7.071068e-011 7.071068e-011 7.071068e-011
7146000000 -0.00014691155 0.0097290417 -0.0033153042 -0.020749511 7.071068e-011 7.071068e-011 7.071068e-011 7.071068e-011
7154400000 0.028203031 0.041905269 0.020543065 0.0035075818 7.071068e-011 7.071068e-011 7.071068e-011 7.071068e-011
7162800000 0.046253935 0.017055813 -0.010101202 0.017928079 7.071068e-011 7.071068e-011 7.071068e-011 7.071068e-011
7171200000 0.0033283723 0.017898552 -0.013786066 -0.015546967 7.071068e-011 7.071068e-011 7.071068e-011 7.071068e-011
7179600000 0.014860593 0.070187964 0.018980149 -0.0079051759 7.071068e-011 7.071068e-011 7.071068e-011 7.071068e-011
7188000000 0.066406399 0.059769839 0.00088669616 0.020815557 7.071068e-011 7.071068e-011 7.071068e-011 7.071068e-011
7196400000 0.043771561 0.010279192 -0.020003414 -0.0058047487 7.071068e-011 7.071068e-011 7.071068e-011 7.071068e-011
7204800000 0.010124061 0.062642872 0.012153206 -0.016340638 7.071068e-011 7.071068e-011 7.071068e-011 7.071068e-011
7213200000 0.079124689 0.071466297 0.011331618 0.017176133 7.071068e-011 7.071068e-011 7.071068e-011 7.071068e-011
7221600000 0.071698606 -0.0027119112 -0.020121219 0.0051113581 7.071068e-011 7.071068e-011 7.071068e-011 7.071068e-011
7230000000 -0.00079303765 0.028799864 0.0019234156 -0.020523658 7.071068e-011 7.071068e-011 7.071068e-011 7.071068e-011
7238400000 0.065025501 0.078627177 0.018668918 0.009146763 7.071068e-011 7.071068e-011 7.071068e-011 7.071068e-011
7246800000 0.081005521 -0.0095432168 -0.014817175 0.014658441 7.071068e-011 7.071068e-011 7.071068e-011 7.071068e-011
7255200000 -0.013003124 0.00020673733 -0.0084524155 -0.018773906 7.071068e-011 7.071068e-011 7.071068e-011 7.071068e-011
7263600000 0.027052954 0.084020846 0.020773303 -0.0016547085 7.071068e-011 7.071068e-011 7.071068e-011 7.071068e-011
7272000000 0.078610532 0.0078833327 -0.0052566011 0.019971985 7.071068e-011 7.071068e-011 7.071068e-011 7.071068e-011
7280400000 -0.023680916 -0.0061884467 -0.016856082 -0.011865489 7.071068e-011 7.071068e-011 7.071068e-011 7.071068e-011
7288800000 -0.0087645752 0.1032777 0.017243827 -0.011497447 7.071068e-011 7.071068e-011 7.071068e-011 7.071068e-011
7297200000 0.084907196 0.059634477 0.0049249451 0.020202814 7.071068e-011 7.071068e-011 7.071068e-011 7.071068e-011
7305600000 0.0085403621 0.0045333328 -0.02047945 -0.0025170709 7.071068e-011 7.071068e-011 7.071068e-011 7.071068e-011
7314000000 -0.0038429031 0.10631765 0.0094449967 -0.01880113 7.071068e-011 7.071068e-011 7.071068e-011 7.071068e-011
7322400000 0.10873543 0.085476071 0.014270121 0.015024613 7.071068e-011 7.071068e-011 7.071068e-011 7.071068e-011
7330800000 0.060258925 -0.011691171 -0.019410884 0.0077314135 7.071068e-011 7.071068e-011 7.071068e-011 7.071068e-011
7339200000 0.0040625893 0.060853705 -0.00069355668 -0.021255044 7.071068e-011 7.071068e-011 7.071068e-011 7.071068e-011
7347600000 0.099292047 0.072115287 0.020025793 0.0064720316 7.071068e-011 7.071068e-011 7.071068e-011 7.071068e-011
7356000000 0.075926326 -0.033726476 -0.013117747 0.016244372 7.071068e-011 7.071068e-011 7.071068e-011 7.071068e-011
7364400000 -0.010146543 0.012571802 -0.010861483 -0.018184328 7.071068e-011 7.071068e-011 7.071068e-011 7.071068e-011
7372800000 0.054799747 0.054646548 0.020581594 -0.0039663888 7.071068e-011 7.071068e-011 7.071068e-011 7.071068e-011
7381200000 0.052854478 -0.030954171 -0.003942945 0.020774139 7.071068e-011 7.071068e-011 7.071068e-011 7.071068e-011
7389600000 -0.040865231 0.00063543458 -0.018255319 -0.010879954 7.071068e-011 7.071068e-011 7.071068e-011 7.071068e-011
7398000000 0.0055475533 0.071985923 0.016548511 -0.013031751 7.071068e-011 7.071068e-011 7.071068e-011 7.071068e-011
7406400000 0.033021048 0.01482769 0.0063890745 0.020207398 7.071068e-011 7.071068e-011 7.071068e-011 7.071068e-011
7414800000 -0.03813133 0.027282028 -0.021348335 -0.0010166378 7.071068e-011 7.071068e-011 7.071068e-011 7.071068e-011
7423200000 -0.0016180868 0.10367855 0.0083434638 -0.01958965 7.071068e-011 7.071068e-011 7.071068e-011 7.071068e-011
7431600000 0.055591453 0.060503218 0.015280626 0.014913681 7.071068e-011 7.071068e-011 7.071068e-011 7.071068e-011
7440000000 0.013217103 0.038466871 -0.019331316 0.009276011 7.071068e-011 7.071068e-011 7.071068e-011 7.071068e-011
7448400000 0.024184642 0.085608318 -0.0017627805 -0.021130055 7.071068e-011 7.071068e-011 7.071068e-011 7.071068e-011
7456800000 0.077442385 0.055346895 0.020419413 0.0059257853 7.071068e-011 7.071068e-011 7.071068e-011 7.071068e-011
7465200000 0.046093557 0.013915159 -0.012740759 0.017089901 7.071068e-011 7.071068e-011 7.071068e-011 7.071068e-011
7473600000 0.028550044 0.036994733 -0.011441512 -0.017780634 7.071068e-011 7.071068e-011 7.071068e-011 7.071068e-011
7482000000 0.058441598 0.03325408 0.020648098 -0.0041045388 7.071068e-011 7.071068e-011 7.071068e-011 7.071068e-011
7490400000 0.043587554 -0.010925285 -0.0035078903 0.02082938 7.071068e-011 7.071068e-011 7.071068e-011 7.071068e-011
7498800000 -0.00079309667 -0.0014321998 -0.018059257 -0.010620386 7.071068e-011 7.071068e-011 7.071068e-011 7.071068e-011
7507200000 0.00058754889 0.030898185 0.016358675 -0.013077489 7.071068e-011 7.071068e-011 7.071068e-011 7.071068e-011
7515600000 0.020625215 0.015344844 0.0063410434 0.019845404 7.071068e-011 7.071068e-011 7.071068e-011 7.071068e-011
7524000000 -0.021070473 0.00312617 -0.020670326 -0.0012636802 7.071068e-011 7.071068e-011 7.071068e-011 7.071068e-011
7532400000 -0.034142945 0.060123909 0.00871999 -0.018726738 7.071068e-011 7.071068e-011 7.071068e-011 7.071068e-011
7540800000 0.022835309 0.073213875 0.014411915 0.014712933 7.071068e-011 7.071068e-011 7.071068e-011 7.071068e-011
7549200000 0.019415705 0.022284804 -0.018566947 0.0077964552 7.071068e-011 7.071068e-011 7.071068e-011 7.071068e-011
7557600000 -0.018408777 0.061132431 -0.00038372076 -0.020254213 7.071068e-011 7.071068e-011 7.071068e-011 7.071068e-011
7566000000 0.047963869 0.083527416 0.018855451 0.0069460883 7.071068e-011 7.071068e-011 7.071068e-011 7.071068e-011
7574400000 0.060839463 0.0078087919 -0.013512719 0.014862252 7.071068e-011 7.071068e-011 7.071068e-011 7.071068e-011
7582800000 -0.009926741 0.015453853 -0.0088826753 -0.018015582 7.071068e-011 7.071068e-011 7.071068e-011 7.071068e-011
7591200000 0.036755223 0.0643868 0.019758601 -0.0017926337 7.071068e-011 7.071068e-011 7.071068e-011 7.071068e-011
7599600000 0.059181128 -0.015170764 -0.0057146554 0.018674608 7.071068e-011 7.071068e-011 7.071068e-011 7.071068e-011
7608000000 -0.031079598 -0.020485528 -0.015476801 -0.01263614 7.071068e-011 7.071068e-011 7.071068e-011 7.071068e-011
7616400000 -0.014824516 0.056810074 0.017203037 -0.010028127 7.071068e-011 7.071068e-011 7.071068e-011 7.071068e-011
7624800000 0.031474471 0.0049223439 0.0027008273 0.019561438 7.071068e-011 7.071068e-011 7.071068e-011 7.071068e-011
7633200000 -0.052777458 -0.0061210734 -0.019127384 -0.0046627684 7.071068e-011 7.071068e-011 7.071068e-011 7.071068e-011
7641600000 -0.038193639 0.086882852 0.011406058 -0.015873553 7.071068e-011 7.071068e-011 7.071068e-011 7.071068e-011
7650000000 0.037749257 0.053025503 0.010485246 0.016594196 7.071068e-011 7.071068e-011 7.071068e-011 7.071068e-011
7658400000 -0.021015948 0.011709548 -0.019533735 0.0037574861 7.071068e-011 7.071068e-011 7.071068e-011 7.071068e-011
7666800000 -0.022746217 0.095936134 0.0034597239 -0.019267455 7.071068e-011 7.071068e-011 7.071068e-011 7.071068e-011
7675200000 0.069694906 0.071570396 0.016156061 0.010762381 7.071068e-011 7.071068e-011 7.071068e-011 7.071068e-011
7683600000 0.031824742 -0.0041222838 -0.01626973 0.011262315 7.071068e-011 7.071068e-011 7.071068e-011 7.071068e-011
7692000000 -0.0052218512 0.047074173 -0.0045626606 -0.019146655 7.071068e-011 7.071068e-011 7.071068e-011 7.071068e-011
7700400000 0.065855481 0.043731317 0.019457936 0.0028259829 7.071068e-011 7.071068e-011 7.071068e-011 7.071068e-011
7708800000 0.035544027 -0.039777875 -0.0099921543 0.016942073 7.071068e-011 7.071068e-011 7.071068e-011 7.071068e-011
7717200000 -0.033662435 0.00085917424 -0.012026748 -0.015640115 7.071068e-011 7.071068e-011 7.071068e-011 7.071068e-011
7725600000 0.016989313 0.033784173 0.018996965 -0.0051077763 7.071068e-011 7.071068e-011 7.071068e-011 7.071068e-011
7734000000 0.013997347 -0.035742961 -0.0021469179 0.019755444 7.071068e-011 7.071068e-011 7.071068e-011 7.071068e-011
7742400000 -0.070815019 -0.012161974 -0.017301802 -0.0091676852 7.071068e-011 7.071068e-011 7.071068e-011 7.071068e-011
7750800000 -0.040462427 0.062474519 0.015214276 -0.01256058 7.071068e-011 7.071068e-011 7.071068e-011 7.071068e-011
7759200000 0.001521604 0.025160141 0.0060341572 0.018889938 7.071068e-011 7.071068e-011 7.071068e-011 7.071068e-011
7767600000 -0.053452846 0.019557217 -0.019774161 -0.0014753338 7.071068e-011 7.071068e-011 7.071068e-011 7.071068e-011
7776000000 -0.03768722 0.09102612 0.0087534627 -0.017626114 7.071068e-011 7.071068e-011 7.071068e-011 7.071068e-011
7784400000 0.031493802 0.067959622 0.013111047 0.014768469 7.071068e-011 7.071068e-011 7.071068e-011 7.071068e-011
7792800000 0.0011663609 0.024799412 -0.018464167 0.0065428251 7.071068e-011 7.071068e-011 7.071068e-011 7.071068e-011
7801200000 -0.0075897775 0.070333637 0.0010866891 -0.019851919 7.071068e-011 7.071068e-011 7.071068e-011 7.071068e-011
7809600000 0.053183354 0.058399983 0.018049017 0.0082189897 7.071068e-011 7.071068e-011 7.071068e-011 7.071068e-011
7818000000 0.035242252 -0.0043371506 -0.014417444 0.0133242 7.071068e-011 7.071068e-011 7.071068e-011 7.071068e-011
7826400000 -0.0055531869 0.0209349 -0.0069923555 -0.018455813 7.071068e-011 7.071068e-011 7.071068e-011 7.071068e-011
7834800000 0.032649714 0.031575546 0.019728292 0.00043674564 7.071068e-011 7.071068e-011 7.071068e-011 7.071068e-011
7843200000 0.025227724 -0.019747894 -0.0078481259 0.018170118 7.071068e-011 7.071068e-011 7.071068e-011 7.071068e-011
7851600000 -0.026834203 -0.0045259087 -0.013866786 -0.014192116 7.071068e-011 7.071068e-011 7.071068e-011 7.071068e-011
7860000000 -0.0040377867 0.030774111 0.018276721 -0.0075675906 7.071068e-011 7.071068e-011 7.071068e-011 7.071068e-011
7868400000 0.0103462 -0.003594945 -6.0975501e-005 0.019728746 7.071068e-011 7.071068e-011 7.071068e-011 7.071068e-011
7876800000 -0.036282901 -0.0037472374 -0.018482238 -0.0074701472 7.071068e-011 7.071068e-011 7.071068e-011 7.071068e-011
7885200000 -0.030502249 0.043510653 0.013662445 -0.014342746 7.071068e-011 7.071068e-011 7.071068e-011 7.071068e-011
7893600000 0.0088777523 0.036122542 0.0079818433 0.017859878 7.071068e-011 7.071068e-011 7.071068e-011 7.071068e-011
7902000000 -0.0083655082 0.0092908423 -0.019653019 0.00038629075 7.071068e-011 7.071068e-011 7.071068e-011 7.071068e-011
7910400000 -0.021393033 0.03915162 0.0069288248 -0.01850993 7.071068e-011 7.071068e-011 7.071068e-011 7.071068e-011
7918800000 0.017176263 0.04897004 0.014350167 0.013203172 7.071068e-011 7.071068e-011 7.071068e-011 7.071068e-011
7927200000 0.028514275 0.0073590013 -0.017656641 0.0081874672 7.071068e-011 7.071068e-011 7.071068e-011 7.071068e-011
7935600000 -0.0080253715 0.0058918558 -0.00084055244 -0.019328207 7.071068e-011 7.071068e-011 7.071068e-011 7.071068e-011
7944000000 0.011025202 0.033212896 0.01814932 0.006688551 7.071068e-011 7.071068e-011 7.071068e-011 7.071068e-011
7952400000 0.037524346 -0.0056616175 -0.013115612 0.014223782 7.071068e-011 7.071068e-011 7.071068e-011 7.071068e-011
7960800000 -0.01511734 -0.033348069 -0.0082717082 -0.017460402 7.071068e-011 7.071068e-011 7.071068e-011 7.071068e-011
7969200000 -0.029135991 0.020911137 0.019009041 -0.00090273586 7.071068e-011 7.071068e-011 7.071068e-011 7.071068e-011
7977600000 0.02006663 0.006733282 -0.0065419502 0.017892512 7.071068e-011 7.071068e-011 7.071068e-011 7.071068e-011
7986000000 -0.024332386 -0.039728791 -0.014075004 -0.012833171 7.071068e-011 7.071068e-011 7.071068e-011 7.071068e-011
7994400000 -0.065310679 0.024900727 0.017138189 -0.0081324521 7.071068e-011 7.071068e-011 7.071068e-011 7.071068e-011
