!Keysight Technologies,N5235B,MY61252044,A.15.00.15
!Date: Friday, January 20, 2023 18:32:30
!Correction: S11(Off) 
!S21(Off) 
!S12(Off) 
!S22(Off) 
!S2P File: Measurements: S11, S21, S12, S22:
# Hz S  RI   R 50
6600000000 0.016649058 -0.17427005 0.014913159 -0.005218212 7.071068e-011 7.071068e-011 7.071068e-011 7.071068e-011
6608400000 -0.12330138 0.16685304 0.0067861429 0.010011211 7.071068e-011 7.071068e-011 7.071068e-011 7.071068e-011
6616800000 0.30698171 0.09126389 -0.0083360011 0.0048736413 7.071068e-011 7.071068e-011 7.071068e-011 7.071068e-011
6625200000 0.023224061 -0.27296957 -0.002991973 -0.0090013659 7.071068e-011 7.071068e-011 7.071068e-011 7.071068e-011
6633600000 -0.16557246 0.16187838 0.0092108902 -0.0015891023 7.071068e-011 7.071068e-011 7.071068e-011 7.071068e-011
6642000000 0.2905198 0.11357857 -0.0006782554 0.009457876 7.071068e-011 7.071068e-011 7.071068e-011 7.071068e-011
6650400000 0.039313063 -0.25279471 -0.011118558 -0.0027946946 7.071068e-011 7.071068e-011 7.071068e-011 7.071068e-011
6658800000 -0.14903758 0.13375962 0.0046103196 -0.012105053 7.071068e-011 7.071068e-011 7.071068e-011 7.071068e-011
6667200000 0.2282491 0.10324875 0.01308704 0.007736457 7.071068e-011 7.071068e-011 7.071068e-011 7.071068e-011
6675600000 0.044223301 -0.15281269 -0.010039687 0.01489754 7.071068e-011 7.071068e-011 7.071068e-011 7.071068e-011
6684000000 -0.045389634 0.084321611 -0.015862199 -0.011855272 7.071068e-011 7.071068e-011 7.071068e-011 7.071068e-011
6692400000 0.10562093 0.048484817 0.013288631 -0.016280334 7.071068e-011 7.071068e-011 7.071068e-011 7.071068e-011
6700800000 0.08603289 0.017037034 0.016075069 0.014009706 7.071068e-011 7.071068e-011 7.071068e-011 7.071068e-011
6709200000 0.077749662 -0.03997856 -0.014430976 0.014430765 7.071068e-011 7.071068e-011 7.071068e-011 7.071068e-011
6717600000 -0.031249505 0.031936053 -0.011529069 -0.015615706 7.071068e-011 7.071068e-011 7.071068e-011 7.071068e-011
6726000000 0.15304887 0.11777283 0.016184783 -0.0084261661 7.071068e-011 7.071068e-011 7.071068e-011 7.071068e-011
6734400000 0.13154486 -0.13863112 0.004803753 0.015934981 7.071068e-011 7.071068e-011 7.071068e-011 7.071068e-011
6742800000 -0.10803968 0.022048792 -0.015924368 0.00090040837 7.071068e-011 7.071068e-011 7.071068e-011 7.071068e-011
6751200000 0.16753672 0.1555737 0.0025613713 -0.015620755 7.071068e-011 7.071068e-011 7.071068e-011 7.071068e-011
6759600000 0.1556263 -0.16886459 0.013636836 0.0062144776 7.071068e-011 7.071068e-011 7.071068e-011 7.071068e-011
6768000000 -0.14683881 -0.011717718 -0.01020123 0.011051855 7.071068e-011 7.071068e-011 7.071068e-011 7.071068e-011
6776400000 0.12883398 0.18180597 -0.0087484866 -0.013012945 7.071068e-011 7.071068e-011 7.071068e-011 7.071068e-011
6784800000 0.15649655 -0.14227775 0.014314466 -0.0047985683 7.071068e-011 7.071068e-011 7.071068e-011 7.071068e-011
6793200000 -0.14661308 -0.014313891 0.00041887927 0.015506914 7.071068e-011 7.071068e-011 7.071068e-011 7.071068e-011
6801600000 0.09513554 0.20564708 -0.015914518 -0.0036151526 7.071068e-011 7.071068e-011 7.071068e-011 7.071068e-011
6810000000 0.17700806 -0.09048678 0.0081122424 -0.014788169 7.071068e-011 7.071068e-011 7.071068e-011 7.071068e-011
6818400000 -0.10301703 -0.017650617 0.012565357 0.01277218 7.071068e-011 7.071068e-011 7.071068e-011 7.071068e-011
6826800000 0.080544412 0.18789223 -0.015652178 0.0096733905 7.071068e-011 7.071068e-011 7.071068e-011 7.071068e-011
6835200000 0.18559346 -0.044485893 -0.0049645905 -0.017755929 7.071068e-011 7.071068e-011 7.071068e-011 7.071068e-011
6843600000 -0.042628605 -0.033132333 0.020183343 -0.00018923877 7.071068e-011 7.071068e-011 7.071068e-011 7.071068e-011
6852000000 0.068604521 0.13012709 -0.0042146808 0.020397892 7.071068e-011 7.071068e-011 7.071068e-011 7.071068e-011
6860400000 0.14842092 -0.016634874 -0.018719159 -0.0093491469 7.071068e-011 7.071068e-011 7.071068e-011 7.071068e-011
6868800000 0.0059837876 -0.030167686 0.014384471 -0.016207883 7.071068e-011 7.071068e-011 7.071068e-011 7.071068e-011
6877200000 0.050807364 0.072546884 0.012776108 0.01806714 7.071068e-011 7.071068e-011 7.071068e-011 7.071068e-011
6885600000 0.091967337 0.0087138815 -0.020460559 0.0077584088 7.071068e-011 7.071068e-011 7.071068e-011 7.071068e-011
6894000000 0.047661845 -0.0018470658 -0.002238353 -0.022049282 7.071068e-011 7.071068e-011 7.071068e-011 7.071068e-011
6902400000 0.038343228 0.019286454 0.021994002 0.0034284142 7.071068e-011 7.071068e-011 7.071068e-011 7.071068e-011
6910800000 0.0309656 0.036196467 -0.009032473 0.020136733 7.071068e-011 7.071068e-011 7.071068e-011 7.071068e-011
6919200000 0.076563299 0.051462151 -0.016766939 -0.013882477 7.071068e-011 7.071068e-011 7.071068e-011 7.071068e-011
6927600000 0.053596884 -0.011697582 0.017529784 -0.012472457 7.071068e-011 7.071068e-011 7.071068e-011 7.071068e-011
6936000000 -0.0030912037 0.057768982 0.0068596206 0.019702686 7.071068e-011 7.071068e-011 7.071068e-011 7.071068e-011
6944400000 0.10810711 0.093151323 -0.020893157 0.00057206862 7.071068e-011 7.071068e-011 7.071068e-011 7.071068e-011
6952800000 0.090057716 -0.043380771 0.0051169158 -0.019885795 7.071068e-011 7.071068e-011 7.071068e-011 7.071068e-011
6961200000 -0.029068973 0.047662921 0.01700514 0.010569364 7.071068e-011 7.071068e-011 7.071068e-011 7.071068e-011
6969600000 0.11807197 0.11054444 -0.015074845 0.012990328 7.071068e-011 7.071068e-011 7.071068e-011 7.071068e-011
6978000000 0.10985296 -0.066716276 -0.0076776128 -0.017749215 7.071068e-011 7.071068e-011 7.071068e-011 7.071068e-011
6986400000 -0.063906685 0.023386365 0.018834533 -0.0014564334 7.071068e-011 7.071068e-011 7.071068e-011 7.071068e-011
6994800000 0.094551221 0.1377987 -0.0045545357 0.018749179 7.071068e-011 7.071068e-011 7.071068e-011 7.071068e-011
7003200000 0.11714083 -0.051812809 -0.01615428 -0.0098550813 7.071068e-011 7.071068e-011 7.071068e-011 7.071068e-011
7011600000 -0.07139504 0.021439342 0.014809272 -0.011621592 7.071068e-011 7.071068e-011 7.071068e-011 7.071068e-011
7020000000 0.078163765 0.16480166 0.0066966764 0.017794982 7.071068e-011 7.071068e-011 7.071068e-011 7.071068e-011
7028400000 0.13965356 -0.021639325 -0.018636279 0.00062978111 7.071068e-011 7.071068e-011 7.071068e-011 7.071068e-011
7036800000 -0.050960414 0.019826874 0.005754122 -0.018301563 7.071068e-011 7.071068e-011 7.071068e-011 7.071068e-011
7045200000 0.078960486 0.1730766 0.015707374 0.011045854 7.071068e-011 7.071068e-011 7.071068e-011 7.071068e-011
7053600000 0.17291416 0.0058458429 -0.015578106 0.01086578 7.071068e-011 7.071068e-011 7.071068e-011 7.071068e-011
7062000000 -0.0028391648 -0.012574647 -0.0052444562 -0.018983832 7.071068e-011 7.071068e-011 7.071068e-011 7.071068e-011
7070400000 0.068410367 0.14026543 0.019855099 0.00054666447 7.071068e-011 7.071068e-011 7.071068e-011 7.071068e-011
7078800000 0.17134319 0.015983865 -0.00719772 0.018202391 7.071068e-011 7.071068e-011 7.071068e-011 7.071068e-011
7087200000 0.038686324 -0.032365266 -0.01545193 -0.013051571 7.071068e-011 7.071068e-011 7.071068e-011 7.071068e-011
7095600000 0.052149214 0.087398745 0.017174477 -0.010852447 7.071068e-011 7.071068e-011 7.071068e-011 7.071068e-011
7104000000 0.14885257 0.01734799 0.0045258524 0.019753547 7.071068e-011 7.071068e-011 7.071068e-011 7.071068e-011
7112400000 0.056672648 -0.046488605 -0.020488517 -0.0023457073 7.071068e-011 7.071068e-011 7.071068e-011 7.071068e-011
7120800000 0.030977642 0.028443063 0.008522531 -0.019019406 7.071068e-011 7.071068e-011 7.071068e-011 7.071068e-011
7129200000 0.08907941 0.018828519 0.014976987 0.013922567 7.071068e-011 7.071068e-011 7.071068e-011 7.071068e-011
7137600000 0.047436833 -0.037998959 -0.018515248 0.0095508788 7.071068e-011 7.071068e-011 7.071068e-011 7.071068e-011
7146000000 -0.00014098398 0.0096840393 -0.0033114546 -0.020746671 7.071068e-011 7.071068e-011 7.071068e-011 7.071068e-011
7154400000 0.028171379 0.041930474 0.02053565 0.0035139034 7.071068e-011 7.071068e-011 7.071068e-011 7.071068e-011
7162800000 0.046281029 0.017074458 -0.010105346 0.017918434 7.071068e-011 7.071068e-011 7.071068e-011 7.071068e-011
7171200000 0.0033324645 0.017888168 -0.013773425 -0.015552157 7.071068e-011 7.071068e-011 7.071068e-011 7.071068e-011
7179600000 0.014856664 0.070188999 0.018979503 -0.0078943279 7.071068e-011 7.071068e-011 7.071068e-011 7.071068e-011
7188000000 0.066385046 0.059792198 0.00087717088 0.020816403 7.071068e-011 7.071068e-011 7.071068e-011 7.071068e-011
7196400000 0.043815531 0.010299919 -0.019998627 -0.0058091129 7.071068e-011 7.071068e-011 7.071068e-011 7.071068e-011
7204800000 0.010103825 0.062601611 0.012152309 -0.016333597 7.071068e-011 7.071068e-011 7.071068e-011 7.071068e-011
7213200000 0.079096995 0.071517207 0.011319439 0.017178642 7.071068e-011 7.071068e-011 7.071068e-011 7.071068e-011
7221600000 0.071742699 -0.0027065848 -0.020119702 0.0051003727 7.071068e-011 7.071068e-011 7.071068e-011 7.071068e-011
7230000000 -0.00080673705 0.028773112 0.0019274063 -0.020517591 7.071068e-011 7.071068e-011 7.071068e-011 7.071068e-011
7238400000 0.064998984 0.078640036 0.018665098 0.0091480371 7.071068e-011 7.071068e-011 7.071068e-011 7.071068e-011
7246800000 0.081023782 -0.0095047886 -0.014820911 0.014650327 7.071068e-011 7.071068e-011 7.071068e-011 7.071068e-011
7255200000 -0.012965429 0.00016730567 -0.008438128 -0.018779103 7.071068e-011 7.071068e-011 7.071068e-011 7.071068e-011
7263600000 0.026987504 0.084004611 0.020769546 -0.001643129 7.071068e-011 7.071068e-011 7.071068e-011 7.071068e-011
7272000000 0.078629322 0.0079515902 -0.0052572046 0.01997027 7.071068e-011 7.071068e-011 7.071068e-011 7.071068e-011
7280400000 -0.023639685 -0.0062475344 -0.016848901 -0.011866389 7.071068e-011 7.071068e-011 7.071068e-011 7.071068e-011
7288800000 -0.0088191638 0.10327049 0.017250871 -0.011486752 7.071068e-011 7.071068e-011 7.071068e-011 7.071068e-011
7297200000 0.084911846 0.05967759 0.004910205 0.020198852 7.071068e-011 7.071068e-011 7.071068e-011 7.071068e-011
7305600000 0.0085750669 0.0045253527 -0.020469045 -0.0025229361 7.071068e-011 7.071068e-011 7.071068e-011 7.071068e-011
7314000000 -0.0038597009 0.10627975 0.0094441185 -0.018794421 7.071068e-011 7.071068e-011 7.071068e-011 7.071068e-011
7322400000 0.10869885 0.085533448 0.014258373 0.015025993 7.071068e-011 7.071068e-011 7.071068e-011 7.071068e-011
7330800000 0.060336377 -0.011675053 -0.019410362 0.0077250218 7.071068e-011 7.071068e-011 7.071068e-011 7.071068e-011
7339200000 0.0040413272 0.060790192 -0.00068379112 -0.02125377 7.071068e-011 7.071068e-011 7.071068e-011 7.071068e-011
7347600000 0.099264465 0.072178841 0.020018635 0.0064806202 7.071068e-011 7.071068e-011 7.071068e-011 7.071068e-011
7356000000 0.075978927 -0.033724222 -0.013116375 0.016232487 7.071068e-011 7.071068e-011 7.071068e-011 7.071068e-011
7364400000 -0.010158052 0.012535947 -0.010852297 -0.018186068 7.071068e-011 7.071068e-011 7.071068e-011 7.071068e-011
7372800000 0.054777026 0.054657061 0.02057969 -0.0039583603 7.071068e-011 7.071068e-011 7.071068e-011 7.071068e-011
7381200000 0.05287607 -0.030911028 -0.0039570061 0.020768488 7.071068e-011 7.071068e-011 7.071068e-011 7.071068e-011
7389600000 -0.04083268 0.00059451128 -0.018249033 -0.010883123 7.071068e-011 7.071068e-011 7.071068e-011 7.071068e-011
7398000000 0.0054872641 0.071987599 0.016547825 -0.013022718 7.071068e-011 7.071068e-011 7.071068e-011 7.071068e-011
7406400000 0.033052776 0.014876028 0.0063807443 0.020205813 7.071068e-011 7.071068e-011 7.071068e-011 7.071068e-011
7414800000 -0.038110457 0.027235191 -0.02134021 -0.001024487 7.071068e-011 7.071068e-011 7.071068e-011 7.071068e-011
7423200000 -0.0016608741 0.10369118 0.0083514592 -0.019583318 7.071068e-011 7.071068e-011 7.071068e-011 7.071068e-011
7431600000 0.055601608 0.060518812 0.015275213 0.01491723 7.071068e-011 7.071068e-011 7.071068e-011 7.071068e-011
7440000000 0.013232286 0.038461704 -0.019331275 0.009267129 7.071068e-011 7.071068e-011 7.071068e-011 7.071068e-011
7448400000 0.02418091 0.085587911 -0.0017579232 -0.021128058 7.071068e-011 7.071068e-011 7.071068e-011 7.071068e-011
7456800000 0.077417791 0.055377983 0.020411739 0.0059295655 7.071068e-011 7.071068e-011 7.071068e-011 7.071068e-011
7465200000 0.046138607 0.013914942 -0.01275024 0.01707823 7.071068e-011 7.071068e-011 7.071068e-011 7.071068e-011
7473600000 0.028525269 0.036964405 -0.011431879 -0.017784884 7.071068e-011 7.071068e-011 7.071068e-011 7.071068e-011
7482000000 0.058433089 0.033285655 0.020646114 -0.0040964186 7.071068e-011 7.071068e-011 7.071068e-011 7.071068e-011
7490400000 0.043599386 -0.010932913 -0.0035078372 0.020826826 7.071068e-011 7.071068e-011 7.071068e-011 7.071068e-011
7498800000 -0.00078951207 -0.001432155 -0.01804884 -0.01062388 7.071068e-011 7.071068e-011 7.071068e-011 7.071068e-011
7507200000 0.00057412992 0.030881358 0.016360648 -0.013065696 7.071068e-011 7.071068e-011 7.071068e-011 7.071068e-011
7515600000 0.020611944 0.015385403 0.0063310224 0.019842163 7.071068e-011 7.071068e-011 7.071068e-011 7.071068e-011
7524000000 -0.021024685 0.0031143338 -0.020662352 -0.0012663503 7.071068e-011 7.071068e-011 7.071068e-011 7.071068e-011
7532400000 -0.034175288 0.060094558 0.0087210648 -0.018718347 7.071068e-011 7.071068e-011 7.071068e-011 7.071068e-011
7540800000 0.02283157 0.073248491 0.014402856 0.014719594 7.071068e-011 7.071068e-011 7.071068e-011 7.071068e-011
7549200000 0.019434469 0.022281345 -0.018565265 0.0077872085 7.071068e-011 7.071068e-011 7.071068e-011 7.071068e-011
7557600000 -0.01840678 0.061114695 -0.00037588994 -0.020251984 7.071068e-011 7.071068e-011 7.071068e-011 7.071068e-011
7566000000 0.047939051 0.083526917 0.018846605 0.0069448077 7.071068e-011 7.071068e-011 7.071068e-011 7.071068e-011
7574400000 0.06086887 0.0078511108 -0.013515325 0.014850941 7.071068e-011 7.071068e-011 7.071068e-011 7.071068e-011
7582800000 -0.0098947044 0.015400868 -0.0088749658 -0.018018294 7.071068e-011 7.071068e-011 7.071068e-011 7.071068e-011
7591200000 0.036691137 0.06439805 0.019760448 -0.0017849358 7.071068e-011 7.071068e-011 7.071068e-011 7.071068e-011
7599600000 0.059222955 -0.015131105 -0.0057147788 0.018670127 7.071068e-011 7.071068e-011 7.071068e-011 7.071068e-011
7608000000 -0.031073788 -0.020531781 -0.015470767 -0.012640093 7.071068e-011 7.071068e-011 7.071068e-011 7.071068e-011
7616400000 -0.014857532 0.056810297 0.017207058 -0.010014345 7.071068e-011 7.071068e-011 7.071068e-011 7.071068e-011
7624800000 0.031478234 0.0049462882 0.0026919493 0.019557521 7.071068e-011 7.071068e-011 7.071068e-011 7.071068e-011
7633200000 -0.052748788 -0.0061349361 -0.019123502 -0.0046645738 7.071068e-011 7.071068e-011 7.071068e-011 7.071068e-011
7641600000 -0.038226616 0.086850777 0.011402989 -0.015864369 7.071068e-011 7.071068e-011 7.071068e-011 7.071068e-011
7650000000 0.037728164 0.053086951 0.01047659 0.01659626 7.071068e-011 7.071068e-011 7.071068e-011 7.071068e-011
7658400000 -0.020951485 0.011687146 -0.019533625 0.0037453116 7.071068e-011 7.071068e-011 7.071068e-011 7.071068e-011
7666800000 -0.022799022 0.095907435 0.0034656259 -0.019264843 7.071068e-011 7.071068e-011 7.071068e-011 7.071068e-011
7675200000 0.069694057 0.071623921 0.01614975 0.010761105 7.071068e-011 7.071068e-011 7.071068e-011 7.071068e-011
7683600000 0.031858776 -0.0041363784 -0.016264357 0.011259675 7.071068e-011 7.071068e-011 7.071068e-011 7.071068e-011
7692000000 -0.0052268812 0.047048677 -0.0045544794 -0.019146757 7.071068e-011 7.071068e-011 7.071068e-011 7.071068e-011
7700400000 0.065825075 0.043735322 0.019452855 0.0028354125 7.071068e-011 7.071068e-011 7.071068e-011 7.071068e-011
7708800000 0.035578918 -0.039751347 -0.010000474 0.016931765 7.071068e-011 7.071068e-011 7.071068e-011 7.071068e-011
7717200000 -0.033645295 0.00079975219 -0.012019149 -0.015640981 7.071068e-011 7.071068e-011 7.071068e-011 7.071068e-011
7725600000 0.016926842 0.033804979 0.018994911 -0.0051041204 7.071068e-011 7.071068e-011 7.071068e-011 7.071068e-011
7734000000 0.014047579 -0.035707269 -0.002152015 0.019754734 7.071068e-011 7.071068e-011 7.071068e-011 7.071068e-011
7742400000 -0.070812412 -0.012212625 -0.017293297 -0.0091747008 7.071068e-011 7.071068e-011 7.071068e-011 7.071068e-011
7750800000 -0.040493213 0.062486246 0.015219466 -0.01254838 7.071068e-011 7.071068e-011 7.071068e-011 7.071068e-011
7759200000 0.0015253156 0.025179883 0.006027929 0.01889131 7.071068e-011 7.071068e-011 7.071068e-011 7.071068e-011
7767600000 -0.053431407 0.019556854 -0.019773928 -0.0014822101 7.071068e-011 7.071068e-011 7.071068e-011 7.071068e-011
7776000000 -0.037709206 0.090987936 0.0087582432 -0.01761372 7.071068e-011 7.071068e-011 7.071068e-011 7.071068e-011
7784400000 0.031469226 0.068005174 0.013099911 0.014773033 7.071068e-011 7.071068e-011 7.071068e-011 7.071068e-011
7792800000 0.0012203499 0.024787487 -0.018463578 0.0065309159 7.071068e-011 7.071068e-011 7.071068e-011 7.071068e-011
7801200000 -0.0076263766 0.070299014 0.0011007395 -0.01984502 7.071068e-011 7.071068e-011 7.071068e-011 7.071068e-011
7809600000 0.053182703 0.058439061 0.018044064 0.0082206037 7.071068e-011 7.071068e-011 7.071068e-011 7.071068e-011
7818000000 0.035259902 -0.0043508606 -0.014413309 0.013316768 7.071068e-011 7.071068e-011 7.071068e-011 7.071068e-011
7826400000 -0.0055518718 0.020924451 -0.0069847158 -0.018450117 7.071068e-011 7.071068e-011 7.071068e-011 7.071068e-011
7834800000 0.032634065 0.031568769 0.019723242 0.00045003253 7.071068e-011 7.071068e-011 7.071068e-011 7.071068e-011
7843200000 0.025237182 -0.019712832 -0.0078588752 0.018156705 7.071068e-011 7.071068e-011 7.071068e-011 7.071068e-011
7851600000 -0.026807712 -0.004566309 -0.013859225 -0.01418981 7.071068e-011 7.071068e-011 7.071068e-011 7.071068e-011
7860000000 -0.004087057 0.030781165 0.01826817 -0.0075640436 7.071068e-011 7.071068e-011 7.071068e-011 7.071068e-011
7868400000 0.010379773 -0.0035633843 -6.9042144e-005 0.019723071 7.071068e-011 7.071068e-011 7.071068e-011 7.071068e-011
7876800000 -0.036277495 -0.0037838886 -0.018470658 -0.0074815196 7.071068e-011 7.071068e-011 7.071068e-011 7.071068e-011
7885200000 -0.030511903 0.043514136 0.013666737 -0.014333082 7.071068e-011 7.071068e-011 7.071068e-011 7.071068e-011
7893600000 0.0088604791 0.036124226 0.0079826321 0.017859699 7.071068e-011 7.071068e-011 7.071068e-011 7.071068e-011
7902000000 -0.0083458144 0.0093057388 -0.019647069 0.00038567645 7.071068e-011 7.071068e-011 7.071068e-011 7.071068e-011
7910400000 -0.02137986 0.039107155 0.0069391904 -0.018500822 7.071068e-011 7.071068e-011 7.071068e-011 7.071068e-011
7918800000 0.017135676 0.048980251 0.014337511 0.013211532 7.071068e-011 7.071068e-011 7.071068e-011 7.071068e-011
7927200000 0.02855061 0.0073742787 -0.017658046 0.0081778737 7.071068e-011 7.071068e-011 7.071068e-011 7.071068e-011
7935600000 -0.0080318023 0.0058581657 -0.00083853886 -0.019322397 7.071068e-011 7.071068e-011 7.071068e-011 7.071068e-011
7944000000 0.011015444 0.03321673 0.018143175 0.0066929939 7.071068e-011 7.071068e-011 7.071068e-011 7.071068e-011
7952400000 0.03751893 -0.0056539718 -0.013118925 0.014212316 7.071068e-011 7.071068e-011 7.071068e-011 7.071068e-011
7960800000 -0.015082887 -0.033343181 -0.0082619386 -0.017454954 7.071068e-011 7.071068e-011 7.071068e-011 7.071068e-011
7969200000 -0.029158825 0.020864973 0.019002726 -0.00089788553 7.071068e-011 7.071068e-011 7.071068e-011 7.071068e-011
7977600000 0.020043243 0.006781091 -0.0065515614 0.017889041 7.071068e-011 7.071068e-011 7.071068e-011 7.071068e-011
7986000000 -0.02427662 -0.039738741 -0.014067369 -0.012832536 7.071068e-011 7.071068e-011 7.071068e-011 7.071068e-011
7994400000 -0.065347724 0.024863001 0.017139774 -0.0081206933 7.071068e-011 7.071068e-011 7.071068e-011 7.071068e-011
