!Keysight Technologies,N5235B,MY61252044,A.15.00.15
!Date: Friday, January 20, 2023 23:01:55
!Correction: S11(Off) 
!S21(Off) 
!S12(Off) 
!S22(Off) 
!S2P File: Measurements: S11, S21, S12, S22:
# Hz S  RI   R 50
6600000000 0.018321609 -0.17512202 0.015464605 -0.0030405603 7.071068e-011 7.071068e-011 7.071068e-011 7.071068e-011
6608408408.4084 -0.12434906 0.16579312 0.0053039808 0.010840825 7.071068e-011 7.071068e-011 7.071068e-011 7.071068e-011
6616816816.8168 0.30610055 0.092392974 -0.0089134192 0.0036890588 7.071068e-011 7.071068e-011 7.071068e-011 7.071068e-011
6625225225.2252 0.024271917 -0.27294281 -0.0017808874 -0.009306551 7.071068e-011 7.071068e-011 7.071068e-011 7.071068e-011
6633633633.6336 -0.16552812 0.16171093 0.0093381871 -0.00038535573 7.071068e-011 7.071068e-011 7.071068e-011 7.071068e-011
6642042042.042 0.29006991 0.11288273 -0.0018579471 0.0093181618 7.071068e-011 7.071068e-011 7.071068e-011 7.071068e-011
6650450450.4505 0.038822595 -0.25209013 -0.010722169 -0.0040948605 7.071068e-011 7.071068e-011 7.071068e-011 7.071068e-011
6658858858.8589 -0.14828317 0.13464455 0.0059814807 -0.011492183 7.071068e-011 7.071068e-011 7.071068e-011 7.071068e-011
6667267267.2673 0.22865544 0.10106035 0.012197734 0.0091741979 7.071068e-011 7.071068e-011 7.071068e-011 7.071068e-011
6675675675.6757 0.042686645 -0.15114059 -0.011543869 0.013817364 7.071068e-011 7.071068e-011 7.071068e-011 7.071068e-011
6684084084.0841 -0.044353694 0.08430922 -0.014591062 -0.013359582 7.071068e-011 7.071068e-011 7.071068e-011 7.071068e-011
6692492492.4925 0.10589273 0.047434028 0.014830529 -0.01491059 7.071068e-011 7.071068e-011 7.071068e-011 7.071068e-011
6700900900.9009 0.085923821 0.01825762 0.014759927 0.01542391 7.071068e-011 7.071068e-011 7.071068e-011 7.071068e-011
6709309309.3093 0.077162914 -0.041841645 -0.015562272 0.01310323 7.071068e-011 7.071068e-011 7.071068e-011 7.071068e-011
6717717717.7177 -0.031124635 0.034439139 -0.010137249 -0.01648584 7.071068e-011 7.071068e-011 7.071068e-011 7.071068e-011
6726126126.1261 0.15514627 0.11619757 0.016807418 -0.0070821424 7.071068e-011 7.071068e-011 7.071068e-011 7.071068e-011
6734534534.5345 0.12848839 -0.14068462 0.0035530408 0.016237807 7.071068e-011 7.071068e-011 7.071068e-011 7.071068e-011
6742942942.9429 -0.10784986 0.026785288 -0.015914407 -0.00028074312 7.071068e-011 7.071068e-011 7.071068e-011 7.071068e-011
6751351351.3514 0.17161646 0.15250775 0.0036201237 -0.015372217 7.071068e-011 7.071068e-011 7.071068e-011 7.071068e-011
6759759759.7598 0.15056224 -0.17162313 0.013183588 0.0070724189 7.071068e-011 7.071068e-011 7.071068e-011 7.071068e-011
6768168168.1682 -0.14692086 -0.0053566908 -0.010860344 0.010409614 7.071068e-011 7.071068e-011 7.071068e-011 7.071068e-011
6776576576.5766 0.13416304 0.17886664 -0.0080005545 -0.013475254 7.071068e-011 7.071068e-011 7.071068e-011 7.071068e-011
6784984984.985 0.15109165 -0.14626059 0.014558946 -0.0040141731 7.071068e-011 7.071068e-011 7.071068e-011 7.071068e-011
6793393393.3934 -0.14743151 -0.0064762495 -0.0003506034 0.015522867 7.071068e-011 7.071068e-011 7.071068e-011 7.071068e-011
6801801801.8018 0.10162003 0.20263381 -0.015717199 -0.0042986078 7.071068e-011 7.071068e-011 7.071068e-011 7.071068e-011
6810210210.2102 0.17236422 -0.094990119 0.0086777871 -0.014431068 7.071068e-011 7.071068e-011 7.071068e-011 7.071068e-011
6818618618.6186 -0.10534953 -0.010257308 0.012141733 0.013239815 7.071068e-011 7.071068e-011 7.071068e-011 7.071068e-011
6827027027.027 0.087907784 0.18545485 -0.015962441 0.0092044743 7.071068e-011 7.071068e-011 7.071068e-011 7.071068e-011
6835435435.4354 0.18142578 -0.048831087 -0.0044744508 -0.017896138 7.071068e-011 7.071068e-011 7.071068e-011 7.071068e-011
6843843843.8438 -0.045465641 -0.027978651 0.020170925 0.00025363354 7.071068e-011 7.071068e-011 7.071068e-011 7.071068e-011
6852252252.2523 0.074799545 0.12926368 -0.0045884177 0.020297987 7.071068e-011 7.071068e-011 7.071068e-011 7.071068e-011
6860660660.6607 0.14508568 -0.020314073 -0.018600756 -0.0096120993 7.071068e-011 7.071068e-011 7.071068e-011 7.071068e-011
6869069069.0691 0.004129081 -0.027007574 0.014520237 -0.016085008 7.071068e-011 7.071068e-011 7.071068e-011 7.071068e-011
6877477477.4775 0.054065172 0.07256306 0.012674815 0.018092938 7.071068e-011 7.071068e-011 7.071068e-011 7.071068e-011
6885885885.8859 0.09036871 0.0068788086 -0.020449847 0.0077003064 7.071068e-011 7.071068e-011 7.071068e-011 7.071068e-011
6894294294.2943 0.047229514 -0.0010128283 -0.0023030611 -0.022015322 7.071068e-011 7.071068e-011 7.071068e-011 7.071068e-011
6902702702.7027 0.038228076 0.019390237 0.021986054 0.0032467626 7.071068e-011 7.071068e-011 7.071068e-011 7.071068e-011
6911111111.1111 0.031015472 0.037659694 -0.0087820441 0.020206382 7.071068e-011 7.071068e-011 7.071068e-011 7.071068e-011
6919519519.5195 0.078284584 0.049904794 -0.016940396 -0.013623183 7.071068e-011 7.071068e-011 7.071068e-011 7.071068e-011
6927927927.9279 0.050713506 -0.012389434 0.017242484 -0.012771642 7.071068e-011 7.071068e-011 7.071068e-011 7.071068e-011
6936336336.3363 -0.0021463132 0.06224221 0.007269416 0.019473629 7.071068e-011 7.071068e-011 7.071068e-011 7.071068e-011
6944744744.7447 0.11247185 0.08930999 -0.020831481 0.0011465334 7.071068e-011 7.071068e-011 7.071068e-011 7.071068e-011
6953153153.1532 0.084232882 -0.045559052 0.0044873999 -0.01999265 7.071068e-011 7.071068e-011 7.071068e-011 7.071068e-011
6961561561.5616 -0.028310683 0.054528914 0.017333278 0.0099480357 7.071068e-011 7.071068e-011 7.071068e-011 7.071068e-011
6969969969.97 0.12473103 0.10582768 -0.014509584 0.013544624 7.071068e-011 7.071068e-011 7.071068e-011 7.071068e-011
6978378378.3784 0.10159675 -0.070851408 -0.0083817467 -0.017366201 7.071068e-011 7.071068e-011 7.071068e-011 7.071068e-011
6986786786.7868 -0.064073376 0.032868944 0.018727588 -0.0022823024 7.071068e-011 7.071068e-011 7.071068e-011 7.071068e-011
6995195195.1952 0.10310178 0.1338377 -0.0035518224 0.01891401 7.071068e-011 7.071068e-011 7.071068e-011 7.071068e-011
7003603603.6036 0.10879092 -0.057981882 -0.016601741 -0.0089016007 7.071068e-011 7.071068e-011 7.071068e-011 7.071068e-011
7012012012.012 -0.072704956 0.032631841 0.014117528 -0.012471493 7.071068e-011 7.071068e-011 7.071068e-011 7.071068e-011
7020420420.4204 0.088183962 0.1613856 0.0077940985 0.017323345 7.071068e-011 7.071068e-011 7.071068e-011 7.071068e-011
7028828828.8288 0.13251854 -0.029134665 -0.018523509 0.0018311996 7.071068e-011 7.071068e-011 7.071068e-011 7.071068e-011
7037237237.2372 -0.054030858 0.030843766 0.0044158543 -0.018641459 7.071068e-011 7.071068e-011 7.071068e-011 7.071068e-011
7045645645.6456 0.090199538 0.17088474 0.016447281 0.0097970944 7.071068e-011 7.071068e-011 7.071068e-011 7.071068e-011
7054054054.0541 0.16751859 -0.0032126207 -0.014672696 0.012045501 7.071068e-011 7.071068e-011 7.071068e-011 7.071068e-011
7062462462.4625 -0.0082008075 -0.0038691687 -0.0068371054 -0.01847055 7.071068e-011 7.071068e-011 7.071068e-011 7.071068e-011
7070870870.8709 0.078413859 0.14040694 0.019769233 -0.0012001918 7.071068e-011 7.071068e-011 7.071068e-011 7.071068e-011
7079279279.2793 0.16830786 0.0072328891 -0.0055456664 0.018795168 7.071068e-011 7.071068e-011 7.071068e-011 7.071068e-011
7087687687.6877 0.032434233 -0.026889466 -0.016646935 -0.011482146 7.071068e-011 7.071068e-011 7.071068e-011 7.071068e-011
7096096096.0961 0.059615958 0.089308374 0.015937759 -0.012483386 7.071068e-011 7.071068e-011 7.071068e-011 7.071068e-011
7104504504.5045 0.14777283 0.010290714 0.0065362877 0.019135699 7.071068e-011 7.071068e-011 7.071068e-011 7.071068e-011
7112912912.9129 0.050779812 -0.044613373 -0.02064169 -0.00012080867 7.071068e-011 7.071068e-011 7.071068e-011 7.071068e-011
7121321321.3213 0.034443811 0.031952899 0.0063043693 -0.01984177 7.071068e-011 7.071068e-011 7.071068e-011 7.071068e-011
7129729729.7297 0.089331388 0.014420274 0.016450997 0.012072936 7.071068e-011 7.071068e-011 7.071068e-011 7.071068e-011
7138138138.1381 0.043363124 -0.037806425 -0.017184025 0.011702917 7.071068e-011 7.071068e-011 7.071068e-011 7.071068e-011
7146546546.5465 -0.00051386049 0.013670609 -0.0058511323 -0.020119414 7.071068e-011 7.071068e-011 7.071068e-011 7.071068e-011
7154954954.955 0.030697213 0.041303627 0.02080485 0.0008471288 7.071068e-011 7.071068e-011 7.071068e-011 7.071068e-011
7163363363.3634 0.044926807 0.015716085 -0.0076589608 0.019100485 7.071068e-011 7.071068e-011 7.071068e-011 7.071068e-011
7171771771.7718 0.0011684276 0.020290604 -0.015753482 -0.013473811 7.071068e-011 7.071068e-011 7.071068e-011 7.071068e-011
7180180180.1802 0.018490233 0.072555415 0.017618017 -0.01039864 7.071068e-011 7.071068e-011 7.071068e-011 7.071068e-011
7188588588.5886 0.067783251 0.056111816 0.0038833308 0.020449072 7.071068e-011 7.071068e-011 7.071068e-011 7.071068e-011
7196996996.997 0.039831985 0.010125889 -0.020609694 -0.0027328481 7.071068e-011 7.071068e-011 7.071068e-011 7.071068e-011
7205405405.4054 0.012320857 0.067169398 0.0095404005 -0.018000603 7.071068e-011 7.071068e-011 7.071068e-011 7.071068e-011
7213813813.8138 0.083242558 0.067196965 0.013848552 0.015187006 7.071068e-011 7.071068e-011 7.071068e-011 7.071068e-011
7222222222.2222 0.066171534 -0.0055016563 -0.018985735 0.0082288077 7.071068e-011 7.071068e-011 7.071068e-011 7.071068e-011
7230630630.6306 -0.0013019915 0.035181236 -0.0014424609 -0.020491764 7.071068e-011 7.071068e-011 7.071068e-011 7.071068e-011
7239039039.039 0.071575008 0.075574756 0.01995372 0.0058443532 7.071068e-011 7.071068e-011 7.071068e-011 7.071068e-011
7247447447.4474 0.075227261 -0.014838014 -0.012007121 0.016985791 7.071068e-011 7.071068e-011 7.071068e-011 7.071068e-011
7255855855.8559 -0.016620861 0.0073905387 -0.011599568 -0.017014235 7.071068e-011 7.071068e-011 7.071068e-011 7.071068e-011
7264264264.2643 0.034931205 0.084063806 0.020118037 -0.0053537861 7.071068e-011 7.071068e-011 7.071068e-011 7.071068e-011
7272672672.6727 0.074361727 0.00060405157 -0.0015088095 0.020535391 7.071068e-011 7.071068e-011 7.071068e-011 7.071068e-011
7281081081.0811 -0.029889733 0.00084452279 -0.018726658 -0.0084469886 7.071068e-011 7.071068e-011 7.071068e-011 7.071068e-011
7289489489.4895 2.6470583e-005 0.10762007 0.014693859 -0.014620806 7.071068e-011 7.071068e-011 7.071068e-011 7.071068e-011
7297897897.8979 0.084974326 0.050617099 0.0088101327 0.018823437 7.071068e-011 7.071068e-011 7.071068e-011 7.071068e-011
7306306306.3063 0.001030734 0.0088860542 -0.020578621 0.0015843119 7.071068e-011 7.071068e-011 7.071068e-011 7.071068e-011
7314714714.7147 0.0041344645 0.11283699 0.0053905593 -0.020293489 7.071068e-011 7.071068e-011 7.071068e-011 7.071068e-011
7323123123.1231 0.11269978 0.075327098 0.01701021 0.011727305 7.071068e-011 7.071068e-011 7.071068e-011 7.071068e-011
7331531531.5315 0.051178802 -0.011827871 -0.017323706 0.011716671 7.071068e-011 7.071068e-011 7.071068e-011 7.071068e-011
7339939939.9399 0.0079498217 0.06869594 -0.005327859 -0.020548843 7.071068e-011 7.071068e-011 7.071068e-011 7.071068e-011
7348348348.3483 0.10551648 0.06363491 0.020921573 0.0019170595 7.071068e-011 7.071068e-011 7.071068e-011 7.071068e-011
7356756756.7568 0.066120438 -0.036995187 -0.0091946814 0.018790187 7.071068e-011 7.071068e-011 7.071068e-011 7.071068e-011
7365165165.1652 -0.010223731 0.020913044 -0.014749452 -0.015186675 7.071068e-011 7.071068e-011 7.071068e-011 7.071068e-011
7373573573.5736 0.061579414 0.049814273 0.019007761 -0.0085751787 7.071068e-011 7.071068e-011 7.071068e-011 7.071068e-011
7381981981.982 0.043932661 -0.035403185 0.0010772367 0.021119935 7.071068e-011 7.071068e-011 7.071068e-011 7.071068e-011
7390390390.3904 -0.043101445 0.0097073521 -0.020337714 -0.0061487276 7.071068e-011 7.071068e-011 7.071068e-011 7.071068e-011
7398798798.7988 0.013014554 0.07121779 0.012884295 -0.016704714 7.071068e-011 7.071068e-011 7.071068e-011 7.071068e-011
7407207207.2072 0.027909901 0.0098090926 0.011197624 0.017977795 7.071068e-011 7.071068e-011 7.071068e-011 7.071068e-011
7415615615.6156 -0.040952556 0.035380702 -0.020872055 0.0044020708 7.071068e-011 7.071068e-011 7.071068e-011 7.071068e-011
7424024024.024 0.0067859092 0.1050195 0.0030478633 -0.021039095 7.071068e-011 7.071068e-011 7.071068e-011 7.071068e-011
7432432432.4324 0.054710913 0.054118611 0.018680507 0.010406658 7.071068e-011 7.071068e-011 7.071068e-011 7.071068e-011
7440840840.8408 0.0097851641 0.042350058 -0.016126726 0.014063804 7.071068e-011 7.071068e-011 7.071068e-011 7.071068e-011
7449249249.2492 0.030265938 0.087123297 -0.0073371632 -0.019866081 7.071068e-011 7.071068e-011 7.071068e-011 7.071068e-011
7457657657.6577 0.077954613 0.048971586 0.02125496 0.00015861305 7.071068e-011 7.071068e-011 7.071068e-011 7.071068e-011
7466066066.0661 0.041744094 0.014072275 -0.0075064702 0.019939255 7.071068e-011 7.071068e-011 7.071068e-011 7.071068e-011
7474474474.4745 0.03050969 0.039325822 -0.015944501 -0.013822933 7.071068e-011 7.071068e-011 7.071068e-011 7.071068e-011
7482882882.8829 0.059873093 0.029105 0.018625172 -0.0098096682 7.071068e-011 7.071068e-011 7.071068e-011 7.071068e-011
7491291291.2913 0.03891699 -0.013378366 0.0026553809 0.020925203 7.071068e-011 7.071068e-011 7.071068e-011 7.071068e-011
7499699699.6997 -0.0033394299 0.0024049275 -0.020361539 -0.0049144221 7.071068e-011 7.071068e-011 7.071068e-011 7.071068e-011
7508108108.1081 0.0032956142 0.03194562 0.011740114 -0.017321141 7.071068e-011 7.071068e-011 7.071068e-011 7.071068e-011
7516516516.5165 0.019390827 0.01193802 0.01199764 0.016983744 7.071068e-011 7.071068e-011 7.071068e-011 7.071068e-011
7524924924.9249 -0.026405105 0.0065936311 -0.020022918 0.0050800992 7.071068e-011 7.071068e-011 7.071068e-011 7.071068e-011
7533333333.3333 -0.029811902 0.065983973 0.0025330021 -0.020495988 7.071068e-011 7.071068e-011 7.071068e-011 7.071068e-011
7541741741.7417 0.027837604 0.068877548 0.018251743 0.0094804252 7.071068e-011 7.071068e-011 7.071068e-011 7.071068e-011
7550150150.1502 0.013016889 0.020586204 -0.015209191 0.013222001 7.071068e-011 7.071068e-011 7.071068e-011 7.071068e-011
7558558558.5586 -0.015339725 0.068453088 -0.0068505094 -0.019030888 7.071068e-011 7.071068e-011 7.071068e-011 7.071068e-011
7566966966.967 0.055621374 0.078111865 0.019992294 0.00048473175 7.071068e-011 7.071068e-011 7.071068e-011 7.071068e-011
7575375375.3754 0.053574648 0.00095424207 -0.0079103159 0.018453019 7.071068e-011 7.071068e-011 7.071068e-011 7.071068e-011
7583783783.7838 -0.01187857 0.024020871 -0.014393224 -0.01407794 7.071068e-011 7.071068e-011 7.071068e-011 7.071068e-011
7592192192.1922 0.045485836 0.060631603 0.018001661 -0.0083087096 7.071068e-011 7.071068e-011 7.071068e-011 7.071068e-011
7600600600.6006 0.051776364 -0.024334002 0.00086923339 0.019477444 7.071068e-011 7.071068e-011 7.071068e-011 7.071068e-011
7609009009.009 -0.037967935 -0.010796894 -0.018871367 -0.0065403464 7.071068e-011 7.071068e-011 7.071068e-011 7.071068e-011
7617417417.4174 -0.0051837265 0.058128502 0.012623966 -0.015310109 7.071068e-011 7.071068e-011 7.071068e-011 7.071068e-011
7625825825.8258 0.026419563 -0.0040803403 0.0094200205 0.017396143 7.071068e-011 7.071068e-011 7.071068e-011 7.071068e-011
7634234234.2342 -0.060636748 0.0039543984 -0.019541847 0.0024385019 7.071068e-011 7.071068e-011 7.071068e-011 7.071068e-011
7642642642.6426 -0.02662007 0.09165474 0.0049922252 -0.01889208 7.071068e-011 7.071068e-011 7.071068e-011 7.071068e-011
7651051051.0511 0.037551992 0.04250247 0.015740672 0.011703132 7.071068e-011 7.071068e-011 7.071068e-011 7.071068e-011
7659459459.4595 -0.029806452 0.018109057 -0.016774684 0.010653096 7.071068e-011 7.071068e-011 7.071068e-011 7.071068e-011
7667867867.8679 -0.011590408 0.1024377 -0.0038846815 -0.019113412 7.071068e-011 7.071068e-011 7.071068e-011 7.071068e-011
7676276276.2763 0.073839545 0.059044167 0.019084223 0.0039651184 7.071068e-011 7.071068e-011 7.071068e-011 7.071068e-011
7684684684.6847 0.021446154 -0.0039299955 -0.010773161 0.016606495 7.071068e-011 7.071068e-011 7.071068e-011 7.071068e-011
7693093093.0931 0.00063371111 0.054363865 -0.011469629 -0.015963582 7.071068e-011 7.071068e-011 7.071068e-011 7.071068e-011
7701501501.5015 0.071065776 0.032624353 0.019018393 -0.0048271287 7.071068e-011 7.071068e-011 7.071068e-011 7.071068e-011
7709909909.9099 0.023379419 -0.042510781 -0.0026138192 0.019505147 7.071068e-011 7.071068e-011 7.071068e-011 7.071068e-011
7718318318.3183 -0.033200033 0.010831291 -0.017207609 -0.0095937829 7.071068e-011 7.071068e-011 7.071068e-011 7.071068e-011
7726726726.7267 0.02439899 0.027834281 0.015443576 -0.012231782 7.071068e-011 7.071068e-011 7.071068e-011 7.071068e-011
7735135135.1351 0.0028892416 -0.041272916 0.0059324768 0.018951872 7.071068e-011 7.071068e-011 7.071068e-011 7.071068e-011
7743543543.5435 -0.074990764 -0.00027157934 -0.019528026 -0.0014581669 7.071068e-011 7.071068e-011 7.071068e-011 7.071068e-011
7751951951.952 -0.030450815 0.064325787 0.0087263798 -0.017681755 7.071068e-011 7.071068e-011 7.071068e-011 7.071068e-011
7760360360.3604 -0.002588118 0.017493332 0.013249256 0.014657021 7.071068e-011 7.071068e-011 7.071068e-011 7.071068e-011
7768768768.7688 -0.058303192 0.028373476 -0.018582113 0.0068696993 7.071068e-011 7.071068e-011 7.071068e-011 7.071068e-011
7777177177.1772 -0.027311526 0.095558666 0.00059197732 -0.019716384 7.071068e-011 7.071068e-011 7.071068e-011 7.071068e-011
7785585585.5856 0.033876214 0.058065027 0.018126486 0.00781292 7.071068e-011 7.071068e-011 7.071068e-011 7.071068e-011
7793993993.994 -0.0055442178 0.027760414 -0.013902592 0.013690655 7.071068e-011 7.071068e-011 7.071068e-011 7.071068e-011
7802402402.4024 -0.00049470505 0.07488399 -0.007572874 -0.018370403 7.071068e-011 7.071068e-011 7.071068e-011 7.071068e-011
7810810810.8108 0.057992704 0.048969481 0.019772351 -0.00045397531 7.071068e-011 7.071068e-011 7.071068e-011 7.071068e-011
7819219219.2192 0.02608832 -0.0064370311 -0.0071372902 0.018331926 7.071068e-011 7.071068e-011 7.071068e-011 7.071068e-011
7827627627.6276 -0.0036760597 0.02678898 -0.014404721 -0.013456728 7.071068e-011 7.071068e-011 7.071068e-011 7.071068e-011
7836036036.036 0.037488833 0.025823284 0.01784276 -0.0083448198 7.071068e-011 7.071068e-011 7.071068e-011 7.071068e-011
7844444444.4444 0.016586224 -0.023781767 0.0011177377 0.019716127 7.071068e-011 7.071068e-011 7.071068e-011 7.071068e-011
7852852852.8529 -0.028297003 0.0029702091 -0.018791137 -0.0063525666 7.071068e-011 7.071068e-011 7.071068e-011 7.071068e-011
7861261261.2613 0.001674704 0.029534871 0.012768869 -0.0150484 7.071068e-011 7.071068e-011 7.071068e-011 7.071068e-011
7869669669.6697 0.0055089439 -0.009216724 0.0090127485 0.017555719 7.071068e-011 7.071068e-011 7.071068e-011 7.071068e-011
7878078078.0781 -0.040376939 0.003360315 -0.01980743 0.0019626974 7.071068e-011 7.071068e-011 7.071068e-011 7.071068e-011
7886486486.4865 -0.024466775 0.046921507 0.0053809211 -0.019016579 7.071068e-011 7.071068e-011 7.071068e-011 7.071068e-011
7894894894.8949 0.010925302 0.030335905 0.015404588 0.01198868 7.071068e-011 7.071068e-011 7.071068e-011 7.071068e-011
7903303303.3033 -0.013480505 0.011067111 -0.017089123 0.009693725 7.071068e-011 7.071068e-011 7.071068e-011 7.071068e-011
7911711711.7117 -0.017871197 0.04392856 -0.0027671647 -0.019484639 7.071068e-011 7.071068e-011 7.071068e-011 7.071068e-011
7920120120.1201 0.023081137 0.04492186 0.018896027 0.004725147 7.071068e-011 7.071068e-011 7.071068e-011 7.071068e-011
7928528528.5285 0.023648022 0.0019690867 -0.011457551 0.01572627 7.071068e-011 7.071068e-011 7.071068e-011 7.071068e-011
7936936936.9369 -0.0099531468 0.011137559 -0.010155899 -0.016384674 7.071068e-011 7.071068e-011 7.071068e-011 7.071068e-011
7945345345.3453 0.017789463 0.032128833 0.019021071 -0.0030853206 7.071068e-011 7.071068e-011 7.071068e-011 7.071068e-011
