!Keysight Technologies,N5235B,MY61252044,A.15.00.15
!Date: Friday, January 20, 2023 23:30:30
!Correction: S11(Off) 
!S21(Off) 
!S12(Off) 
!S22(Off) 
!S2P File: Measurements: S11, S21, S12, S22:
# Hz S  RI   R 50
6600000000 0.018594962 -0.17524894 0.015459251 -0.0030394022 7.071068e-011 7.071068e-011 7.071068e-011 7.071068e-011
6608408408.4084 -0.12458696 0.16551596 0.0053019621 0.010837978 7.071068e-011 7.071068e-011 7.071068e-011 7.071068e-011
6616816816.8168 0.30594239 0.092754804 -0.0089138802 0.0036840225 7.071068e-011 7.071068e-011 7.071068e-011 7.071068e-011
6625225225.2252 0.024699835 -0.2729564 -0.0017757076 -0.0093077309 7.071068e-011 7.071068e-011 7.071068e-011 7.071068e-011
6633633633.6336 -0.16574344 0.16133173 0.0093385912 -0.00038336916 7.071068e-011 7.071068e-011 7.071068e-011 7.071068e-011
6642042042.042 0.28985521 0.11322862 -0.0018641377 0.0093180733 7.071068e-011 7.071068e-011 7.071068e-011 7.071068e-011
6650450450.4505 0.039219588 -0.25205719 -0.010722537 -0.0040997849 7.071068e-011 7.071068e-011 7.071068e-011 7.071068e-011
6658858858.8589 -0.14842208 0.1343081 0.0059857923 -0.01149075 7.071068e-011 7.071068e-011 7.071068e-011 7.071068e-011
6667267267.2673 0.22844833 0.10129157 0.012194099 0.0091797682 7.071068e-011 7.071068e-011 7.071068e-011 7.071068e-011
6675675675.6757 0.042937756 -0.15107025 -0.011547521 0.013816913 7.071068e-011 7.071068e-011 7.071068e-011 7.071068e-011
6684084084.0841 -0.044381257 0.084104769 -0.014588027 -0.013364415 7.071068e-011 7.071068e-011 7.071068e-011 7.071068e-011
6692492492.4925 0.10576332 0.04748635 0.014831836 -0.014906274 7.071068e-011 7.071068e-011 7.071068e-011 7.071068e-011
6700900900.9009 0.085965604 0.018350892 0.014752796 0.015425905 7.071068e-011 7.071068e-011 7.071068e-011 7.071068e-011
6709309309.3093 0.077271178 -0.041868396 -0.015562103 0.013095996 7.071068e-011 7.071068e-011 7.071068e-011 7.071068e-011
6717717717.7177 -0.031186052 0.034294214 -0.010127251 -0.016488187 7.071068e-011 7.071068e-011 7.071068e-011 7.071068e-011
6726126126.1261 0.15499826 0.11633699 0.016806526 -0.0070731803 7.071068e-011 7.071068e-011 7.071068e-011 7.071068e-011
6734534534.5345 0.12871522 -0.14058699 0.0035458624 0.016234297 7.071068e-011 7.071068e-011 7.071068e-011 7.071068e-011
6742942942.9429 -0.10786729 0.026504163 -0.01591035 -0.00029055288 7.071068e-011 7.071068e-011 7.071068e-011 7.071068e-011
6751351351.3514 0.17136315 0.15265857 0.0036285853 -0.015366535 7.071068e-011 7.071068e-011 7.071068e-011 7.071068e-011
6759759759.7598 0.15080929 -0.17145225 0.013177722 0.0070779142 7.071068e-011 7.071068e-011 7.071068e-011 7.071068e-011
6768168168.1682 -0.14688139 -0.0056739519 -0.010864421 0.010400733 7.071068e-011 7.071068e-011 7.071068e-011 7.071068e-011
6776576576.5766 0.13385494 0.17897667 -0.0079929922 -0.013477301 7.071068e-011 7.071068e-011 7.071068e-011 7.071068e-011
6784984984.985 0.15132822 -0.14604501 0.014559361 -0.0040046563 7.071068e-011 7.071068e-011 7.071068e-011 7.071068e-011
6793393393.3934 -0.14734484 -0.0067751724 -0.00035898527 0.015519912 7.071068e-011 7.071068e-011 7.071068e-011 7.071068e-011
6801801801.8018 0.10132653 0.20270084 -0.015712734 -0.004308227 7.071068e-011 7.071068e-011 7.071068e-011 7.071068e-011
6810210210.2102 0.17255603 -0.094754674 0.0086866757 -0.014424638 7.071068e-011 7.071068e-011 7.071068e-011 7.071068e-011
6818618618.6186 -0.10523897 -0.010513419 0.012132009 0.013245757 7.071068e-011 7.071068e-011 7.071068e-011 7.071068e-011
6827027027.027 0.087653287 0.18546256 -0.015967399 0.0091935033 7.071068e-011 7.071068e-011 7.071068e-011 7.071068e-011
6835435435.4354 0.18153259 -0.048622344 -0.0044641662 -0.017896442 7.071068e-011 7.071068e-011 7.071068e-011 7.071068e-011
6843843843.8438 -0.045336667 -0.028150104 0.020169333 0.00026584417 7.071068e-011 7.071068e-011 7.071068e-011 7.071068e-011
6852252252.2523 0.074613295 0.12923129 -0.0045994013 0.020292599 7.071068e-011 7.071068e-011 7.071068e-011 7.071068e-011
6860660660.6607 0.14512862 -0.020160822 -0.018593749 -0.0096216854 7.071068e-011 7.071068e-011 7.071068e-011 7.071068e-011
6869069069.0691 0.0042314772 -0.027099462 0.014530377 -0.01607441 7.071068e-011 7.071068e-011 7.071068e-011 7.071068e-011
6877477477.4775 0.053966694 0.072520375 0.012663307 0.018099383 7.071068e-011 7.071068e-011 7.071068e-011 7.071068e-011
6885885885.8859 0.090364158 0.006946411 -0.020453047 0.0076870304 7.071068e-011 7.071068e-011 7.071068e-011 7.071068e-011
6894294294.2943 0.047275566 -0.0010101522 -0.0022875634 -0.02201274 7.071068e-011 7.071068e-011 7.071068e-011 7.071068e-011
6902702702.7027 0.0382379 0.019348651 0.021982711 0.0032590828 7.071068e-011 7.071068e-011 7.071068e-011 7.071068e-011
6911111111.1111 0.030971317 0.037648555 -0.008794738 0.020200532 7.071068e-011 7.071068e-011 7.071068e-011 7.071068e-011
6919519519.5195 0.078274518 0.049965896 -0.016930342 -0.01363243 7.071068e-011 7.071068e-011 7.071068e-011 7.071068e-011
6927927927.9279 0.050793853 -0.012396934 0.017247172 -0.012761296 7.071068e-011 7.071068e-011 7.071068e-011 7.071068e-011
6936336336.3363 -0.0021874828 0.062152401 0.0072548813 0.019476082 7.071068e-011 7.071068e-011 7.071068e-011 7.071068e-011
6944744744.7447 0.1123893 0.089393862 -0.020832812 0.0011313225 7.071068e-011 7.071068e-011 7.071068e-011 7.071068e-011
6953153153.1532 0.084360547 -0.045518033 0.0044979416 -0.019985905 7.071068e-011 7.071068e-011 7.071068e-011 7.071068e-011
6961561561.5616 -0.028337348 0.054370087 0.017323993 0.0099600442 7.071068e-011 7.071068e-011 7.071068e-011 7.071068e-011
6969969969.97 0.12458806 0.10592268 -0.014518128 0.01353351 7.071068e-011 7.071068e-011 7.071068e-011 7.071068e-011
6978378378.3784 0.10175071 -0.070774131 -0.0083718123 -0.017372202 7.071068e-011 7.071068e-011 7.071068e-011 7.071068e-011
6986786786.7868 -0.064069785 0.032682583 0.018727792 -0.0022679302 7.071068e-011 7.071068e-011 7.071068e-011 7.071068e-011
6995195195.1952 0.10293023 0.13391763 -0.0035652274 0.018910971 7.071068e-011 7.071068e-011 7.071068e-011 7.071068e-011
7003603603.6036 0.10894102 -0.05786068 -0.01659531 -0.008912283 7.071068e-011 7.071068e-011 7.071068e-011 7.071068e-011
7012012012.012 -0.072660618 0.032431234 0.01412489 -0.012459401 7.071068e-011 7.071068e-011 7.071068e-011 7.071068e-011
7020420420.4204 0.087986581 0.16142297 0.0077824807 0.017326714 7.071068e-011 7.071068e-011 7.071068e-011 7.071068e-011
7028828828.8288 0.13264295 -0.028977254 -0.018523784 0.001818658 7.071068e-011 7.071068e-011 7.071068e-011 7.071068e-011
7037237237.2372 -0.053952038 0.030645348 0.004430512 -0.018635923 7.071068e-011 7.071068e-011 7.071068e-011 7.071068e-011
7045645645.6456 0.090001836 0.17088155 0.016439108 0.0098066675 7.071068e-011 7.071068e-011 7.071068e-011 7.071068e-011
7054054054.0541 0.16758859 -0.0030571008 -0.014678711 0.012034796 7.071068e-011 7.071068e-011 7.071068e-011 7.071068e-011
7062462462.4625 -0.0080957441 -0.0040191188 -0.0068208911 -0.018473787 7.071068e-011 7.071068e-011 7.071068e-011 7.071068e-011
7070870870.8709 0.078247592 0.14036903 0.019769676 -0.0011868305 7.071068e-011 7.071068e-011 7.071068e-011 7.071068e-011
7079279279.2793 0.16833228 0.0073803561 -0.0055559375 0.018791527 7.071068e-011 7.071068e-011 7.071068e-011 7.071068e-011
7087687687.6877 0.032554675 -0.026979575 -0.016635355 -0.011496917 7.071068e-011 7.071068e-011 7.071068e-011 7.071068e-011
7096096096.0961 0.059493069 0.089236751 0.015944002 -0.012472972 7.071068e-011 7.071068e-011 7.071068e-011 7.071068e-011
7104504504.5045 0.14775203 0.010409501 0.0065212986 0.019136963 7.071068e-011 7.071068e-011 7.071068e-011 7.071068e-011
7112912912.9129 0.05087674 -0.044655241 -0.020638617 -0.00013940835 7.071068e-011 7.071068e-011 7.071068e-011 7.071068e-011
7121321321.3213 0.034378681 0.031878084 0.0063122148 -0.019835848 7.071068e-011 7.071068e-011 7.071068e-011 7.071068e-011
7129729729.7297 0.089273222 0.014486321 0.016436495 0.01208603 7.071068e-011 7.071068e-011 7.071068e-011 7.071068e-011
7138138138.1381 0.043429993 -0.037782494 -0.017187618 0.011688725 7.071068e-011 7.071068e-011 7.071068e-011 7.071068e-011
7146546546.5465 -0.00051651476 0.013603297 -0.0058394535 -0.020119401 7.071068e-011 7.071068e-011 7.071068e-011 7.071068e-011
7154954954.955 0.030632138 0.041319486 0.020800393 0.00086776714 7.071068e-011 7.071068e-011 7.071068e-011 7.071068e-011
7163363363.3634 0.044962075 0.015768996 -0.0076653259 0.019091848 7.071068e-011 7.071068e-011 7.071068e-011 7.071068e-011
7171771771.7718 0.0012040442 0.020241924 -0.015736938 -0.013484059 7.071068e-011 7.071068e-011 7.071068e-011 7.071068e-011
7180180180.1802 0.018438568 0.072531581 0.017623389 -0.010382123 7.071068e-011 7.071068e-011 7.071068e-011 7.071068e-011
7188588588.5886 0.067766204 0.056169827 0.0038732758 0.020447053 7.071068e-011 7.071068e-011 7.071068e-011 7.071068e-011
7196996996.997 0.03990484 0.010120447 -0.020602502 -0.0027541621 7.071068e-011 7.071068e-011 7.071068e-011 7.071068e-011
7205405405.4054 0.012282876 0.067088716 0.0095513463 -0.017991655 7.071068e-011 7.071068e-011 7.071068e-011 7.071068e-011
7213813813.8138 0.083182462 0.067252941 0.013835965 0.01519621 7.071068e-011 7.071068e-011 7.071068e-011 7.071068e-011
7222222222.2222 0.066246726 -0.0054727052 -0.018991003 0.0082113398 7.071068e-011 7.071068e-011 7.071068e-011 7.071068e-011
7230630630.6306 -0.0013118463 0.035079651 -0.0014290303 -0.020490425 7.071068e-011 7.071068e-011 7.071068e-011 7.071068e-011
7239039039.039 0.071482211 0.075607754 0.01994537 0.0058598449 7.071068e-011 7.071068e-011 7.071068e-011 7.071068e-011
7247447447.4474 0.075283632 -0.014778005 -0.01202008 0.016972473 7.071068e-011 7.071068e-011 7.071068e-011 7.071068e-011
7255855855.8559 -0.016581299 0.0072937049 -0.011586112 -0.01701998 7.071068e-011 7.071068e-011 7.071068e-011 7.071068e-011
7264264264.2643 0.034812573 0.084055245 0.020119688 -0.0053371843 7.071068e-011 7.071068e-011 7.071068e-011 7.071068e-011
7272672672.6727 0.074408069 0.0007084338 -0.0015275426 0.020533817 7.071068e-011 7.071068e-011 7.071068e-011 7.071068e-011
7281081081.0811 -0.029813964 0.00075255788 -0.018719152 -0.0084622595 7.071068e-011 7.071068e-011 7.071068e-011 7.071068e-011
7289489489.4895 -8.4615283e-005 0.10757618 0.014701461 -0.014608468 7.071068e-011 7.071068e-011 7.071068e-011 7.071068e-011
7297897897.8979 0.084979966 0.050730631 0.0087934397 0.018828705 7.071068e-011 7.071068e-011 7.071068e-011 7.071068e-011
7306306306.3063 0.001134661 0.0088292658 -0.020575369 0.0015683045 7.071068e-011 7.071068e-011 7.071068e-011 7.071068e-011
7314714714.7147 0.0040513682 0.1127513 0.0054058312 -0.02028757 7.071068e-011 7.071068e-011 7.071068e-011 7.071068e-011
7323123123.1231 0.11265056 0.075422034 0.016999263 0.011740533 7.071068e-011 7.071068e-011 7.071068e-011 7.071068e-011
7331531531.5315 0.051294204 -0.011832673 -0.01733367 0.011702865 7.071068e-011 7.071068e-011 7.071068e-011 7.071068e-011
7339939939.9399 0.007890529 0.068579741 -0.005310169 -0.020551888 7.071068e-011 7.071068e-011 7.071068e-011 7.071068e-011
7348348348.3483 0.10543484 0.063722447 0.020919014 0.0019359813 7.071068e-011 7.071068e-011 7.071068e-011 7.071068e-011
7356756756.7568 0.066222467 -0.036968034 -0.0092107598 0.018781645 7.071068e-011 7.071068e-011 7.071068e-011 7.071068e-011
7365165165.1652 -0.010244003 0.020800902 -0.014734626 -0.015196186 7.071068e-011 7.071068e-011 7.071068e-011 7.071068e-011
7373573573.5736 0.061481997 0.049863987 0.019015733 -0.0085577043 7.071068e-011 7.071068e-011 7.071068e-011 7.071068e-011
7381981981.982 0.044002745 -0.035339106 0.0010597032 0.021116909 7.071068e-011 7.071068e-011 7.071068e-011 7.071068e-011
7390390390.3904 -0.043074459 0.0096150395 -0.020328421 -0.006164887 7.071068e-011 7.071068e-011 7.071068e-011 7.071068e-011
7398798798.7988 0.012916707 0.071224757 0.012897745 -0.016692862 7.071068e-011 7.071068e-011 7.071068e-011 7.071068e-011
7407207207.2072 0.027959928 0.0098873181 0.011183328 0.017985515 7.071068e-011 7.071068e-011 7.071068e-011 7.071068e-011
7415615615.6156 -0.040905941 0.035300512 -0.020875832 0.0043830047 7.071068e-011 7.071068e-011 7.071068e-011 7.071068e-011
7424024024.024 0.006706988 0.10500485 0.00306671 -0.021037657 7.071068e-011 7.071068e-011 7.071068e-011 7.071068e-011
7432432432.4324 0.054737642 0.054184332 0.018673629 0.010422355 7.071068e-011 7.071068e-011 7.071068e-011 7.071068e-011
7440840840.8408 0.0098381592 0.042306334 -0.016141957 0.014048846 7.071068e-011 7.071068e-011 7.071068e-011 7.071068e-011
7449249249.2492 0.030218638 0.087080091 -0.0073219244 -0.019872034 7.071068e-011 7.071068e-011 7.071068e-011 7.071068e-011
7457657657.6577 0.077945732 0.049020521 0.02125434 0.00017356919 7.071068e-011 7.071068e-011 7.071068e-011 7.071068e-011
7466066066.0661 0.041798934 0.01405581 -0.0075261467 0.019931592 7.071068e-011 7.071068e-011 7.071068e-011 7.071068e-011
7474474474.4745 0.030479215 0.039266992 -0.01593315 -0.013836153 7.071068e-011 7.071068e-011 7.071068e-011 7.071068e-011
7482882882.8829 0.059837271 0.029142523 0.018631544 -0.0097949533 7.071068e-011 7.071068e-011 7.071068e-011 7.071068e-011
7491291291.2913 0.038954645 -0.013367393 0.0026365838 0.020926261 7.071068e-011 7.071068e-011 7.071068e-011 7.071068e-011
7499699699.6997 -0.0033319378 0.0023619158 -0.020355389 -0.0049299663 7.071068e-011 7.071068e-011 7.071068e-011 7.071068e-011
7508108108.1081 0.0032494836 0.031940717 0.011752419 -0.01731064 7.071068e-011 7.071068e-011 7.071068e-011 7.071068e-011
7516516516.5165 0.019400179 0.011987429 0.01198241 0.016994825 7.071068e-011 7.071068e-011 7.071068e-011 7.071068e-011
7524924924.9249 -0.026350334 0.0065643974 -0.020028869 0.0050630751 7.071068e-011 7.071068e-011 7.071068e-011 7.071068e-011
7533333333.3333 -0.029860714 0.065943554 0.0025495323 -0.020493651 7.071068e-011 7.071068e-011 7.071068e-011 7.071068e-011
7541741741.7417 0.027821464 0.06893377 0.018242599 0.0094955573 7.071068e-011 7.071068e-011 7.071068e-011 7.071068e-011
7550150150.1502 0.013091864 0.020579206 -0.015220956 0.013206051 7.071068e-011 7.071068e-011 7.071068e-011 7.071068e-011
7558558558.5586 -0.015364594 0.068380676 -0.0068367445 -0.019036539 7.071068e-011 7.071068e-011 7.071068e-011 7.071068e-011
7566966966.967 0.055568531 0.078152128 0.019992484 0.00050294446 7.071068e-011 7.071068e-011 7.071068e-011 7.071068e-011
7575375375.3754 0.053646024 0.00098972814 -0.007928336 0.01844557 7.071068e-011 7.071068e-011 7.071068e-011 7.071068e-011
7583783783.7838 -0.011869273 0.023926495 -0.014380074 -0.014086099 7.071068e-011 7.071068e-011 7.071068e-011 7.071068e-011
7592192192.1922 0.045396753 0.060657147 0.01800875 -0.008290506 7.071068e-011 7.071068e-011 7.071068e-011 7.071068e-011
7600600600.6006 0.051846039 -0.024271052 0.000852631 0.019477585 7.071068e-011 7.071068e-011 7.071068e-011 7.071068e-011
7609009009.009 -0.037940606 -0.010893116 -0.018865386 -0.0065556136 7.071068e-011 7.071068e-011 7.071068e-011 7.071068e-011
7617417417.4174 -0.0052793426 0.058134574 0.012636993 -0.015296382 7.071068e-011 7.071068e-011 7.071068e-011 7.071068e-011
7625825825.8258 0.026464552 -0.0039963052 0.0094033638 0.017401053 7.071068e-011 7.071068e-011 7.071068e-011 7.071068e-011
7634234234.2342 -0.060572948 0.0038783264 -0.01954213 0.0024226692 7.071068e-011 7.071068e-011 7.071068e-011 7.071068e-011
7642642642.6426 -0.026709523 0.091620877 0.005010373 -0.018887658 7.071068e-011 7.071068e-011 7.071068e-011 7.071068e-011
7651051051.0511 0.037562549 0.042600755 0.015731085 0.011718842 7.071068e-011 7.071068e-011 7.071068e-011 7.071068e-011
7659459459.4595 -0.029708646 0.018051123 -0.016783388 0.010639113 7.071068e-011 7.071068e-011 7.071068e-011 7.071068e-011
7667867867.8679 -0.011671349 0.10237073 -0.0038673009 -0.019117828 7.071068e-011 7.071068e-011 7.071068e-011 7.071068e-011
7676276276.2763 0.073821954 0.059136987 0.019081626 0.0039823502 7.071068e-011 7.071068e-011 7.071068e-011 7.071068e-011
7684684684.6847 0.021538457 -0.003960215 -0.010787582 0.01659655 7.071068e-011 7.071068e-011 7.071068e-011 7.071068e-011
7693093093.0931 0.00058177207 0.054282874 -0.011455429 -0.015976172 7.071068e-011 7.071068e-011 7.071068e-011 7.071068e-011
7701501501.5015 0.071012944 0.032692999 0.019025287 -0.0048103868 7.071068e-011 7.071068e-011 7.071068e-011 7.071068e-011
7709909909.9099 0.023465764 -0.042496581 -0.0026308768 0.01950549 7.071068e-011 7.071068e-011 7.071068e-011 7.071068e-011
7718318318.3183 -0.033216782 0.010734513 -0.017199896 -0.0096123079 7.071068e-011 7.071068e-011 7.071068e-011 7.071068e-011
7726726726.7267 0.024315663 0.027882416 0.015459022 -0.012219858 7.071068e-011 7.071068e-011 7.071068e-011 7.071068e-011
7735135135.1351 0.002966674 -0.04122195 0.0059171333 0.018960688 7.071068e-011 7.071068e-011 7.071068e-011 7.071068e-011
7743543543.5435 -0.07497716 -0.00036716156 -0.019530127 -0.0014799511 7.071068e-011 7.071068e-011 7.071068e-011 7.071068e-011
7751951951.952 -0.030536491 0.06434422 0.008743031 -0.017676173 7.071068e-011 7.071068e-011 7.071068e-011 7.071068e-011
7760360360.3604 -0.0025468566 0.017562784 0.013237271 0.014671591 7.071068e-011 7.071068e-011 7.071068e-011 7.071068e-011
7768768768.7688 -0.058247376 0.0283176 -0.018591579 0.006850292 7.071068e-011 7.071068e-011 7.071068e-011 7.071068e-011
7777177177.1772 -0.027382523 0.095531337 0.0006089923 -0.019718865 7.071068e-011 7.071068e-011 7.071068e-011 7.071068e-011
7785585585.5856 0.033877738 0.058139902 0.018119767 0.0078342333 7.071068e-011 7.071068e-011 7.071068e-011 7.071068e-011
7793993993.994 -0.0054664654 0.027723294 -0.013921228 0.013679741 7.071068e-011 7.071068e-011 7.071068e-011 7.071068e-011
7802402402.4024 -0.00055048376 0.074822612 -0.0075586727 -0.018380187 7.071068e-011 7.071068e-011 7.071068e-011 7.071068e-011
7810810810.8108 0.057970464 0.049035288 0.019776169 -0.00043483957 7.071068e-011 7.071068e-011 7.071068e-011 7.071068e-011
7819219219.2192 0.026158508 -0.0064491993 -0.0071574929 0.018328842 7.071068e-011 7.071068e-011 7.071068e-011 7.071068e-011
7827627627.6276 -0.0036992717 0.02672408 -0.014395402 -0.013470562 7.071068e-011 7.071068e-011 7.071068e-011 7.071068e-011
7836036036.036 0.037439063 0.025853032 0.017851185 -0.0083292453 7.071068e-011 7.071068e-011 7.071068e-011 7.071068e-011
7844444444.4444 0.016637791 -0.023755483 0.001099149 0.019720126 7.071068e-011 7.071068e-011 7.071068e-011 7.071068e-011
7852852852.8529 -0.028286912 0.0029014465 -0.018787697 -0.0063687614 7.071068e-011 7.071068e-011 7.071068e-011 7.071068e-011
7861261261.2613 0.0016094729 0.029543366 0.012783834 -0.015035117 7.071068e-011 7.071068e-011 7.071068e-011 7.071068e-011
7869669669.6697 0.0055473978 -0.0091708237 0.0089956429 0.017565669 7.071068e-011 7.071068e-011 7.071068e-011 7.071068e-011
7878078078.0781 -0.040342506 0.0033048906 -0.019810291 0.0019466793 7.071068e-011 7.071068e-011 7.071068e-011 7.071068e-011
7886486486.4865 -0.024516478 0.046899572 0.0054002395 -0.019012148 7.071068e-011 7.071068e-011 7.071068e-011 7.071068e-011
7894894894.8949 0.010923466 0.030378476 0.015392406 0.012005546 7.071068e-011 7.071068e-011 7.071068e-011 7.071068e-011
7903303303.3033 -0.013425587 0.011056152 -0.017097896 0.0096805682 7.071068e-011 7.071068e-011 7.071068e-011 7.071068e-011
7911711711.7117 -0.017891316 0.043869492 -0.0027468982 -0.019488379 7.071068e-011 7.071068e-011 7.071068e-011 7.071068e-011
7920120120.1201 0.023040611 0.044953231 0.01888964 0.0047455048 7.071068e-011 7.071068e-011 7.071068e-011 7.071068e-011
7928528528.5285 0.02370169 0.0019860673 -0.011469142 0.015715424 7.071068e-011 7.071068e-011 7.071068e-011 7.071068e-011
7936936936.9369 -0.0099467728 0.011068875 -0.010137735 -0.016394366 7.071068e-011 7.071068e-011 7.071068e-011 7.071068e-011
7945345345.3453 0.017730581 0.032134678 0.019024126 -0.0030656026 7.071068e-011 7.071068e-011 7.071068e-011 7.071068e-011
