!Keysight Technologies,N5235B,MY61252044,A.15.00.15
!Date: Friday, January 20, 2023 23:25:48
!Correction: S11(Off) 
!S21(Off) 
!S12(Off) 
!S22(Off) 
!S2P File: Measurements: S11, S21, S12, S22:
# Hz S  RI   R 50
6600000000 0.018575562 -0.17523651 0.015458127 -0.0030383912 7.071068e-011 7.071068e-011 7.071068e-011 7.071068e-011
6608408408.4084 -0.12458093 0.16555265 0.005299008 0.010839911 7.071068e-011 7.071068e-011 7.071068e-011 7.071068e-011
6616816816.8168 0.30597478 0.092728779 -0.0089131426 0.0036844308 7.071068e-011 7.071068e-011 7.071068e-011 7.071068e-011
6625225225.2252 0.024666879 -0.27296212 -0.0017748631 -0.0093068024 7.071068e-011 7.071068e-011 7.071068e-011 7.071068e-011
6633633633.6336 -0.16573332 0.16137296 0.0093382737 -0.00038045057 7.071068e-011 7.071068e-011 7.071068e-011 7.071068e-011
6642042042.042 0.28987241 0.11319967 -0.0018624591 0.0093170162 7.071068e-011 7.071068e-011 7.071068e-011 7.071068e-011
6650450450.4505 0.039184071 -0.25206035 -0.010721122 -0.0041005276 7.071068e-011 7.071068e-011 7.071068e-011 7.071068e-011
6658858858.8589 -0.14841859 0.13434613 0.0059877667 -0.011489999 7.071068e-011 7.071068e-011 7.071068e-011 7.071068e-011
6667267267.2673 0.22847441 0.10128198 0.012193838 0.0091792345 7.071068e-011 7.071068e-011 7.071068e-011 7.071068e-011
6675675675.6757 0.042925086 -0.1510876 -0.011548034 0.013813008 7.071068e-011 7.071068e-011 7.071068e-011 7.071068e-011
6684084084.0841 -0.044392027 0.08413174 -0.014587581 -0.013363562 7.071068e-011 7.071068e-011 7.071068e-011 7.071068e-011
6692492492.4925 0.10579042 0.047491219 0.014832747 -0.014905856 7.071068e-011 7.071068e-011 7.071068e-011 7.071068e-011
6700900900.9009 0.085958771 0.018341621 0.014751398 0.015426285 7.071068e-011 7.071068e-011 7.071068e-011 7.071068e-011
6709309309.3093 0.077267013 -0.041863631 -0.015561098 0.013095178 7.071068e-011 7.071068e-011 7.071068e-011 7.071068e-011
6717717717.7177 -0.031183889 0.034306258 -0.010125161 -0.016488599 7.071068e-011 7.071068e-011 7.071068e-011 7.071068e-011
6726126126.1261 0.15501843 0.11633334 0.016806662 -0.0070723579 7.071068e-011 7.071068e-011 7.071068e-011 7.071068e-011
6734534534.5345 0.12870516 -0.14060828 0.0035465513 0.016232956 7.071068e-011 7.071068e-011 7.071068e-011 7.071068e-011
6742942942.9429 -0.10787448 0.026529938 -0.015910992 -0.00029079808 7.071068e-011 7.071068e-011 7.071068e-011 7.071068e-011
6751351351.3514 0.17139617 0.15265706 0.0036280863 -0.0153659 7.071068e-011 7.071068e-011 7.071068e-011 7.071068e-011
6759759759.7598 0.15080187 -0.17147788 0.013176526 0.0070756595 7.071068e-011 7.071068e-011 7.071068e-011 7.071068e-011
6768168168.1682 -0.14689498 -0.0056492938 -0.010863891 0.010399583 7.071068e-011 7.071068e-011 7.071068e-011 7.071068e-011
6776576576.5766 0.13390242 0.17898907 -0.0079906955 -0.013477149 7.071068e-011 7.071068e-011 7.071068e-011 7.071068e-011
6784984984.985 0.15132464 -0.14609186 0.014559778 -0.00400675 7.071068e-011 7.071068e-011 7.071068e-011 7.071068e-011
6793393393.3934 -0.147369 -0.0067458451 -0.00035909825 0.015518634 7.071068e-011 7.071068e-011 7.071068e-011 7.071068e-011
6801801801.8018 0.10136449 0.20270197 -0.015710931 -0.0043095513 7.071068e-011 7.071068e-011 7.071068e-011 7.071068e-011
6810210210.2102 0.17254089 -0.094788268 0.0086849304 -0.014424279 7.071068e-011 7.071068e-011 7.071068e-011 7.071068e-011
6818618618.6186 -0.10525568 -0.010489078 0.01213083 0.013243262 7.071068e-011 7.071068e-011 7.071068e-011 7.071068e-011
6827027027.027 0.087685414 0.18547276 -0.015965015 0.0091928476 7.071068e-011 7.071068e-011 7.071068e-011 7.071068e-011
6835435435.4354 0.18153456 -0.048648339 -0.0044636545 -0.017895158 7.071068e-011 7.071068e-011 7.071068e-011 7.071068e-011
6843843843.8438 -0.045354791 -0.028139412 0.020165848 0.00026269894 7.071068e-011 7.071068e-011 7.071068e-011 7.071068e-011
6852252252.2523 0.074637085 0.12924634 -0.0046002753 0.020290293 7.071068e-011 7.071068e-011 7.071068e-011 7.071068e-011
6860660660.6607 0.14513136 -0.020182164 -0.018591747 -0.0096228849 7.071068e-011 7.071068e-011 7.071068e-011 7.071068e-011
6869069069.0691 0.004219586 -0.027086237 0.014526822 -0.016074972 7.071068e-011 7.071068e-011 7.071068e-011 7.071068e-011
6877477477.4775 0.053978629 0.07252489 0.012662197 0.018099563 7.071068e-011 7.071068e-011 7.071068e-011 7.071068e-011
6885885885.8859 0.090365268 0.006942376 -0.020452591 0.0076848101 7.071068e-011 7.071068e-011 7.071068e-011 7.071068e-011
6894294294.2943 0.047274087 -0.0010140381 -0.0022913849 -0.022012044 7.071068e-011 7.071068e-011 7.071068e-011 7.071068e-011
6902702702.7027 0.038231254 0.019357165 0.02198098 0.0032615066 7.071068e-011 7.071068e-011 7.071068e-011 7.071068e-011
6911111111.1111 0.030981455 0.037647825 -0.0087958127 0.020197494 7.071068e-011 7.071068e-011 7.071068e-011 7.071068e-011
6919519519.5195 0.078272052 0.049960628 -0.016930144 -0.013628639 7.071068e-011 7.071068e-011 7.071068e-011 7.071068e-011
6927927927.9279 0.050790913 -0.0123968 0.017248811 -0.012759752 7.071068e-011 7.071068e-011 7.071068e-011 7.071068e-011
6936336336.3363 -0.0021879505 0.06216123 0.0072529628 0.019476946 7.071068e-011 7.071068e-011 7.071068e-011 7.071068e-011
6944744744.7447 0.11240264 0.089392096 -0.020832501 0.001133628 7.071068e-011 7.071068e-011 7.071068e-011 7.071068e-011
6953153153.1532 0.084352091 -0.045527682 0.0044986322 -0.019984962 7.071068e-011 7.071068e-011 7.071068e-011 7.071068e-011
6961561561.5616 -0.02833822 0.05439093 0.017322503 0.009960968 7.071068e-011 7.071068e-011 7.071068e-011 7.071068e-011
6969969969.97 0.12460884 0.10591842 -0.014517261 0.013534299 7.071068e-011 7.071068e-011 7.071068e-011 7.071068e-011
6978378378.3784 0.1017377 -0.070780337 -0.0083702467 -0.017369086 7.071068e-011 7.071068e-011 7.071068e-011 7.071068e-011
6986786786.7868 -0.064070523 0.032695197 0.018726492 -0.002265645 7.071068e-011 7.071068e-011 7.071068e-011 7.071068e-011
6995195195.1952 0.10294513 0.13391785 -0.0035635447 0.01890997 7.071068e-011 7.071068e-011 7.071068e-011 7.071068e-011
7003603603.6036 0.10893448 -0.057874966 -0.016594552 -0.008913978 7.071068e-011 7.071068e-011 7.071068e-011 7.071068e-011
7012012012.012 -0.072670586 0.032451373 0.014123974 -0.012460428 7.071068e-011 7.071068e-011 7.071068e-011 7.071068e-011
7020420420.4204 0.088006943 0.16141775 0.0077825072 0.017327178 7.071068e-011 7.071068e-011 7.071068e-011 7.071068e-011
7028828828.8288 0.13262928 -0.028997788 -0.018522922 0.0018163072 7.071068e-011 7.071068e-011 7.071068e-011 7.071068e-011
7037237237.2372 -0.053960405 0.030667486 0.0044273213 -0.01863583 7.071068e-011 7.071068e-011 7.071068e-011 7.071068e-011
7045645645.6456 0.090026207 0.17088398 0.016438264 0.0098071648 7.071068e-011 7.071068e-011 7.071068e-011 7.071068e-011
7054054054.0541 0.16758791 -0.0030697368 -0.014681133 0.012031543 7.071068e-011 7.071068e-011 7.071068e-011 7.071068e-011
7062462462.4625 -0.0081049418 -0.0040058829 -0.0068258611 -0.018470485 7.071068e-011 7.071068e-011 7.071068e-011 7.071068e-011
7070870870.8709 0.078259677 0.14037569 0.019769309 -0.0011821161 7.071068e-011 7.071068e-011 7.071068e-011 7.071068e-011
7079279279.2793 0.1683407 0.0073669828 -0.0055576935 0.018789364 7.071068e-011 7.071068e-011 7.071068e-011 7.071068e-011
7087687687.6877 0.032539442 -0.02697262 -0.016638683 -0.011490803 7.071068e-011 7.071068e-011 7.071068e-011 7.071068e-011
7096096096.0961 0.059509672 0.089249179 0.015948316 -0.012468291 7.071068e-011 7.071068e-011 7.071068e-011 7.071068e-011
7104504504.5045 0.14776345 0.010395914 0.0065227645 0.0191376 7.071068e-011 7.071068e-011 7.071068e-011 7.071068e-011
7112912912.9129 0.050870731 -0.044645805 -0.020637598 -0.00013593011 7.071068e-011 7.071068e-011 7.071068e-011 7.071068e-011
7121321321.3213 0.034388468 0.031884708 0.006316368 -0.019835429 7.071068e-011 7.071068e-011 7.071068e-011 7.071068e-011
7129729729.7297 0.089281201 0.014483896 0.016437445 0.012085017 7.071068e-011 7.071068e-011 7.071068e-011 7.071068e-011
7138138138.1381 0.043426014 -0.037791062 -0.017187594 0.011689279 7.071068e-011 7.071068e-011 7.071068e-011 7.071068e-011
7146546546.5465 -0.00052104803 0.013612049 -0.0058370205 -0.020120716 7.071068e-011 7.071068e-011 7.071068e-011 7.071068e-011
7154954954.955 0.030643685 0.041316919 0.020799851 0.0008663183 7.071068e-011 7.071068e-011 7.071068e-011 7.071068e-011
7163363363.3634 0.044955153 0.015761182 -0.007667549 0.019091576 7.071068e-011 7.071068e-011 7.071068e-011 7.071068e-011
7171771771.7718 0.0012049479 0.02024712 -0.015739087 -0.013483968 7.071068e-011 7.071068e-011 7.071068e-011 7.071068e-011
7180180180.1802 0.018441051 0.072530307 0.017623873 -0.010382644 7.071068e-011 7.071068e-011 7.071068e-011 7.071068e-011
7188588588.5886 0.067769617 0.056165934 0.0038713098 0.020447385 7.071068e-011 7.071068e-011 7.071068e-011 7.071068e-011
7196996996.997 0.039897259 0.01011635 -0.020603048 -0.0027506873 7.071068e-011 7.071068e-011 7.071068e-011 7.071068e-011
7205405405.4054 0.012282482 0.067102484 0.0095523037 -0.017989891 7.071068e-011 7.071068e-011 7.071068e-011 7.071068e-011
7213813813.8138 0.083194055 0.067248158 0.013835059 0.015195969 7.071068e-011 7.071068e-011 7.071068e-011 7.071068e-011
7222222222.2222 0.066239901 -0.0054723285 -0.018990343 0.0082123848 7.071068e-011 7.071068e-011 7.071068e-011 7.071068e-011
7230630630.6306 -0.0013056186 0.035089929 -0.0014278663 -0.020491626 7.071068e-011 7.071068e-011 7.071068e-011 7.071068e-011
7239039039.039 0.071490355 0.075605944 0.019946817 0.0058598518 7.071068e-011 7.071068e-011 7.071068e-011 7.071068e-011
7247447447.4474 0.075284794 -0.014782453 -0.012019966 0.016972456 7.071068e-011 7.071068e-011 7.071068e-011 7.071068e-011
7255855855.8559 -0.016587468 0.0073021553 -0.011587235 -0.017019827 7.071068e-011 7.071068e-011 7.071068e-011 7.071068e-011
7264264264.2643 0.034826349 0.084060319 0.020121053 -0.0053380388 7.071068e-011 7.071068e-011 7.071068e-011 7.071068e-011
7272672672.6727 0.074406043 0.00069231202 -0.0015276446 0.020534683 7.071068e-011 7.071068e-011 7.071068e-011 7.071068e-011
7281081081.0811 -0.029823203 0.00076559244 -0.01871907 -0.0084598288 7.071068e-011 7.071068e-011 7.071068e-011 7.071068e-011
7289489489.4895 -6.9459376e-005 0.10758431 0.014702774 -0.014608737 7.071068e-011 7.071068e-011 7.071068e-011 7.071068e-011
7297897897.8979 0.084975064 0.050722197 0.0087919328 0.018829471 7.071068e-011 7.071068e-011 7.071068e-011 7.071068e-011
7306306306.3063 0.0011294188 0.0088339755 -0.020575413 0.001571161 7.071068e-011 7.071068e-011 7.071068e-011 7.071068e-011
7314714714.7147 0.0040545953 0.11276633 0.00540502 -0.020286551 7.071068e-011 7.071068e-011 7.071068e-011 7.071068e-011
7323123123.1231 0.11266997 0.075419471 0.016998239 0.011742015 7.071068e-011 7.071068e-011 7.071068e-011 7.071068e-011
7331531531.5315 0.051283784 -0.011836929 -0.017328348 0.01170483 7.071068e-011 7.071068e-011 7.071068e-011 7.071068e-011
7339939939.9399 0.0078973379 0.06860131 -0.0053105047 -0.020553479 7.071068e-011 7.071068e-011 7.071068e-011 7.071068e-011
7348348348.3483 0.10545165 0.063712865 0.020920619 0.0019375698 7.071068e-011 7.071068e-011 7.071068e-011 7.071068e-011
7356756756.7568 0.06621398 -0.036970239 -0.0092062429 0.018784964 7.071068e-011 7.071068e-011 7.071068e-011 7.071068e-011
7365165165.1652 -0.010239276 0.020811476 -0.014733492 -0.015195588 7.071068e-011 7.071068e-011 7.071068e-011 7.071068e-011
7373573573.5736 0.061494272 0.049862288 0.019013906 -0.0085565662 7.071068e-011 7.071068e-011 7.071068e-011 7.071068e-011
7381981981.982 0.044005051 -0.035353165 0.0010631757 0.021117739 7.071068e-011 7.071068e-011 7.071068e-011 7.071068e-011
7390390390.3904 -0.043083075 0.0096205929 -0.020329079 -0.0061654034 7.071068e-011 7.071068e-011 7.071068e-011 7.071068e-011
7398798798.7988 0.012932418 0.071232595 0.012897404 -0.016691243 7.071068e-011 7.071068e-011 7.071068e-011 7.071068e-011
7407207207.2072 0.02795638 0.0098730996 0.011183823 0.017983882 7.071068e-011 7.071068e-011 7.071068e-011 7.071068e-011
7415615615.6156 -0.04091147 0.035315607 -0.020873869 0.004383408 7.071068e-011 7.071068e-011 7.071068e-011 7.071068e-011
7424024024.024 0.0067175045 0.10500346 0.0030640408 -0.021033878 7.071068e-011 7.071068e-011 7.071068e-011 7.071068e-011
7432432432.4324 0.054731995 0.054179955 0.018670065 0.010420061 7.071068e-011 7.071068e-011 7.071068e-011 7.071068e-011
7440840840.8408 0.0098379124 0.042308412 -0.016137291 0.014048511 7.071068e-011 7.071068e-011 7.071068e-011 7.071068e-011
7449249249.2492 0.030220613 0.087091342 -0.0073204688 -0.019869415 7.071068e-011 7.071068e-011 7.071068e-011 7.071068e-011
7457657657.6577 0.077955402 0.049018897 0.021252351 0.00017535295 7.071068e-011 7.071068e-011 7.071068e-011 7.071068e-011
7466066066.0661 0.041789893 0.014057673 -0.0075227725 0.019929837 7.071068e-011 7.071068e-011 7.071068e-011 7.071068e-011
7474474474.4745 0.030485986 0.039279643 -0.015930666 -0.013834538 7.071068e-011 7.071068e-011 7.071068e-011 7.071068e-011
7482882882.8829 0.059840512 0.029136444 0.018628618 -0.0097926799 7.071068e-011 7.071068e-011 7.071068e-011 7.071068e-011
7491291291.2913 0.038950346 -0.013363272 0.0026371779 0.020923853 7.071068e-011 7.071068e-011 7.071068e-011 7.071068e-011
7499699699.6997 -0.0033294854 0.002361957 -0.0203548 -0.0049307072 7.071068e-011 7.071068e-011 7.071068e-011 7.071068e-011
7508108108.1081 0.0032488112 0.031943377 0.011753938 -0.017309722 7.071068e-011 7.071068e-011 7.071068e-011 7.071068e-011
7516516516.5165 0.019401852 0.011981946 0.011982287 0.016991243 7.071068e-011 7.071068e-011 7.071068e-011 7.071068e-011
7524924924.9249 -0.026359605 0.0065657445 -0.020026231 0.0050638793 7.071068e-011 7.071068e-011 7.071068e-011 7.071068e-011
7533333333.3333 -0.029855361 0.065951243 0.0025500765 -0.020490771 7.071068e-011 7.071068e-011 7.071068e-011 7.071068e-011
7541741741.7417 0.027817909 0.068925843 0.018239634 0.0094918236 7.071068e-011 7.071068e-011 7.071068e-011 7.071068e-011
7550150150.1502 0.013084631 0.020586347 -0.015217913 0.01320599 7.071068e-011 7.071068e-011 7.071068e-011 7.071068e-011
7558558558.5586 -0.015366349 0.068383969 -0.0068340716 -0.019036172 7.071068e-011 7.071068e-011 7.071068e-011 7.071068e-011
7566966966.967 0.055573281 0.07815592 0.019992437 0.00050159619 7.071068e-011 7.071068e-011 7.071068e-011 7.071068e-011
7575375375.3754 0.053642333 0.00098323845 -0.0079262471 0.018445058 7.071068e-011 7.071068e-011 7.071068e-011 7.071068e-011
7583783783.7838 -0.011874358 0.023936061 -0.014377655 -0.014087621 7.071068e-011 7.071068e-011 7.071068e-011 7.071068e-011
7592192192.1922 0.045409571 0.060655411 0.018007331 -0.0082922885 7.071068e-011 7.071068e-011 7.071068e-011 7.071068e-011
7600600600.6006 0.051836245 -0.0242789 0.00085279753 0.019475225 7.071068e-011 7.071068e-011 7.071068e-011 7.071068e-011
7609009009.009 -0.037938509 -0.010881393 -0.018863749 -0.0065556788 7.071068e-011 7.071068e-011 7.071068e-011 7.071068e-011
7617417417.4174 -0.0052711801 0.058131143 0.012633811 -0.015296092 7.071068e-011 7.071068e-011 7.071068e-011 7.071068e-011
7625825825.8258 0.026461758 -0.0040000309 0.0094046416 0.017401159 7.071068e-011 7.071068e-011 7.071068e-011 7.071068e-011
7634234234.2342 -0.060579192 0.0038814649 -0.019540887 0.0024215626 7.071068e-011 7.071068e-011 7.071068e-011 7.071068e-011
7642642642.6426 -0.026703734 0.091628328 0.0050066477 -0.01888546 7.071068e-011 7.071068e-011 7.071068e-011 7.071068e-011
7651051051.0511 0.037565649 0.042587176 0.01572991 0.011714016 7.071068e-011 7.071068e-011 7.071068e-011 7.071068e-011
7659459459.4595 -0.029723763 0.018057214 -0.016782472 0.01063494 7.071068e-011 7.071068e-011 7.071068e-011 7.071068e-011
7667867867.8679 -0.011658547 0.10238093 -0.0038710339 -0.019114578 7.071068e-011 7.071068e-011 7.071068e-011 7.071068e-011
7676276276.2763 0.073821455 0.059126187 0.019079454 0.0039821244 7.071068e-011 7.071068e-011 7.071068e-011 7.071068e-011
7684684684.6847 0.021531085 -0.0039512957 -0.010787098 0.016594475 7.071068e-011 7.071068e-011 7.071068e-011 7.071068e-011
7693093093.0931 0.00058593869 0.054286011 -0.011456314 -0.015970832 7.071068e-011 7.071068e-011 7.071068e-011 7.071068e-011
7701501501.5015 0.071011066 0.032687996 0.019020673 -0.0048101335 7.071068e-011 7.071068e-011 7.071068e-011 7.071068e-011
7709909909.9099 0.023460373 -0.042498559 -0.0026299795 0.01950198 7.071068e-011 7.071068e-011 7.071068e-011 7.071068e-011
7718318318.3183 -0.03321759 0.010746271 -0.017197084 -0.009607004 7.071068e-011 7.071068e-011 7.071068e-011 7.071068e-011
7726726726.7267 0.024330052 0.027874714 0.015453522 -0.012217922 7.071068e-011 7.071068e-011 7.071068e-011 7.071068e-011
7735135135.1351 0.0029542868 -0.04122746 0.0059153195 0.018957185 7.071068e-011 7.071068e-011 7.071068e-011 7.071068e-011
7743543543.5435 -0.074968614 -0.0003547568 -0.019524567 -0.0014770948 7.071068e-011 7.071068e-011 7.071068e-011 7.071068e-011
7751951951.952 -0.030529328 0.06433396 0.0087399492 -0.017672643 7.071068e-011 7.071068e-011 7.071068e-011 7.071068e-011
7760360360.3604 -0.0025506616 0.017557446 0.013234281 0.014669405 7.071068e-011 7.071068e-011 7.071068e-011 7.071068e-011
7768768768.7688 -0.058247492 0.028314488 -0.018586207 0.0068538967 7.071068e-011 7.071068e-011 7.071068e-011 7.071068e-011
7777177177.1772 -0.027376456 0.095531158 0.00060986675 -0.019712051 7.071068e-011 7.071068e-011 7.071068e-011 7.071068e-011
7785585585.5856 0.033883043 0.058129452 0.018114807 0.0078308908 7.071068e-011 7.071068e-011 7.071068e-011 7.071068e-011
7793993993.994 -0.0054796888 0.027726334 -0.013913049 0.01367803 7.071068e-011 7.071068e-011 7.071068e-011 7.071068e-011
7802402402.4024 -0.00054273533 0.074828751 -0.0075546643 -0.018374769 7.071068e-011 7.071068e-011 7.071068e-011 7.071068e-011
7810810810.8108 0.057964299 0.049021743 0.019770639 -0.00043574173 7.071068e-011 7.071068e-011 7.071068e-011 7.071068e-011
7819219219.2192 0.026151843 -0.0064419573 -0.0071532084 0.018323649 7.071068e-011 7.071068e-011 7.071068e-011 7.071068e-011
7827627627.6276 -0.0036962663 0.026725546 -0.014390048 -0.013470439 7.071068e-011 7.071068e-011 7.071068e-011 7.071068e-011
7836036036.036 0.037441149 0.025854753 0.017848955 -0.0083280895 7.071068e-011 7.071068e-011 7.071068e-011 7.071068e-011
7844444444.4444 0.016636707 -0.023761353 0.001100148 0.019715598 7.071068e-011 7.071068e-011 7.071068e-011 7.071068e-011
7852852852.8529 -0.028289804 0.0029097032 -0.018783513 -0.0063676378 7.071068e-011 7.071068e-011 7.071068e-011 7.071068e-011
7861261261.2613 0.0016215283 0.029541992 0.012780895 -0.015030755 7.071068e-011 7.071068e-011 7.071068e-011 7.071068e-011
7869669669.6697 0.0055396925 -0.0091755902 0.008996496 0.017560577 7.071068e-011 7.071068e-011 7.071068e-011 7.071068e-011
7878078078.0781 -0.040340181 0.0033150245 -0.01980448 0.0019446446 7.071068e-011 7.071068e-011 7.071068e-011 7.071068e-011
7886486486.4865 -0.024512742 0.046896741 0.0053997068 -0.019009812 7.071068e-011 7.071068e-011 7.071068e-011 7.071068e-011
7894894894.8949 0.010926344 0.030379537 0.015392059 0.012000713 7.071068e-011 7.071068e-011 7.071068e-011 7.071068e-011
7903303303.3033 -0.013431086 0.011051507 -0.017096 0.0096757039 7.071068e-011 7.071068e-011 7.071068e-011 7.071068e-011
7911711711.7117 -0.017893361 0.043880932 -0.0027480165 -0.019486206 7.071068e-011 7.071068e-011 7.071068e-011 7.071068e-011
7920120120.1201 0.023049859 0.044949498 0.01889015 0.0047421693 7.071068e-011 7.071068e-011 7.071068e-011 7.071068e-011
7928528528.5285 0.02369161 0.0019855748 -0.011470637 0.015713172 7.071068e-011 7.071068e-011 7.071068e-011 7.071068e-011
7936936936.9369 -0.0099432422 0.011079185 -0.010139081 -0.016393842 7.071068e-011 7.071068e-011 7.071068e-011 7.071068e-011
7945345345.3453 0.017733825 0.032132369 0.019022638 -0.0030673437 7.071068e-011 7.071068e-011 7.071068e-011 7.071068e-011
