!Keysight Technologies,N5235B,MY61252044,A.15.00.15
!Date: Friday, January 20, 2023 21:45:31
!Correction: S11(Off) 
!S21(Off) 
!S12(Off) 
!S22(Off) 
!S2P File: Measurements: S11, S21, S12, S22:
# Hz S  RI   R 50
6600000000 0.017605441 -0.17485112 0.015486438 -0.003036205 7.071068e-011 7.071068e-011 7.071068e-011 7.071068e-011
6608408408.4084 -0.12374403 0.16655001 0.0053148572 0.010854428 7.071068e-011 7.071068e-011 7.071068e-011 7.071068e-011
6616816816.8168 0.30667421 0.091520481 -0.0089186961 0.0037020389 7.071068e-011 7.071068e-011 7.071068e-011 7.071068e-011
6625225225.2252 0.023169484 -0.27303678 -0.0017967524 -0.0093146544 7.071068e-011 7.071068e-011 7.071068e-011 7.071068e-011
6633633633.6336 -0.16498683 0.16269413 0.0093405778 -0.00040253231 7.071068e-011 7.071068e-011 7.071068e-011 7.071068e-011
6642042042.042 0.29077271 0.11200678 -0.0018464916 0.0093263211 7.071068e-011 7.071068e-011 7.071068e-011 7.071068e-011
6650450450.4505 0.037800819 -0.25225651 -0.010736679 -0.0040888707 7.071068e-011 7.071068e-011 7.071068e-011 7.071068e-011
6658858858.8589 -0.14790982 0.13554139 0.0059636771 -0.011510468 7.071068e-011 7.071068e-011 7.071068e-011 7.071068e-011
6667267267.2673 0.22921619 0.10045708 0.012218372 0.0091655143 7.071068e-011 7.071068e-011 7.071068e-011 7.071068e-011
6675675675.6757 0.042000543 -0.15127248 -0.011524735 0.013841185 7.071068e-011 7.071068e-011 7.071068e-011 7.071068e-011
6684084084.0841 -0.044220798 0.084793277 -0.014612813 -0.013350287 7.071068e-011 7.071068e-011 7.071068e-011 7.071068e-011
6692492492.4925 0.10616272 0.047282279 0.01482589 -0.014932455 7.071068e-011 7.071068e-011 7.071068e-011 7.071068e-011
6700900900.9009 0.085846148 0.018066876 0.014788696 0.015418351 7.071068e-011 7.071068e-011 7.071068e-011 7.071068e-011
6709309309.3093 0.076879054 -0.041799814 -0.015548328 0.013128653 7.071068e-011 7.071068e-011 7.071068e-011 7.071068e-011
6717717717.7177 -0.030969998 0.034824852 -0.01015991 -0.016497519 7.071068e-011 7.071068e-011 7.071068e-011 7.071068e-011
6726126126.1261 0.15558103 0.11587982 0.016812526 -0.0071091419 7.071068e-011 7.071068e-011 7.071068e-011 7.071068e-011
6734534534.5345 0.12791036 -0.14093538 0.003580648 0.016245211 7.071068e-011 7.071068e-011 7.071068e-011 7.071068e-011
6742942942.9429 -0.10777654 0.027523363 -0.015927957 -0.00025609147 7.071068e-011 7.071068e-011 7.071068e-011 7.071068e-011
6751351351.3514 0.17232524 0.15216364 0.0035969694 -0.015385255 7.071068e-011 7.071068e-011 7.071068e-011 7.071068e-011
6759759759.7598 0.14994274 -0.1720825 0.013203624 0.0070532337 7.071068e-011 7.071068e-011 7.071068e-011 7.071068e-011
6768168168.1682 -0.14699632 -0.004520881 -0.010849889 0.010435725 7.071068e-011 7.071068e-011 7.071068e-011 7.071068e-011
6776576576.5766 0.13499802 0.17863505 -0.0080288183 -0.013463672 7.071068e-011 7.071068e-011 7.071068e-011 7.071068e-011
6784984984.985 0.15050134 -0.14685655 0.014569133 -0.0040437309 7.071068e-011 7.071068e-011 7.071068e-011 7.071068e-011
6793393393.3934 -0.14764681 -0.0056701773 -0.00031991675 0.015523168 7.071068e-011 7.071068e-011 7.071068e-011 7.071068e-011
6801801801.8018 0.10243098 0.2025453 -0.015728962 -0.0042729075 7.071068e-011 7.071068e-011 7.071068e-011 7.071068e-011
6810210210.2102 0.17191675 -0.095594436 0.0086599775 -0.014448827 7.071068e-011 7.071068e-011 7.071068e-011 7.071068e-011
6818618618.6186 -0.10564164 -0.0095850676 0.01217408 0.013215882 7.071068e-011 7.071068e-011 7.071068e-011 7.071068e-011
6827027027.027 0.08857552 0.1854903 -0.015949422 0.0092395395 7.071068e-011 7.071068e-011 7.071068e-011 7.071068e-011
6835435435.4354 0.18119001 -0.049359951 -0.0045040217 -0.017902294 7.071068e-011 7.071068e-011 7.071068e-011 7.071068e-011
6843843843.8438 -0.045778222 -0.027524434 0.020188823 0.00021891548 7.071068e-011 7.071068e-011 7.071068e-011 7.071068e-011
6852252252.2523 0.075286195 0.1293468 -0.0045543965 0.020315953 7.071068e-011 7.071068e-011 7.071068e-011 7.071068e-011
6860660660.6607 0.14497951 -0.020684455 -0.018638121 -0.0095827514 7.071068e-011 7.071068e-011 7.071068e-011 7.071068e-011
6869069069.0691 0.0038975738 -0.026759766 0.014503662 -0.016116457 7.071068e-011 7.071068e-011 7.071068e-011 7.071068e-011
6877477477.4775 0.054314002 0.072679766 0.012721837 0.018086994 7.071068e-011 7.071068e-011 7.071068e-011 7.071068e-011
6885885885.8859 0.090380445 0.0067055463 -0.020454612 0.0077385935 7.071068e-011 7.071068e-011 7.071068e-011 7.071068e-011
6894294294.2943 0.047109757 -0.00097997545 -0.0023353081 -0.022016771 7.071068e-011 7.071068e-011 7.071068e-011 7.071068e-011
6902702702.7027 0.038226906 0.0195016 0.022010708 0.003216509 7.071068e-011 7.071068e-011 7.071068e-011 7.071068e-011
6911111111.1111 0.031110387 0.037701529 -0.0087537719 0.020232515 7.071068e-011 7.071068e-011 7.071068e-011 7.071068e-011
6919519519.5195 0.078333154 0.049766693 -0.016980562 -0.013608824 7.071068e-011 7.071068e-011 7.071068e-011 7.071068e-011
6927927927.9279 0.050500594 -0.012372656 0.017222043 -0.012814917 7.071068e-011 7.071068e-011 7.071068e-011 7.071068e-011
6936336336.3363 -0.0020265379 0.062497295 0.0073129227 0.019474287 7.071068e-011 7.071068e-011 7.071068e-011 7.071068e-011
6944744744.7447 0.1126681 0.089089811 -0.020837924 0.0011804963 7.071068e-011 7.071068e-011 7.071068e-011 7.071068e-011
6953153153.1532 0.083881259 -0.045631669 0.0044567399 -0.020015189 7.071068e-011 7.071068e-011 7.071068e-011 7.071068e-011
6961561561.5616 -0.028230872 0.054931574 0.017361421 0.009932735 7.071068e-011 7.071068e-011 7.071068e-011 7.071068e-011
6969969969.97 0.12506688 0.10556591 -0.014486357 0.01358573 7.071068e-011 7.071068e-011 7.071068e-011 7.071068e-011
6978378378.3784 0.10118308 -0.071053855 -0.0084242821 -0.017362019 7.071068e-011 7.071068e-011 7.071068e-011 7.071068e-011
6986786786.7868 -0.064071693 0.033370588 0.018726354 -0.0023170148 7.071068e-011 7.071068e-011 7.071068e-011 7.071068e-011
6995195195.1952 0.10355003 0.13363436 -0.0035100179 0.018946288 7.071068e-011 7.071068e-011 7.071068e-011 7.071068e-011
7003603603.6036 0.10837013 -0.058283851 -0.016628401 -0.0088751176 7.071068e-011 7.071068e-011 7.071068e-011 7.071068e-011
7012012012.012 -0.07279896 0.033166897 0.014094179 -0.012497091 7.071068e-011 7.071068e-011 7.071068e-011 7.071068e-011
7020420420.4204 0.088684052 0.16127861 0.0078329379 0.017318929 7.071068e-011 7.071068e-011 7.071068e-011 7.071068e-011
7028828828.8288 0.13217153 -0.029514695 -0.018524405 0.0018683822 7.071068e-011 7.071068e-011 7.071068e-011 7.071068e-011
7037237237.2372 -0.054206282 0.031355046 0.0043709758 -0.018658133 7.071068e-011 7.071068e-011 7.071068e-011 7.071068e-011
7045645645.6456 0.090710551 0.17087251 0.016473444 0.00976058 7.071068e-011 7.071068e-011 7.071068e-011 7.071068e-011
7054054054.0541 0.16731776 -0.0036314912 -0.0146593 0.012078128 7.071068e-011 7.071068e-011 7.071068e-011 7.071068e-011
7062462462.4625 -0.0084846029 -0.0034647724 -0.0068718209 -0.018470006 7.071068e-011 7.071068e-011 7.071068e-011 7.071068e-011
7070870870.8709 0.078857519 0.14051677 0.019770341 -0.0012409618 7.071068e-011 7.071068e-011 7.071068e-011 7.071068e-011
7079279279.2793 0.16825017 0.0068488345 -0.0055102315 0.018814169 7.071068e-011 7.071068e-011 7.071068e-011 7.071068e-011
7087687687.6877 0.032129139 -0.02664642 -0.016671376 -0.011455918 7.071068e-011 7.071068e-011 7.071068e-011 7.071068e-011
7096096096.0961 0.059915915 0.089487948 0.015916703 -0.012516047 7.071068e-011 7.071068e-011 7.071068e-011 7.071068e-011
7104504504.5045 0.14779973 0.0099905888 0.0065785381 0.019133318 7.071068e-011 7.071068e-011 7.071068e-011 7.071068e-011
7112912912.9129 0.050515343 -0.044503491 -0.020660277 -8.1833838e-005 7.071068e-011 7.071068e-011 7.071068e-011 7.071068e-011
7121321321.3213 0.034600142 0.032139119 0.0062602595 -0.019859824 7.071068e-011 7.071068e-011 7.071068e-011 7.071068e-011
7129729729.7297 0.089443892 0.014245372 0.016474929 0.012039001 7.071068e-011 7.071068e-011 7.071068e-011 7.071068e-011
7138138138.1381 0.043181017 -0.037840769 -0.017164929 0.011743581 7.071068e-011 7.071068e-011 7.071068e-011 7.071068e-011
7146546546.5465 -0.00049851008 0.013848059 -0.0058996272 -0.020112703 7.071068e-011 7.071068e-011 7.071068e-011 7.071068e-011
7154954954.955 0.030835576 0.041253731 0.020813335 0.0008070214 7.071068e-011 7.071068e-011 7.071068e-011 7.071068e-011
7163363363.3634 0.044838991 0.015591686 -0.0076214499 0.01912028 7.071068e-011 7.071068e-011 7.071068e-011 7.071068e-011
7171771771.7718 0.0010542703 0.020409657 -0.015784469 -0.01345484 7.071068e-011 7.071068e-011 7.071068e-011 7.071068e-011
7180180180.1802 0.01861112 0.072619647 0.017606527 -0.010435871 7.071068e-011 7.071068e-011 7.071068e-011 7.071068e-011
7188588588.5886 0.0678038 0.055966794 0.0039220122 0.02044398 7.071068e-011 7.071068e-011 7.071068e-011 7.071068e-011
7196996996.997 0.039645635 0.010157635 -0.020614987 -0.0026921306 7.071068e-011 7.071068e-011 7.071068e-011 7.071068e-011
7205405405.4054 0.01240193 0.067338981 0.0095043266 -0.018021462 7.071068e-011 7.071068e-011 7.071068e-011 7.071068e-011
7213813813.8138 0.083379291 0.067052342 0.013879678 0.015154053 7.071068e-011 7.071068e-011 7.071068e-011 7.071068e-011
7222222222.2222 0.065949373 -0.0055665462 -0.018976951 0.0082707824 7.071068e-011 7.071068e-011 7.071068e-011 7.071068e-011
7230630630.6306 -0.001301314 0.035420887 -0.0014853835 -0.02050071 7.071068e-011 7.071068e-011 7.071068e-011 7.071068e-011
7239039039.039 0.071793616 0.075470529 0.019978661 0.0058073862 7.071068e-011 7.071068e-011 7.071068e-011 7.071068e-011
7247447447.4474 0.075025551 -0.014999727 -0.011983262 0.017006271 7.071068e-011 7.071068e-011 7.071068e-011 7.071068e-011
7255855855.8559 -0.01670837 0.0076382533 -0.011638377 -0.017000603 7.071068e-011 7.071068e-011 7.071068e-011 7.071068e-011
7264264264.2643 0.035198137 0.08404357 0.020109978 -0.0054086717 7.071068e-011 7.071068e-011 7.071068e-011 7.071068e-011
7272672672.6727 0.074235514 0.00034422279 -0.0014720259 0.020553898 7.071068e-011 7.071068e-011 7.071068e-011 7.071068e-011
7281081081.0811 -0.030083133 0.0010689164 -0.018752825 -0.0084153647 7.071068e-011 7.071068e-011 7.071068e-011 7.071068e-011
7289489489.4895 0.00031410035 0.10772092 0.014671956 -0.014664727 7.071068e-011 7.071068e-011 7.071068e-011 7.071068e-011
7297897897.8979 0.084956996 0.050313465 0.008852331 0.018801322 7.071068e-011 7.071068e-011 7.071068e-011 7.071068e-011
7306306306.3063 0.00075832463 0.00903551 -0.020577257 0.0016361729 7.071068e-011 7.071068e-011 7.071068e-011 7.071068e-011
7314714714.7147 0.0043476485 0.11304337 0.005350362 -0.020314801 7.071068e-011 7.071068e-011 7.071068e-011 7.071068e-011
7323123123.1231 0.11278135 0.075066067 0.017042439 0.011702362 7.071068e-011 7.071068e-011 7.071068e-011 7.071068e-011
7331531531.5315 0.050881647 -0.01178227 -0.017305246 0.01176796 7.071068e-011 7.071068e-011 7.071068e-011 7.071068e-011
7339939939.9399 0.008080719 0.068962604 -0.0053771208 -0.02054874 7.071068e-011 7.071068e-011 7.071068e-011 7.071068e-011
7348348348.3483 0.10569459 0.06342072 0.020937536 0.0018787632 7.071068e-011 7.071068e-011 7.071068e-011 7.071068e-011
7356756756.7568 0.065839238 -0.037043896 -0.0091608707 0.018818244 7.071068e-011 7.071068e-011 7.071068e-011 7.071068e-011
7365165165.1652 -0.010173892 0.02120251 -0.014788091 -0.015168544 7.071068e-011 7.071068e-011 7.071068e-011 7.071068e-011
7373573573.5736 0.061807819 0.049673654 0.018994583 -0.0086128479 7.071068e-011 7.071068e-011 7.071068e-011 7.071068e-011
7381981981.982 0.043718364 -0.035525005 0.0011304298 0.021125488 7.071068e-011 7.071068e-011 7.071068e-011 7.071068e-011
7390390390.3904 -0.043154355 0.00994612 -0.020357493 -0.006117933 7.071068e-011 7.071068e-011 7.071068e-011 7.071068e-011
7398798798.7988 0.013250616 0.07116802 0.01284661 -0.016733877 7.071068e-011 7.071068e-011 7.071068e-011 7.071068e-011
7407207207.2072 0.027770504 0.0096314652 0.011244902 0.017963339 7.071068e-011 7.071068e-011 7.071068e-011 7.071068e-011
7415615615.6156 -0.041079488 0.035573494 -0.020878254 0.0044513354 7.071068e-011 7.071068e-011 7.071068e-011 7.071068e-011
7424024024.024 0.0069712857 0.10505137 0.0030036385 -0.021064803 7.071068e-011 7.071068e-011 7.071068e-011 7.071068e-011
7432432432.4324 0.054635003 0.053932264 0.018708127 0.010371123 7.071068e-011 7.071068e-011 7.071068e-011 7.071068e-011
7440840840.8408 0.009631264 0.042475063 -0.016106853 0.014111893 7.071068e-011 7.071068e-011 7.071068e-011 7.071068e-011
7449249249.2492 0.030401146 0.087221481 -0.0073734238 -0.019868311 7.071068e-011 7.071068e-011 7.071068e-011 7.071068e-011
7457657657.6577 0.077982269 0.048835516 0.021256899 0.00011963047 7.071068e-011 7.071068e-011 7.071068e-011 7.071068e-011
7466066066.0661 0.041603137 0.01412143 -0.0074731521 0.019960158 7.071068e-011 7.071068e-011 7.071068e-011 7.071068e-011
7474474474.4745 0.030577544 0.039451826 -0.015977653 -0.013795802 7.071068e-011 7.071068e-011 7.071068e-011 7.071068e-011
7482882882.8829 0.059967235 0.029021079 0.018606063 -0.0098513709 7.071068e-011 7.071068e-011 7.071068e-011 7.071068e-011
7491291291.2913 0.038806729 -0.013423775 0.0026921812 0.020938097 7.071068e-011 7.071068e-011 7.071068e-011 7.071068e-011
7499699699.6997 -0.0033520071 0.0025181235 -0.02038903 -0.0048796204 7.071068e-011 7.071068e-011 7.071068e-011 7.071068e-011
7508108108.1081 0.0034125107 0.031947911 0.011711429 -0.017355608 7.071068e-011 7.071068e-011 7.071068e-011 7.071068e-011
7516516516.5165 0.019350214 0.011812347 0.012040986 0.016965715 7.071068e-011 7.071068e-011 7.071068e-011 7.071068e-011
7524924924.9249 -0.026528731 0.0066648829 -0.020025602 0.0051216288 7.071068e-011 7.071068e-011 7.071068e-011 7.071068e-011
7533333333.3333 -0.029704822 0.066080108 0.0024880022 -0.020513928 7.071068e-011 7.071068e-011 7.071068e-011 7.071068e-011
7541741741.7417 0.027889913 0.068725161 0.018282363 0.0094512133 7.071068e-011 7.071068e-011 7.071068e-011 7.071068e-011
7550150150.1502 0.012821941 0.020598069 -0.015180198 0.013257299 7.071068e-011 7.071068e-011 7.071068e-011 7.071068e-011
7558558558.5586 -0.015271612 0.068629749 -0.0068927985 -0.01902118 7.071068e-011 7.071068e-011 7.071068e-011 7.071068e-011
7566966966.967 0.055755019 0.077989794 0.019994302 0.00043108518 7.071068e-011 7.071068e-011 7.071068e-011 7.071068e-011
7575375375.3754 0.053390011 0.0008775483 -0.0078729093 0.018477848 7.071068e-011 7.071068e-011 7.071068e-011 7.071068e-011
7583783783.7838 -0.011897982 0.024241269 -0.014435674 -0.014048164 7.071068e-011 7.071068e-011 7.071068e-011 7.071068e-011
7592192192.1922 0.045691915 0.060566492 0.017989827 -0.0083551006 7.071068e-011 7.071068e-011 7.071068e-011 7.071068e-011
7600600600.6006 0.051615957 -0.024490183 0.000905458 0.019490192 7.071068e-011 7.071068e-011 7.071068e-011 7.071068e-011
7609009009.009 -0.038069081 -0.010571102 -0.018894939 -0.0064998227 7.071068e-011 7.071068e-011 7.071068e-011 7.071068e-011
7617417417.4174 -0.0049343258 0.05813019 0.012600878 -0.015346477 7.071068e-011 7.071068e-011 7.071068e-011 7.071068e-011
7625825825.8258 0.026302949 -0.0043012784 0.0094520543 0.017388729 7.071068e-011 7.071068e-011 7.071068e-011 7.071068e-011
7634234234.2342 -0.060808428 0.0041589658 -0.019554449 0.0024847437 7.071068e-011 7.071068e-011 7.071068e-011 7.071068e-011
7642642642.6426 -0.026384454 0.091714717 0.0049558897 -0.018912526 7.071068e-011 7.071068e-011 7.071068e-011 7.071068e-011
7651051051.0511 0.037519783 0.042248808 0.015781682 0.011681164 7.071068e-011 7.071068e-011 7.071068e-011 7.071068e-011
7659459459.4595 -0.030033419 0.018253291 -0.016752968 0.010696672 7.071068e-011 7.071068e-011 7.071068e-011 7.071068e-011
7667867867.8679 -0.011370304 0.1025779 -0.003929676 -0.019115787 7.071068e-011 7.071068e-011 7.071068e-011 7.071068e-011
7676276276.2763 0.073886782 0.05881235 0.019110676 0.0039316225 7.071068e-011 7.071068e-011 7.071068e-011 7.071068e-011
7684684684.6847 0.021197094 -0.0038688623 -0.010740576 0.01664177 7.071068e-011 7.071068e-011 7.071068e-011 7.071068e-011
7693093093.0931 0.00076526438 0.054564621 -0.011520511 -0.015949685 7.071068e-011 7.071068e-011 7.071068e-011 7.071068e-011
7701501501.5015 0.071196362 0.032420829 0.019024808 -0.0048709302 7.071068e-011 7.071068e-011 7.071068e-011 7.071068e-011
7709909909.9099 0.023156142 -0.042537108 -0.002574062 0.01952887 7.071068e-011 7.071068e-011 7.071068e-011 7.071068e-011
7718318318.3183 -0.03315033 0.011077208 -0.017245017 -0.0095513547 7.071068e-011 7.071068e-011 7.071068e-011 7.071068e-011
7726726726.7267 0.024587944 0.027696088 0.015426484 -0.012259587 7.071068e-011 7.071068e-011 7.071068e-011 7.071068e-011
7735135135.1351 0.0027030762 -0.041399118 0.0059752325 0.018955005 7.071068e-011 7.071068e-011 7.071068e-011 7.071068e-011
7743543543.5435 -0.075050138 -4.1452338e-005 -0.019543784 -0.0014245859 7.071068e-011 7.071068e-011 7.071068e-011 7.071068e-011
7751951951.952 -0.030241383 0.064298145 0.0087005468 -0.017714905 7.071068e-011 7.071068e-011 7.071068e-011 7.071068e-011
7760360360.3604 -0.0027201194 0.017301995 0.01329781 0.01464254 7.071068e-011 7.071068e-011 7.071068e-011 7.071068e-011
7768768768.7688 -0.058436301 0.028530283 -0.018577931 0.006915174 7.071068e-011 7.071068e-011 7.071068e-011 7.071068e-011
7777177177.1772 -0.027129319 0.095636353 0.000559785 -0.019732006 7.071068e-011 7.071068e-011 7.071068e-011 7.071068e-011
7785585585.5856 0.033848599 0.057868063 0.01816183 0.0077807531 7.071068e-011 7.071068e-011 7.071068e-011 7.071068e-011
7793993993.994 -0.0057356674 0.027849521 -0.013880446 0.013728889 7.071068e-011 7.071068e-011 7.071068e-011 7.071068e-011
7802402402.4024 -0.00037215147 0.075035311 -0.0076130494 -0.018357068 7.071068e-011 7.071068e-011 7.071068e-011 7.071068e-011
7810810810.8108 0.058050472 0.048811723 0.019785082 -0.00050144113 7.071068e-011 7.071068e-011 7.071068e-011 7.071068e-011
7819219219.2192 0.025887946 -0.0064143334 -0.0070935045 0.018365091 7.071068e-011 7.071068e-011 7.071068e-011 7.071068e-011
7827627627.6276 -0.0036121837 0.026966499 -0.014453823 -0.013428799 7.071068e-011 7.071068e-011 7.071068e-011 7.071068e-011
7836036036.036 0.037604611 0.025724757 0.017831339 -0.0084119197 7.071068e-011 7.071068e-011 7.071068e-011 7.071068e-011
7844444444.4444 0.016445328 -0.023842372 0.001162286 0.019728307 7.071068e-011 7.071068e-011 7.071068e-011 7.071068e-011
7852852852.8529 -0.028310809 0.003121976 -0.01881773 -0.0063076783 7.071068e-011 7.071068e-011 7.071068e-011 7.071068e-011
7861261261.2613 0.0018282458 0.029488413 0.012735169 -0.015083878 7.071068e-011 7.071068e-011 7.071068e-011 7.071068e-011
7869669669.6697 0.0054175747 -0.0093469638 0.0090623181 0.017540213 7.071068e-011 7.071068e-011 7.071068e-011 7.071068e-011
7878078078.0781 -0.040456787 0.003490295 -0.019811308 0.0020150563 7.071068e-011 7.071068e-011 7.071068e-011 7.071068e-011
7886486486.4865 -0.024324074 0.046967175 0.0053457688 -0.019035861 7.071068e-011 7.071068e-011 7.071068e-011 7.071068e-011
7894894894.8949 0.010927598 0.030210506 0.015448066 0.01196089 7.071068e-011 7.071068e-011 7.071068e-011 7.071068e-011
7903303303.3033 -0.013613526 0.011106167 -0.017077815 0.0097440416 7.071068e-011 7.071068e-011 7.071068e-011 7.071068e-011
7911711711.7117 -0.017821837 0.044042364 -0.002806663 -0.019487213 7.071068e-011 7.071068e-011 7.071068e-011 7.071068e-011
7920120120.1201 0.023167975 0.044828903 0.01891811 0.0046859151 7.071068e-011 7.071068e-011 7.071068e-011 7.071068e-011
7928528528.5285 0.023513461 0.0019278944 -0.011429639 0.015766209 7.071068e-011 7.071068e-011 7.071068e-011 7.071068e-011
7936936936.9369 -0.0099753151 0.011288727 -0.010192638 -0.016379092 7.071068e-011 7.071068e-011 7.071068e-011 7.071068e-011
7945345345.3453 0.017932318 0.032115467 0.019018473 -0.0031205348 7.071068e-011 7.071068e-011 7.071068e-011 7.071068e-011
