!Keysight Technologies,N5235B,MY61252044,A.15.00.15
!Date: Friday, January 20, 2023 19:01:57
!Correction: S11(Off) 
!S21(Off) 
!S12(Off) 
!S22(Off) 
!S2P File: Measurements: S11, S21, S12, S22:
# Hz S  RI   R 50
6600000000 0.016850496 -0.17432968 0.014925573 -0.005256447 7.071068e-011 7.071068e-011 7.071068e-011 7.071068e-011
6608400000 -0.12348868 0.16673851 0.0068122754 0.010015926 7.071068e-011 7.071068e-011 7.071068e-011 7.071068e-011
6616800000 0.30699027 0.091483206 -0.0083351126 0.0048958948 7.071068e-011 7.071068e-011 7.071068e-011 7.071068e-011
6625200000 0.023386799 -0.27302 -0.0030168551 -0.0090083415 7.071068e-011 7.071068e-011 7.071068e-011 7.071068e-011
6633600000 -0.16564099 0.1617723 0.0092246514 -0.0016015487 7.071068e-011 7.071068e-011 7.071068e-011 7.071068e-011
6642000000 0.29042858 0.1137 -0.00066374079 0.0094719194 7.071068e-011 7.071068e-011 7.071068e-011 7.071068e-011
6650400000 0.039489709 -0.25272527 -0.011146615 -0.0027776426 7.071068e-011 7.071068e-011 7.071068e-011 7.071068e-011
6658800000 -0.14905544 0.13352419 0.0045998739 -0.012134796 7.071068e-011 7.071068e-011 7.071068e-011 7.071068e-011
6667200000 0.22809091 0.10344038 0.013119816 0.0077257361 7.071068e-011 7.071068e-011 7.071068e-011 7.071068e-011
6675600000 0.04438125 -0.15285255 -0.010027356 0.014939216 7.071068e-011 7.071068e-011 7.071068e-011 7.071068e-011
6684000000 -0.045431953 0.084342316 -0.015921837 -0.011853063 7.071068e-011 7.071068e-011 7.071068e-011 7.071068e-011
6692400000 0.10556773 0.048379291 0.01328839 -0.016329912 7.071068e-011 7.071068e-011 7.071068e-011 7.071068e-011
6700800000 0.085991979 0.017241215 0.016127201 0.013998426 7.071068e-011 7.071068e-011 7.071068e-011 7.071068e-011
6709200000 0.077905856 -0.040090241 -0.014432327 0.014481465 7.071068e-011 7.071068e-011 7.071068e-011 7.071068e-011
6717600000 -0.031412266 0.031949993 -0.011584462 -0.015616168 7.071068e-011 7.071068e-011 7.071068e-011 7.071068e-011
6726000000 0.15311359 0.11782084 0.016186718 -0.0084623741 7.071068e-011 7.071068e-011 7.071068e-011 7.071068e-011
6734400000 0.13156565 -0.13855766 0.0048318245 0.015944719 7.071068e-011 7.071068e-011 7.071068e-011 7.071068e-011
6742800000 -0.10796138 0.021907438 -0.015942411 0.00091847469 7.071068e-011 7.071068e-011 7.071068e-011 7.071068e-011
6751200000 0.1673194 0.15566327 0.0025470804 -0.015651803 7.071068e-011 7.071068e-011 7.071068e-011 7.071068e-011
6759600000 0.1558591 -0.16877446 0.013665637 0.0062093455 7.071068e-011 7.071068e-011 7.071068e-011 7.071068e-011
6768000000 -0.14689845 -0.011931112 -0.010197421 0.011086691 7.071068e-011 7.071068e-011 7.071068e-011 7.071068e-011
6776400000 0.12876691 0.18194586 -0.0087818652 -0.013015698 7.071068e-011 7.071068e-011 7.071068e-011 7.071068e-011
6784800000 0.15657248 -0.14227837 0.014333099 -0.0048361756 7.071068e-011 7.071068e-011 7.071068e-011 7.071068e-011
6793200000 -0.14657688 -0.014353335 0.00043617701 0.015529933 7.071068e-011 7.071068e-011 7.071068e-011 7.071068e-011
6801600000 0.095022164 0.20560157 -0.015941024 -0.003600674 7.071068e-011 7.071068e-011 7.071068e-011 7.071068e-011
6810000000 0.17700659 -0.090255119 0.0080969147 -0.014827689 7.071068e-011 7.071068e-011 7.071068e-011 7.071068e-011
6818400000 -0.10284935 -0.017842274 0.012602906 0.012784499 7.071068e-011 7.071068e-011 7.071068e-011 7.071068e-011
6826800000 0.080293261 0.18793219 -0.015677607 0.0097001167 7.071068e-011 7.071068e-011 7.071068e-011 7.071068e-011
6835200000 0.1857605 -0.044401381 -0.0050010206 -0.017788213 7.071068e-011 7.071068e-011 7.071068e-011 7.071068e-011
6843600000 -0.042686559 -0.033176824 0.020229427 -0.00021914525 7.071068e-011 7.071068e-011 7.071068e-011 7.071068e-011
6852000000 0.068641596 0.13013574 -0.0041937088 0.020441173 7.071068e-011 7.071068e-011 7.071068e-011 7.071068e-011
6860400000 0.14831507 -0.016603859 -0.018764058 -0.0093346816 7.071068e-011 7.071068e-011 7.071068e-011 7.071068e-011
6868800000 0.0061312793 -0.030082414 0.014376796 -0.016252266 7.071068e-011 7.071068e-011 7.071068e-011 7.071068e-011
6877200000 0.050695952 0.072364368 0.012831154 0.018065445 7.071068e-011 7.071068e-011 7.071068e-011 7.071068e-011
6885600000 0.09197145 0.0089295423 -0.0204792 0.0078092408 7.071068e-011 7.071068e-011 7.071068e-011 7.071068e-011
6894000000 0.047717042 -0.0019918708 -0.0022740623 -0.022088965 7.071068e-011 7.071068e-011 7.071068e-011 7.071068e-011
6902400000 0.03829658 0.019422976 0.022033485 0.0034043815 7.071068e-011 7.071068e-011 7.071068e-011 7.071068e-011
6910800000 0.0310087 0.036045957 -0.0090231318 0.020184191 7.071068e-011 7.071068e-011 7.071068e-011 7.071068e-011
6919200000 0.076440103 0.051606607 -0.016820857 -0.013887342 7.071068e-011 7.071068e-011 7.071068e-011 7.071068e-011
6927600000 0.053764924 -0.011768785 0.017545132 -0.012518563 7.071068e-011 7.071068e-011 7.071068e-011 7.071068e-011
6936000000 -0.0032792343 0.057742152 0.0069063539 0.019724602 7.071068e-011 7.071068e-011 7.071068e-011 7.071068e-011
6944400000 0.10821501 0.093239523 -0.020921366 0.00060758711 7.071068e-011 7.071068e-011 7.071068e-011 7.071068e-011
6952800000 0.089978896 -0.04342356 0.0050852871 -0.019910684 7.071068e-011 7.071068e-011 7.071068e-011 7.071068e-011
6961200000 -0.028980881 0.047690414 0.017044911 0.010556987 7.071068e-011 7.071068e-011 7.071068e-011 7.071068e-011
6969600000 0.11792997 0.11047097 -0.015079059 0.013035674 7.071068e-011 7.071068e-011 7.071068e-011 7.071068e-011
6978000000 0.10995096 -0.066534996 -0.0077228686 -0.01777084 7.071068e-011 7.071068e-011 7.071068e-011 7.071068e-011
6986400000 -0.063891917 0.02314892 0.018858893 -0.0014885466 7.071068e-011 7.071068e-011 7.071068e-011 7.071068e-011
6994800000 0.094397962 0.13794948 -0.0045248829 0.018788347 7.071068e-011 7.071068e-011 7.071068e-011 7.071068e-011
7003200000 0.11730091 -0.051828288 -0.016199244 -0.009843953 7.071068e-011 7.071068e-011 7.071068e-011 7.071068e-011
7011600000 -0.07150007 0.021389553 0.014811728 -0.011672171 7.071068e-011 7.071068e-011 7.071068e-011 7.071068e-011
7020000000 0.078192085 0.16481467 0.0067494954 0.017794052 7.071068e-011 7.071068e-011 7.071068e-011 7.071068e-011
7028400000 0.13958174 -0.021595094 -0.018662101 0.00065762317 7.071068e-011 7.071068e-011 7.071068e-011 7.071068e-011
7036800000 -0.05080916 0.019824408 0.0057332865 -0.018331025 7.071068e-011 7.071068e-011 7.071068e-011 7.071068e-011
7045200000 0.078782097 0.17296603 0.015746713 0.011035745 7.071068e-011 7.071068e-011 7.071068e-011 7.071068e-011
7053600000 0.17297308 0.0060755131 -0.015588268 0.010911874 7.071068e-011 7.071068e-011 7.071068e-011 7.071068e-011
7062000000 -0.002764819 -0.012780199 -0.0052885055 -0.019010667 7.071068e-011 7.071068e-011 7.071068e-011 7.071068e-011
7070400000 0.068283103 0.14037295 0.019893983 0.00052040222 7.071068e-011 7.071068e-011 7.071068e-011 7.071068e-011
7078800000 0.17143404 0.015968572 -0.0071762954 0.018259084 7.071068e-011 7.071068e-011 7.071068e-011 7.071068e-011
7087200000 0.038631644 -0.03232976 -0.015509166 -0.013046035 7.071068e-011 7.071068e-011 7.071068e-011 7.071068e-011
7095600000 0.052221067 0.087346837 0.017182838 -0.010894101 7.071068e-011 7.071068e-011 7.071068e-011 7.071068e-011
7104000000 0.14869227 0.017354758 0.0045720949 0.019771321 7.071068e-011 7.071068e-011 7.071068e-011 7.071068e-011
7112400000 0.05685059 -0.046392392 -0.020521129 -0.002316796 7.071068e-011 7.071068e-011 7.071068e-011 7.071068e-011
7120800000 0.030845195 0.028262079 0.0085098417 -0.019065719 7.071068e-011 7.071068e-011 7.071068e-011 7.071068e-011
7129200000 0.089085646 0.01902823 0.015019332 0.013934831 7.071068e-011 7.071068e-011 7.071068e-011 7.071068e-011
7137600000 0.047464032 -0.038126845 -0.018534943 0.0095971385 7.071068e-011 7.071068e-011 7.071068e-011 7.071068e-011
7146000000 -0.00017852146 0.0097934194 -0.0033566994 -0.020775799 7.071068e-011 7.071068e-011 7.071068e-011 7.071068e-011
7154400000 0.028201792 0.041829862 0.020587264 0.0034812996 7.071068e-011 7.071068e-011 7.071068e-011 7.071068e-011
7162800000 0.046176411 0.017180568 -0.010079015 0.017973537 7.071068e-011 7.071068e-011 7.071068e-011 7.071068e-011
7171200000 0.0035000101 0.017837452 -0.013815551 -0.015542454 7.071068e-011 7.071068e-011 7.071068e-011 7.071068e-011
7179600000 0.014669949 0.070132606 0.018983826 -0.0079382723 7.071068e-011 7.071068e-011 7.071068e-011 7.071068e-011
7188000000 0.066504329 0.059922233 0.00092098647 0.020843673 7.071068e-011 7.071068e-011 7.071068e-011 7.071068e-011
7196400000 0.043743238 0.010172741 -0.020029625 -0.0057923542 7.071068e-011 7.071068e-011 7.071068e-011 7.071068e-011
7204800000 0.010144896 0.062714987 0.012148251 -0.016376408 7.071068e-011 7.071068e-011 7.071068e-011 7.071068e-011
7213200000 0.079061188 0.071373343 0.011366461 0.017186942 7.071068e-011 7.071068e-011 7.071068e-011 7.071068e-011
7221600000 0.071741633 -0.002537912 -0.020158121 0.0051433961 7.071068e-011 7.071068e-011 7.071068e-011 7.071068e-011
7230000000 -0.00071319425 0.028618131 0.001887821 -0.020552335 7.071068e-011 7.071068e-011 7.071068e-011 7.071068e-011
7238400000 0.064810336 0.078724355 0.018715858 0.0091247857 7.071068e-011 7.071068e-011 7.071068e-011 7.071068e-011
7246800000 0.081205368 -0.0094750281 -0.014810232 0.014705994 7.071068e-011 7.071068e-011 7.071068e-011 7.071068e-011
7255200000 -0.013091795 7.8074481e-005 -0.0084773907 -0.018779505 7.071068e-011 7.071068e-011 7.071068e-011 7.071068e-011
7263600000 0.027051369 0.084105223 0.020797607 -0.0016845762 7.071068e-011 7.071068e-011 7.071068e-011 7.071068e-011
7272000000 0.078558505 0.0078671854 -0.0052371379 0.020003332 7.071068e-011 7.071068e-011 7.071068e-011 7.071068e-011
7280400000 -0.023560107 -0.0061240965 -0.016882509 -0.011866451 7.071068e-011 7.071068e-011 7.071068e-011 7.071068e-011
7288800000 -0.0088633038 0.10308833 0.017262185 -0.011534808 7.071068e-011 7.071068e-011 7.071068e-011 7.071068e-011
7297200000 0.084836051 0.059882998 0.0049471706 0.020225132 7.071068e-011 7.071068e-011 7.071068e-011 7.071068e-011
7305600000 0.0087423716 0.0043995176 -0.020511121 -0.0024849337 7.071068e-011 7.071068e-011 7.071068e-011 7.071068e-011
7314000000 -0.0040508434 0.10628878 0.0094192671 -0.018853446 7.071068e-011 7.071068e-011 7.071068e-011 7.071068e-011
7322400000 0.10880885 0.085585825 0.014309785 0.015019043 7.071068e-011 7.071068e-011 7.071068e-011 7.071068e-011
7330800000 0.060238834 -0.011735752 -0.019418804 0.0077792075 7.071068e-011 7.071068e-011 7.071068e-011 7.071068e-011
7339200000 0.0041221008 0.060845207 -0.00072107959 -0.021275723 7.071068e-011 7.071068e-011 7.071068e-011 7.071068e-011
7347600000 0.099145502 0.072064102 0.020050135 0.0064530629 7.071068e-011 7.071068e-011 7.071068e-011 7.071068e-011
7356000000 0.076038539 -0.033531226 -0.01311186 0.016281458 7.071068e-011 7.071068e-011 7.071068e-011 7.071068e-011
7364400000 -0.010106265 0.012325116 -0.01089353 -0.018197263 7.071068e-011 7.071068e-011 7.071068e-011 7.071068e-011
7372800000 0.054628745 0.054812852 0.020610685 -0.0040014107 7.071068e-011 7.071068e-011 7.071068e-011 7.071068e-011
7381200000 0.053045895 -0.03095893 -0.0039277584 0.020827496 7.071068e-011 7.071068e-011 7.071068e-011 7.071068e-011
7389600000 -0.040967092 0.00056865514 -0.018310413 -0.010862475 7.071068e-011 7.071068e-011 7.071068e-011 7.071068e-011
7398000000 0.0055954061 0.072026007 0.016535638 -0.013077763 7.071068e-011 7.071068e-011 7.071068e-011 7.071068e-011
7406400000 0.032934938 0.014834024 0.0064267702 0.020215482 7.071068e-011 7.071068e-011 7.071068e-011 7.071068e-011
7414800000 -0.037990481 0.027336812 -0.021370482 -0.00098401634 7.071068e-011 7.071068e-011 7.071068e-011 7.071068e-011
7423200000 -0.0017405042 0.10352296 0.0083267046 -0.019625284 7.071068e-011 7.071068e-011 7.071068e-011 7.071068e-011
7431600000 0.055578776 0.060730319 0.015330698 0.014914874 7.071068e-011 7.071068e-011 7.071068e-011 7.071068e-011
7440000000 0.013343372 0.03828676 -0.019354479 0.0093157124 7.071068e-011 7.071068e-011 7.071068e-011 7.071068e-011
7448400000 0.024021197 0.085677259 -0.0018058622 -0.021160455 7.071068e-011 7.071068e-011 7.071068e-011 7.071068e-011
7456800000 0.077558883 0.055350304 0.020458795 0.0059011448 7.071068e-011 7.071068e-011 7.071068e-011 7.071068e-011
7465200000 0.046021476 0.013917453 -0.012731452 0.017135035 7.071068e-011 7.071068e-011 7.071068e-011 7.071068e-011
7473600000 0.028638193 0.037004828 -0.011494181 -0.017775768 7.071068e-011 7.071068e-011 7.071068e-011 7.071068e-011
7482000000 0.058301922 0.033208352 0.020669149 -0.0041432423 7.071068e-011 7.071068e-011 7.071068e-011 7.071068e-011
7490400000 0.043676689 -0.010749096 -0.0034786125 0.020859925 7.071068e-011 7.071068e-011 7.071068e-011 7.071068e-011
7498800000 -0.00076942012 -0.0016227767 -0.01808995 -0.010600185 7.071068e-011 7.071068e-011 7.071068e-011 7.071068e-011
7507200000 0.00046537886 0.031044008 0.016361063 -0.013113836 7.071068e-011 7.071068e-011 7.071068e-011 7.071068e-011
7515600000 0.020728765 0.015297663 0.0063763466 0.019866243 7.071068e-011 7.071068e-011 7.071068e-011 7.071068e-011
7524000000 -0.021141361 0.0031762384 -0.020706445 -0.0012346547 7.071068e-011 7.071068e-011 7.071068e-011 7.071068e-011
7532400000 -0.0340515 0.060066391 0.008697534 -0.018764095 7.071068e-011 7.071068e-011 7.071068e-011 7.071068e-011
7540800000 0.022659827 0.073237114 0.014454018 0.014707019 7.071068e-011 7.071068e-011 7.071068e-011 7.071068e-011
7549200000 0.019578304 0.022391595 -0.018577363 0.0078471834 7.071068e-011 7.071068e-011 7.071068e-011 7.071068e-011
7557600000 -0.018491866 0.060941666 -0.00041857449 -0.020264698 7.071068e-011 7.071068e-011 7.071068e-011 7.071068e-011
7566000000 0.047898874 0.083704412 0.01887992 0.0069075697 7.071068e-011 7.071068e-011 7.071068e-011 7.071068e-011
7574400000 0.060959876 0.0077324514 -0.013502619 0.014895034 7.071068e-011 7.071068e-011 7.071068e-011 7.071068e-011
7582800000 -0.010002811 0.015480099 -0.0089241834 -0.01803189 7.071068e-011 7.071068e-011 7.071068e-011 7.071068e-011
7591200000 0.036800105 0.064335428 0.019787977 -0.0018369824 7.071068e-011 7.071068e-011 7.071068e-011 7.071068e-011
7599600000 0.059096612 -0.01507715 -0.0056958529 0.018714273 7.071068e-011 7.071068e-011 7.071068e-011 7.071068e-011
7608000000 -0.030886617 -0.020524371 -0.015520847 -0.012630791 7.071068e-011 7.071068e-011 7.071068e-011 7.071068e-011
7616400000 -0.0150384 0.056690149 0.017216578 -0.010067662 7.071068e-011 7.071068e-011 7.071068e-011 7.071068e-011
7624800000 0.031562753 0.0051298765 0.0027333293 0.019581577 7.071068e-011 7.071068e-011 7.071068e-011 7.071068e-011
7633200000 -0.052728534 -0.0063235955 -0.019167999 -0.0046269172 7.071068e-011 7.071068e-011 7.071068e-011 7.071068e-011
7641600000 -0.038333494 0.086963505 0.011387942 -0.015900502 7.071068e-011 7.071068e-011 7.071068e-011 7.071068e-011
7650000000 0.037822947 0.05303292 0.010519647 0.016605992 7.071068e-011 7.071068e-011 7.071068e-011 7.071068e-011
7658400000 -0.021044532 0.011732534 -0.019554809 0.0037796684 7.071068e-011 7.071068e-011 7.071068e-011 7.071068e-011
7666800000 -0.022686604 0.095862292 0.0034399226 -0.019299584 7.071068e-011 7.071068e-011 7.071068e-011 7.071068e-011
7675200000 0.069516987 0.071614079 0.016195506 0.010757213 7.071068e-011 7.071068e-011 7.071068e-011 7.071068e-011
7683600000 0.032027271 -0.004019096 -0.016279384 0.011315633 7.071068e-011 7.071068e-011 7.071068e-011 7.071068e-011
7692000000 -0.0053145005 0.046846826 -0.0046050544 -0.019173108 7.071068e-011 7.071068e-011 7.071068e-011 7.071068e-011
7700400000 0.065789327 0.043952525 0.019485664 0.0027943994 7.071068e-011 7.071068e-011 7.071068e-011 7.071068e-011
7708800000 0.035665069 -0.039882794 -0.009970828 0.016975395 7.071068e-011 7.071068e-011 7.071068e-011 7.071068e-011
7717200000 -0.033749577 0.0008632096 -0.012071454 -0.01563069 7.071068e-011 7.071068e-011 7.071068e-011 7.071068e-011
7725600000 0.017005045 0.033761296 0.019004466 -0.0051401039 7.071068e-011 7.071068e-011 7.071068e-011 7.071068e-011
7734000000 0.013920759 -0.035664108 -0.0021239792 0.019784523 7.071068e-011 7.071068e-011 7.071068e-011 7.071068e-011
7742400000 -0.070647247 -0.01220968 -0.017341312 -0.0091615291 7.071068e-011 7.071068e-011 7.071068e-011 7.071068e-011
7750800000 -0.040665202 0.062357321 0.015223457 -0.012599831 7.071068e-011 7.071068e-011 7.071068e-011 7.071068e-011
7759200000 0.0015853493 0.025370559 0.0060696695 0.018914694 7.071068e-011 7.071068e-011 7.071068e-011 7.071068e-011
7767600000 -0.053387128 0.019353861 -0.019810934 -0.0014340299 7.071068e-011 7.071068e-011 7.071068e-011 7.071068e-011
7776000000 -0.037817385 0.091108404 0.0087163793 -0.017659539 7.071068e-011 7.071068e-011 7.071068e-011 7.071068e-011
7784400000 0.031568523 0.067937009 0.013154693 0.014761897 7.071068e-011 7.071068e-011 7.071068e-011 7.071068e-011
7792800000 0.0011042533 0.024851335 -0.018468482 0.006582188 7.071068e-011 7.071068e-011 7.071068e-011 7.071068e-011
7801200000 -0.007488858 0.070260413 0.0010604635 -0.019869395 7.071068e-011 7.071068e-011 7.071068e-011 7.071068e-011
7809600000 0.053002067 0.058406461 0.018093677 0.0081978505 7.071068e-011 7.071068e-011 7.071068e-011 7.071068e-011
7818000000 0.03541724 -0.0042279242 -0.014418229 0.013369168 7.071068e-011 7.071068e-011 7.071068e-011 7.071068e-011
7826400000 -0.0056108879 0.020726891 -0.007037723 -0.018472018 7.071068e-011 7.071068e-011 7.071068e-011 7.071068e-011
7834800000 0.032582253 0.031750612 0.019759433 0.00038778828 7.071068e-011 7.071068e-011 7.071068e-011 7.071068e-011
7843200000 0.025334911 -0.01984562 -0.0078251828 0.018206017 7.071068e-011 7.071068e-011 7.071068e-011 7.071068e-011
7851600000 -0.026921745 -0.0044843964 -0.013920598 -0.014171749 7.071068e-011 7.071068e-011 7.071068e-011 7.071068e-011
7860000000 -0.0039561922 0.030722074 0.018269992 -0.0076173786 7.071068e-011 7.071068e-011 7.071068e-011 7.071068e-011
7868400000 0.010197107 -0.0035329247 -1.9638088e-005 0.019746913 7.071068e-011 7.071068e-011 7.071068e-011 7.071068e-011
7876800000 -0.036093641 -0.0037289595 -0.018513268 -0.0074521578 7.071068e-011 7.071068e-011 7.071068e-011 7.071068e-011
7885200000 -0.030649979 0.043368246 0.013654971 -0.014376357 7.071068e-011 7.071068e-011 7.071068e-011 7.071068e-011
7893600000 0.0088998601 0.036310803 0.0080259163 0.017875809 7.071068e-011 7.071068e-011 7.071068e-011 7.071068e-011
7902000000 -0.0083051827 0.009146696 -0.019684823 0.00042885041 7.071068e-011 7.071068e-011 7.071068e-011 7.071068e-011
7910400000 -0.021469355 0.039228432 0.0069053336 -0.018557759 7.071068e-011 7.071068e-011 7.071068e-011 7.071068e-011
7918800000 0.01722989 0.04888365 0.014394173 0.013199413 7.071068e-011 7.071068e-011 7.071068e-011 7.071068e-011
7927200000 0.028410681 0.0074404525 -0.017654078 0.0082332306 7.071068e-011 7.071068e-011 7.071068e-011 7.071068e-011
7935600000 -0.0078536617 0.005835921 -0.00088621379 -0.019344483 7.071068e-011 7.071068e-011 7.071068e-011 7.071068e-011
7944000000 0.01082667 0.03312654 0.018183379 0.0066650514 7.071068e-011 7.071068e-011 7.071068e-011 7.071068e-011
7952400000 0.037625521 -0.0054848916 -0.013099719 0.014255097 7.071068e-011 7.071068e-011 7.071068e-011 7.071068e-011
7960800000 -0.015102249 -0.033533789 -0.00831242 -0.017476995 7.071068e-011 7.071068e-011 7.071068e-011 7.071068e-011
7969200000 -0.029215923 0.021005889 0.019020231 -0.00094443164 7.071068e-011 7.071068e-011 7.071068e-011 7.071068e-011
7977600000 0.020104656 0.0066811377 -0.006518166 0.017931595 7.071068e-011 7.071068e-011 7.071068e-011 7.071068e-011
7986000000 -0.024357038 -0.039657809 -0.014116814 -0.012808017 7.071068e-011 7.071068e-011 7.071068e-011 7.071068e-011
7994400000 -0.065213151 0.02477571 0.017152593 -0.0081799794 7.071068e-011 7.071068e-011 7.071068e-011 7.071068e-011
