!Keysight Technologies,N5235B,MY61252044,A.15.00.15
!Date: Friday, January 20, 2023 22:07:53
!Correction: S11(Off) 
!S21(Off) 
!S12(Off) 
!S22(Off) 
!S2P File: Measurements: S11, S21, S12, S22:
# Hz S  RI   R 50
6600000000 0.01770776 -0.17487368 0.015483001 -0.0030506114 7.071068e-011 7.071068e-011 7.071068e-011 7.071068e-011
6608408408.4084 -0.12378467 0.16638902 0.0053234925 0.010845518 7.071068e-011 7.071068e-011 7.071068e-011 7.071068e-011
6616816816.8168 0.3064118 0.091574021 -0.0089156227 0.0037050324 7.071068e-011 7.071068e-011 7.071068e-011 7.071068e-011
6625225225.2252 0.023335772 -0.27287799 -0.0017973734 -0.0093110399 7.071068e-011 7.071068e-011 7.071068e-011 7.071068e-011
6633633633.6336 -0.16500098 0.16249342 0.0093417037 -0.00040173743 7.071068e-011 7.071068e-011 7.071068e-011 7.071068e-011
6642042042.042 0.29049841 0.11211321 -0.0018432183 0.0093267774 7.071068e-011 7.071068e-011 7.071068e-011 7.071068e-011
6650450450.4505 0.037963599 -0.25213629 -0.010733542 -0.0040786122 7.071068e-011 7.071068e-011 7.071068e-011 7.071068e-011
6658858858.8589 -0.14792752 0.13536511 0.0059670345 -0.011503287 7.071068e-011 7.071068e-011 7.071068e-011 7.071068e-011
6667267267.2673 0.22905453 0.10049282 0.012217353 0.009157544 7.071068e-011 7.071068e-011 7.071068e-011 7.071068e-011
6675675675.6757 0.042109363 -0.15121201 -0.011526785 0.013840738 7.071068e-011 7.071068e-011 7.071068e-011 7.071068e-011
6684084084.0841 -0.044212501 0.084700741 -0.01461249 -0.013347775 7.071068e-011 7.071068e-011 7.071068e-011 7.071068e-011
6692492492.4925 0.10609774 0.047293816 0.014817056 -0.014944816 7.071068e-011 7.071068e-011 7.071068e-011 7.071068e-011
6700900900.9009 0.085878409 0.018078147 0.014793127 0.015413973 7.071068e-011 7.071068e-011 7.071068e-011 7.071068e-011
6709309309.3093 0.076899111 -0.041797273 -0.015555344 0.013135131 7.071068e-011 7.071068e-011 7.071068e-011 7.071068e-011
6717717717.7177 -0.030978315 0.034758873 -0.010176837 -0.01648172 7.071068e-011 7.071068e-011 7.071068e-011 7.071068e-011
6726126126.1261 0.15544665 0.11587135 0.016807418 -0.0071164886 7.071068e-011 7.071068e-011 7.071068e-011 7.071068e-011
6734534534.5345 0.12798625 -0.1408724 0.0035841044 0.016242461 7.071068e-011 7.071068e-011 7.071068e-011 7.071068e-011
6742942942.9429 -0.10778163 0.027394366 -0.015926285 -0.00024952533 7.071068e-011 7.071068e-011 7.071068e-011 7.071068e-011
6751351351.3514 0.17215165 0.15214148 0.0035939848 -0.015388991 7.071068e-011 7.071068e-011 7.071068e-011 7.071068e-011
6759759759.7598 0.14996295 -0.17196712 0.01320417 0.0070523266 7.071068e-011 7.071068e-011 7.071068e-011 7.071068e-011
6768168168.1682 -0.14695698 -0.0046382751 -0.010845697 0.010438894 7.071068e-011 7.071068e-011 7.071068e-011 7.071068e-011
6776576576.5766 0.13480894 0.17855532 -0.0080353329 -0.013466032 7.071068e-011 7.071068e-011 7.071068e-011 7.071068e-011
6784984984.985 0.15054782 -0.14669064 0.014560464 -0.0040448927 7.071068e-011 7.071068e-011 7.071068e-011 7.071068e-011
6793393393.3934 -0.14756228 -0.0058211894 -0.00031834259 0.015531092 7.071068e-011 7.071068e-011 7.071068e-011 7.071068e-011
6801801801.8018 0.10226248 0.20248657 -0.015733363 -0.0042705499 7.071068e-011 7.071068e-011 7.071068e-011 7.071068e-011
6810210210.2102 0.17196076 -0.095492981 0.008654627 -0.014455784 7.071068e-011 7.071068e-011 7.071068e-011 7.071068e-011
6818618618.6186 -0.10558856 -0.0096896105 0.012175485 0.013221843 7.071068e-011 7.071068e-011 7.071068e-011 7.071068e-011
6827027027.027 0.088472538 0.18540159 -0.015952511 0.0092403563 7.071068e-011 7.071068e-011 7.071068e-011 7.071068e-011
6835435435.4354 0.18116464 -0.049282849 -0.0045129149 -0.017897019 7.071068e-011 7.071068e-011 7.071068e-011 7.071068e-011
6843843843.8438 -0.045702446 -0.027579714 0.020182876 0.00021048667 7.071068e-011 7.071068e-011 7.071068e-011 7.071068e-011
6852252252.2523 0.075175762 0.12927921 -0.0045510349 0.020317793 7.071068e-011 7.071068e-011 7.071068e-011 7.071068e-011
6860660660.6607 0.14498614 -0.020607075 -0.018632108 -0.0095804613 7.071068e-011 7.071068e-011 7.071068e-011 7.071068e-011
6869069069.0691 0.0039218226 -0.026831664 0.014496614 -0.016124481 7.071068e-011 7.071068e-011 7.071068e-011 7.071068e-011
6877477477.4775 0.054270621 0.07265985 0.012718435 0.018078566 7.071068e-011 7.071068e-011 7.071068e-011 7.071068e-011
6885885885.8859 0.090374351 0.0067088399 -0.020447575 0.0077459919 7.071068e-011 7.071068e-011 7.071068e-011 7.071068e-011
6894294294.2943 0.047121122 -0.00098283938 -0.0023489131 -0.022023302 7.071068e-011 7.071068e-011 7.071068e-011 7.071068e-011
6902702702.7027 0.038241945 0.019445667 0.022007359 0.0032044661 7.071068e-011 7.071068e-011 7.071068e-011 7.071068e-011
6911111111.1111 0.0310742 0.037702791 -0.0087438384 0.020239886 7.071068e-011 7.071068e-011 7.071068e-011 7.071068e-011
6919519519.5195 0.078341387 0.049760979 -0.016980369 -0.013596402 7.071068e-011 7.071068e-011 7.071068e-011 7.071068e-011
6927927927.9279 0.050511561 -0.012378018 0.017225195 -0.012817333 7.071068e-011 7.071068e-011 7.071068e-011 7.071068e-011
6936336336.3363 -0.0020220261 0.062440902 0.0073152347 0.019468367 7.071068e-011 7.071068e-011 7.071068e-011 7.071068e-011
6944744744.7447 0.11261462 0.089080766 -0.020845218 0.0011863247 7.071068e-011 7.071068e-011 7.071068e-011 7.071068e-011
6953153153.1532 0.083942488 -0.045621496 0.0044460348 -0.020015959 7.071068e-011 7.071068e-011 7.071068e-011 7.071068e-011
6961561561.5616 -0.028236965 0.054842148 0.017365782 0.0099195587 7.071068e-011 7.071068e-011 7.071068e-011 7.071068e-011
6969969969.97 0.12500963 0.10560613 -0.0144904 0.013586867 7.071068e-011 7.071068e-011 7.071068e-011 7.071068e-011
6978378378.3784 0.10123703 -0.071039155 -0.0084291352 -0.017360166 7.071068e-011 7.071068e-011 7.071068e-011 7.071068e-011
6986786786.7868 -0.064067498 0.033303663 0.018735046 -0.0023216968 7.071068e-011 7.071068e-011 7.071068e-011 7.071068e-011
6995195195.1952 0.10348807 0.13361917 -0.003508315 0.01893454 7.071068e-011 7.071068e-011 7.071068e-011 7.071068e-011
7003603603.6036 0.10842351 -0.058230549 -0.016632067 -0.0088691432 7.071068e-011 7.071068e-011 7.071068e-011 7.071068e-011
7012012012.012 -0.072746493 0.033074066 0.014097535 -0.012508745 7.071068e-011 7.071068e-011 7.071068e-011 7.071068e-011
7020420420.4204 0.088584334 0.16122733 0.0078390418 0.017313285 7.071068e-011 7.071068e-011 7.071068e-011 7.071068e-011
7028828828.8288 0.13222033 -0.02945295 -0.01853008 0.0018741647 7.071068e-011 7.071068e-011 7.071068e-011 7.071068e-011
7037237237.2372 -0.05417965 0.031247916 0.0043766461 -0.018662689 7.071068e-011 7.071068e-011 7.071068e-011 7.071068e-011
7045645645.6456 0.090615474 0.17082986 0.016477708 0.0097645689 7.071068e-011 7.071068e-011 7.071068e-011 7.071068e-011
7054054054.0541 0.16731198 -0.0035914814 -0.014654786 0.01208623 7.071068e-011 7.071068e-011 7.071068e-011 7.071068e-011
7062462462.4625 -0.0084350388 -0.0035221034 -0.0068832482 -0.018464854 7.071068e-011 7.071068e-011 7.071068e-011 7.071068e-011
7070870870.8709 0.078788258 0.14043058 0.019776031 -0.0012433556 7.071068e-011 7.071068e-011 7.071068e-011 7.071068e-011
7079279279.2793 0.1681948 0.0069096927 -0.0055042477 0.018817337 7.071068e-011 7.071068e-011 7.071068e-011 7.071068e-011
7087687687.6877 0.032209013 -0.026690403 -0.016680121 -0.011453057 7.071068e-011 7.071068e-011 7.071068e-011 7.071068e-011
7096096096.0961 0.059857827 0.089425877 0.015918029 -0.012523358 7.071068e-011 7.071068e-011 7.071068e-011 7.071068e-011
7104504504.5045 0.14780216 0.010031329 0.0065871435 0.019131174 7.071068e-011 7.071068e-011 7.071068e-011 7.071068e-011
7112912912.9129 0.050543666 -0.044544976 -0.020653101 -7.6453354e-005 7.071068e-011 7.071068e-011 7.071068e-011 7.071068e-011
7121321321.3213 0.034589276 0.032117654 0.0062609725 -0.019865906 7.071068e-011 7.071068e-011 7.071068e-011 7.071068e-011
7129729729.7297 0.089419544 0.014243541 0.016486116 0.012039275 7.071068e-011 7.071068e-011 7.071068e-011 7.071068e-011
7138138138.1381 0.043195024 -0.037819911 -0.017166682 0.01174753 7.071068e-011 7.071068e-011 7.071068e-011 7.071068e-011
7146546546.5465 -0.0004799155 0.013794499 -0.0059033316 -0.02011569 7.071068e-011 7.071068e-011 7.071068e-011 7.071068e-011
7154954954.955 0.030799778 0.041271742 0.020816136 0.000798113 7.071068e-011 7.071068e-011 7.071068e-011 7.071068e-011
7163363363.3634 0.044886418 0.015595996 -0.0076166894 0.019128229 7.071068e-011 7.071068e-011 7.071068e-011 7.071068e-011
7171771771.7718 0.0010607012 0.020387979 -0.015789386 -0.013446722 7.071068e-011 7.071068e-011 7.071068e-011 7.071068e-011
7180180180.1802 0.01863528 0.072603911 0.017603436 -0.010443062 7.071068e-011 7.071068e-011 7.071068e-011 7.071068e-011
7188588588.5886 0.067788556 0.055960011 0.0039360314 0.020450065 7.071068e-011 7.071068e-011 7.071068e-011 7.071068e-011
7196996996.997 0.039689228 0.01016231 -0.020625528 -0.0026917835 7.071068e-011 7.071068e-011 7.071068e-011 7.071068e-011
7205405405.4054 0.012404451 0.06728752 0.0095041953 -0.018032143 7.071068e-011 7.071068e-011 7.071068e-011 7.071068e-011
7213813813.8138 0.083347358 0.067078568 0.013892754 0.015162764 7.071068e-011 7.071068e-011 7.071068e-011 7.071068e-011
7222222222.2222 0.066008091 -0.0055808919 -0.01897845 0.0082724337 7.071068e-011 7.071068e-011 7.071068e-011 7.071068e-011
7230630630.6306 -0.0013098236 0.035390127 -0.0014951678 -0.020499961 7.071068e-011 7.071068e-011 7.071068e-011 7.071068e-011
7239039039.039 0.071777798 0.075463846 0.019976374 0.0058015767 7.071068e-011 7.071068e-011 7.071068e-011 7.071068e-011
7247447447.4474 0.075030461 -0.014974602 -0.01197863 0.017016212 7.071068e-011 7.071068e-011 7.071068e-011 7.071068e-011
7255855855.8559 -0.016659683 0.0076084519 -0.011648506 -0.016996466 7.071068e-011 7.071068e-011 7.071068e-011 7.071068e-011
7264264264.2643 0.035145868 0.084016621 0.020117458 -0.0054042679 7.071068e-011 7.071068e-011 7.071068e-011 7.071068e-011
7272672672.6727 0.074253455 0.00040652434 -0.0014657076 0.020553194 7.071068e-011 7.071068e-011 7.071068e-011 7.071068e-011
7281081081.0811 -0.030044436 0.0010114914 -0.018756807 -0.0084068114 7.071068e-011 7.071068e-011 7.071068e-011 7.071068e-011
7289489489.4895 0.00026685739 0.10770472 0.014666052 -0.014663488 7.071068e-011 7.071068e-011 7.071068e-011 7.071068e-011
7297897897.8979 0.084960304 0.050336245 0.0088565461 0.018813806 7.071068e-011 7.071068e-011 7.071068e-011 7.071068e-011
7306306306.3063 0.00078710803 0.0090129683 -0.020583699 0.001633915 7.071068e-011 7.071068e-011 7.071068e-011 7.071068e-011
7314714714.7147 0.004353269 0.11297941 0.0053469059 -0.020316675 7.071068e-011 7.071068e-011 7.071068e-011 7.071068e-011
7323123123.1231 0.11274303 0.075077526 0.017046258 0.011696956 7.071068e-011 7.071068e-011 7.071068e-011 7.071068e-011
7331531531.5315 0.050947923 -0.011792997 -0.017306596 0.011765694 7.071068e-011 7.071068e-011 7.071068e-011 7.071068e-011
7339939939.9399 0.0080571221 0.06889233 -0.0053801723 -0.020547908 7.071068e-011 7.071068e-011 7.071068e-011 7.071068e-011
7348348348.3483 0.10566567 0.06345807 0.02093762 0.0018722919 7.071068e-011 7.071068e-011 7.071068e-011 7.071068e-011
7356756756.7568 0.065880314 -0.037072886 -0.0091556311 0.01882311 7.071068e-011 7.071068e-011 7.071068e-011 7.071068e-011
7365165165.1652 -0.010188876 0.021169489 -0.014793715 -0.015159304 7.071068e-011 7.071068e-011 7.071068e-011 7.071068e-011
7373573573.5736 0.061786864 0.049670354 0.019001648 -0.0086225476 7.071068e-011 7.071068e-011 7.071068e-011 7.071068e-011
7381981981.982 0.043732062 -0.035513524 0.0011271252 0.021128261 7.071068e-011 7.071068e-011 7.071068e-011 7.071068e-011
7390390390.3904 -0.043110494 0.0099100806 -0.020362053 -0.0061041927 7.071068e-011 7.071068e-011 7.071068e-011 7.071068e-011
7398798798.7988 0.01319245 0.071158752 0.012854883 -0.01674396 7.071068e-011 7.071068e-011 7.071068e-011 7.071068e-011
7407207207.2072 0.027815532 0.009670848 0.011246926 0.017962039 7.071068e-011 7.071068e-011 7.071068e-011 7.071068e-011
7415615615.6156 -0.041050114 0.0355177 -0.020872748 0.0044544968 7.071068e-011 7.071068e-011 7.071068e-011 7.071068e-011
7424024024.024 0.0069652298 0.10505135 0.0030014471 -0.021056563 7.071068e-011 7.071068e-011 7.071068e-011 7.071068e-011
7432432432.4324 0.054667823 0.053940505 0.018717 0.010369223 7.071068e-011 7.071068e-011 7.071068e-011 7.071068e-011
7440840840.8408 0.0096625732 0.042466909 -0.016102575 0.014110965 7.071068e-011 7.071068e-011 7.071068e-011 7.071068e-011
7449249249.2492 0.030406451 0.087178409 -0.0073889215 -0.019860812 7.071068e-011 7.071068e-011 7.071068e-011 7.071068e-011
7457657657.6577 0.077951737 0.04885425 0.021267412 0.00010923114 7.071068e-011 7.071068e-011 7.071068e-011 7.071068e-011
7466066066.0661 0.041658759 0.014104908 -0.0074644075 0.019968877 7.071068e-011 7.071068e-011 7.071068e-011 7.071068e-011
7474474474.4745 0.030547813 0.039408591 -0.015985157 -0.013793654 7.071068e-011 7.071068e-011 7.071068e-011 7.071068e-011
7482882882.8829 0.059964847 0.029046703 0.018612489 -0.009858638 7.071068e-011 7.071068e-011 7.071068e-011 7.071068e-011
7491291291.2913 0.038816188 -0.013446626 0.0027066257 0.020932153 7.071068e-011 7.071068e-011 7.071068e-011 7.071068e-011
7499699699.6997 -0.0033519117 0.0025258497 -0.020387564 -0.0048686699 7.071068e-011 7.071068e-011 7.071068e-011 7.071068e-011
7508108108.1081 0.0034098621 0.031924568 0.011705525 -0.01736006 7.071068e-011 7.071068e-011 7.071068e-011 7.071068e-011
7516516516.5165 0.019349039 0.011845973 0.012045681 0.016965736 7.071068e-011 7.071068e-011 7.071068e-011 7.071068e-011
7524924924.9249 -0.026478624 0.0066510672 -0.020025402 0.0051318496 7.071068e-011 7.071068e-011 7.071068e-011 7.071068e-011
7533333333.3333 -0.029731127 0.066060916 0.002485085 -0.020513853 7.071068e-011 7.071068e-011 7.071068e-011 7.071068e-011
7541741741.7417 0.027914235 0.068751074 0.018284598 0.0094422596 7.071068e-011 7.071068e-011 7.071068e-011 7.071068e-011
7550150150.1502 0.0128422 0.020565029 -0.015188806 0.013262709 7.071068e-011 7.071068e-011 7.071068e-011 7.071068e-011
7558558558.5586 -0.015267641 0.068624094 -0.0069027464 -0.0190286 7.071068e-011 7.071068e-011 7.071068e-011 7.071068e-011
7566966966.967 0.055740874 0.077974953 0.020009153 0.00043837613 7.071068e-011 7.071068e-011 7.071068e-011 7.071068e-011
7575375375.3754 0.05340698 0.00090011617 -0.0078737885 0.01848528 7.071068e-011 7.071068e-011 7.071068e-011 7.071068e-011
7583783783.7838 -0.011874178 0.02419256 -0.014438459 -0.014049349 7.071068e-011 7.071068e-011 7.071068e-011 7.071068e-011
7592192192.1922 0.045651451 0.06057081 0.017993959 -0.008357875 7.071068e-011 7.071068e-011 7.071068e-011 7.071068e-011
7600600600.6006 0.051658697 -0.024472702 0.00091422611 0.019487718 7.071068e-011 7.071068e-011 7.071068e-011 7.071068e-011
7609009009.009 -0.038060263 -0.010611661 -0.018900912 -0.0064986111 7.071068e-011 7.071068e-011 7.071068e-011 7.071068e-011
7617417417.4174 -0.0049499744 0.058139883 0.012593845 -0.015350785 7.071068e-011 7.071068e-011 7.071068e-011 7.071068e-011
7625825825.8258 0.026313066 -0.0042949873 0.0094644036 0.017385041 7.071068e-011 7.071068e-011 7.071068e-011 7.071068e-011
7634234234.2342 -0.060764015 0.0041567679 -0.019550502 0.0024880571 7.071068e-011 7.071068e-011 7.071068e-011 7.071068e-011
7642642642.6426 -0.026397116 0.091688842 0.0049488228 -0.018919449 7.071068e-011 7.071068e-011 7.071068e-011 7.071068e-011
7651051051.0511 0.037508253 0.04230471 0.015782218 0.01167604 7.071068e-011 7.071068e-011 7.071068e-011 7.071068e-011
7659459459.4595 -0.029967457 0.018215297 -0.016759375 0.010704099 7.071068e-011 7.071068e-011 7.071068e-011 7.071068e-011
7667867867.8679 -0.011427884 0.10256069 -0.0039370083 -0.019118415 7.071068e-011 7.071068e-011 7.071068e-011 7.071068e-011
7676276276.2763 0.073906086 0.058838297 0.019108577 0.0039220457 7.071068e-011 7.071068e-011 7.071068e-011 7.071068e-011
7684684684.6847 0.021221602 -0.0039007613 -0.01073949 0.016644467 7.071068e-011 7.071068e-011 7.071068e-011 7.071068e-011
7693093093.0931 0.00076683791 0.054553404 -0.011516107 -0.015948121 7.071068e-011 7.071068e-011 7.071068e-011 7.071068e-011
7701501501.5015 0.071168475 0.032427557 0.019021899 -0.0048774895 7.071068e-011 7.071068e-011 7.071068e-011 7.071068e-011
7709909909.9099 0.023174567 -0.042512398 -0.002567996 0.019528631 7.071068e-011 7.071068e-011 7.071068e-011 7.071068e-011
7718318318.3183 -0.033130478 0.011010801 -0.017246541 -0.0095599415 7.071068e-011 7.071068e-011 7.071068e-011 7.071068e-011
7726726726.7267 0.024537897 0.027729619 0.015428149 -0.012282983 7.071068e-011 7.071068e-011 7.071068e-011 7.071068e-011
7735135135.1351 0.0027536128 -0.041382588 0.0059854328 0.01895481 7.071068e-011 7.071068e-011 7.071068e-011 7.071068e-011
7743543543.5435 -0.075059526 -8.1428763e-005 -0.019549146 -0.0014110093 7.071068e-011 7.071068e-011 7.071068e-011 7.071068e-011
7751951951.952 -0.030232901 0.064312294 0.0086863609 -0.017721001 7.071068e-011 7.071068e-011 7.071068e-011 7.071068e-011
7760360360.3604 -0.0026905336 0.017309709 0.013297824 0.014634451 7.071068e-011 7.071068e-011 7.071068e-011 7.071068e-011
7768768768.7688 -0.05840832 0.028532539 -0.018581452 0.006919839 7.071068e-011 7.071068e-011 7.071068e-011 7.071068e-011
7777177177.1772 -0.0271389 0.095594034 0.00054107211 -0.019734524 7.071068e-011 7.071068e-011 7.071068e-011 7.071068e-011
7785585585.5856 0.033851277 0.05791264 0.018162532 0.0077769258 7.071068e-011 7.071068e-011 7.071068e-011 7.071068e-011
7793993993.994 -0.0056645842 0.027820732 -0.013884323 0.013739176 7.071068e-011 7.071068e-011 7.071068e-011 7.071068e-011
7802402402.4024 -0.00040246741 0.074994862 -0.0076321526 -0.018366139 7.071068e-011 7.071068e-011 7.071068e-011 7.071068e-011
7810810810.8108 0.058077112 0.048831068 0.01979004 -0.00050340709 7.071068e-011 7.071068e-011 7.071068e-011 7.071068e-011
7819219219.2192 0.025911434 -0.0064478703 -0.0070957253 0.018370399 7.071068e-011 7.071068e-011 7.071068e-011 7.071068e-011
7827627627.6276 -0.0036040724 0.02695059 -0.014454211 -0.013427572 7.071068e-011 7.071068e-011 7.071068e-011 7.071068e-011
7836036036.036 0.037585676 0.025700783 0.017835598 -0.0083950423 7.071068e-011 7.071068e-011 7.071068e-011 7.071068e-011
7844444444.4444 0.01645869 -0.023812108 0.0011730284 0.019728677 7.071068e-011 7.071068e-011 7.071068e-011 7.071068e-011
7852852852.8529 -0.02828561 0.0030861336 -0.018823031 -0.0063083991 7.071068e-011 7.071068e-011 7.071068e-011 7.071068e-011
7861261261.2613 0.0017817569 0.029506184 0.012740357 -0.015092476 7.071068e-011 7.071068e-011 7.071068e-011 7.071068e-011
7869669669.6697 0.005459046 -0.0093243839 0.009068979 0.017546725 7.071068e-011 7.071068e-011 7.071068e-011 7.071068e-011
7878078078.0781 -0.040468622 0.0034602922 -0.019817159 0.0020164687 7.071068e-011 7.071068e-011 7.071068e-011 7.071068e-011
7886486486.4865 -0.024325369 0.046974245 0.0053346418 -0.019046335 7.071068e-011 7.071068e-011 7.071068e-011 7.071068e-011
7894894894.8949 0.010919616 0.030191042 0.01545065 0.011954922 7.071068e-011 7.071068e-011 7.071068e-011 7.071068e-011
7903303303.3033 -0.013586426 0.011124112 -0.017075717 0.0097465459 7.071068e-011 7.071068e-011 7.071068e-011 7.071068e-011
7911711711.7117 -0.017806683 0.043998919 -0.0028218357 -0.019492013 7.071068e-011 7.071068e-011 7.071068e-011 7.071068e-011
7920120120.1201 0.023146302 0.044857953 0.018923398 0.0046802801 7.071068e-011 7.071068e-011 7.071068e-011 7.071068e-011
7928528528.5285 0.023561994 0.00190188 -0.011424807 0.01576885 7.071068e-011 7.071068e-011 7.071068e-011 7.071068e-011
7936936936.9369 -0.0099946987 0.011266364 -0.010207578 -0.016371069 7.071068e-011 7.071068e-011 7.071068e-011 7.071068e-011
7945345345.3453 0.017945301 0.032110624 0.019028194 -0.0031389692 7.071068e-011 7.071068e-011 7.071068e-011 7.071068e-011
