!Keysight Technologies,N5235B,MY61252044,A.15.00.15
!Date: Friday, January 20, 2023 23:58:20
!Correction: S11(Off) 
!S21(Off) 
!S12(Off) 
!S22(Off) 
!S2P File: Measurements: S11, S21, S12, S22:
# Hz S  RI   R 50
6600000000 0.019077651 -0.17542124 0.015449984 -0.0030338068 7.071068e-011 7.071068e-011 7.071068e-011 7.071068e-011
6608408408.4084 -0.12501808 0.1650371 0.0052912557 0.010839057 7.071068e-011 7.071068e-011 7.071068e-011 7.071068e-011
6616816816.8168 0.3056595 0.093393609 -0.0089139305 0.0036759849 7.071068e-011 7.071068e-011 7.071068e-011 7.071068e-011
6625225225.2252 0.025435219 -0.27297306 -0.0017650232 -0.0093065947 7.071068e-011 7.071068e-011 7.071068e-011 7.071068e-011
6633633633.6336 -0.16613476 0.16068746 0.0093384543 -0.00037217195 7.071068e-011 7.071068e-011 7.071068e-011 7.071068e-011
6642042042.042 0.28947493 0.11383501 -0.0018725431 0.0093181534 7.071068e-011 7.071068e-011 7.071068e-011 7.071068e-011
6650450450.4505 0.039902568 -0.25200057 -0.010718702 -0.004112761 7.071068e-011 7.071068e-011 7.071068e-011 7.071068e-011
6658858858.8589 -0.14870028 0.13373914 0.0059976345 -0.011488529 7.071068e-011 7.071068e-011 7.071068e-011 7.071068e-011
6667267267.2673 0.22812012 0.10173608 0.012189428 0.0091915922 7.071068e-011 7.071068e-011 7.071068e-011 7.071068e-011
6675675675.6757 0.043382969 -0.15099424 -0.011561336 0.013805229 7.071068e-011 7.071068e-011 7.071068e-011 7.071068e-011
6684084084.0841 -0.044479337 0.08379101 -0.014579169 -0.01337636 7.071068e-011 7.071068e-011 7.071068e-011 7.071068e-011
6692492492.4925 0.10558537 0.047606658 0.014843547 -0.014892733 7.071068e-011 7.071068e-011 7.071068e-011 7.071068e-011
6700900900.9009 0.086005613 0.018480979 0.014739086 0.015434766 7.071068e-011 7.071068e-011 7.071068e-011 7.071068e-011
6709309309.3093 0.077457532 -0.041883834 -0.015573096 0.013080673 7.071068e-011 7.071068e-011 7.071068e-011 7.071068e-011
6717717717.7177 -0.031280752 0.034034919 -0.010108763 -0.016494382 7.071068e-011 7.071068e-011 7.071068e-011 7.071068e-011
6726126126.1261 0.15472579 0.11657801 0.016808985 -0.0070549194 7.071068e-011 7.071068e-011 7.071068e-011 7.071068e-011
6734534534.5345 0.1291175 -0.14042503 0.0035285065 0.016235 7.071068e-011 7.071068e-011 7.071068e-011 7.071068e-011
6742942942.9429 -0.10792523 0.026021216 -0.015907528 -0.00030933158 7.071068e-011 7.071068e-011 7.071068e-011 7.071068e-011
6751351351.3514 0.17094192 0.15294747 0.0036455765 -0.015361365 7.071068e-011 7.071068e-011 7.071068e-011 7.071068e-011
6759759759.7598 0.15126592 -0.17118306 0.013167706 0.0070918035 7.071068e-011 7.071068e-011 7.071068e-011 7.071068e-011
6768168168.1682 -0.14683573 -0.006222947 -0.010875199 0.010386847 7.071068e-011 7.071068e-011 7.071068e-011 7.071068e-011
6776576576.5766 0.13335298 0.17920181 -0.0079767527 -0.013486098 7.071068e-011 7.071068e-011 7.071068e-011 7.071068e-011
6784984984.985 0.15175198 -0.14570723 0.014564826 -0.0039885854 7.071068e-011 7.071068e-011 7.071068e-011 7.071068e-011
6793393393.3934 -0.14724104 -0.007292639 -0.0003787771 0.0155195 7.071068e-011 7.071068e-011 7.071068e-011 7.071068e-011
6801801801.8018 0.10082381 0.20282678 -0.015707178 -0.0043265182 7.071068e-011 7.071068e-011 7.071068e-011 7.071068e-011
6810210210.2102 0.17287628 -0.094375223 0.0087018395 -0.014413043 7.071068e-011 7.071068e-011 7.071068e-011 7.071068e-011
6818618618.6186 -0.10506048 -0.010946174 0.012114582 0.013259267 7.071068e-011 7.071068e-011 7.071068e-011 7.071068e-011
6827027027.027 0.087225266 0.18548967 -0.015976302 0.0091754682 7.071068e-011 7.071068e-011 7.071068e-011 7.071068e-011
6835435435.4354 0.18171141 -0.048277132 -0.0044441144 -0.01790029 7.071068e-011 7.071068e-011 7.071068e-011 7.071068e-011
6843843843.8438 -0.045135066 -0.028447013 0.020167295 0.00028925546 7.071068e-011 7.071068e-011 7.071068e-011 7.071068e-011
6852252252.2523 0.074302398 0.1291948 -0.0046214792 0.02028605 7.071068e-011 7.071068e-011 7.071068e-011 7.071068e-011
6860660660.6607 0.14520498 -0.019921985 -0.01858121 -0.0096429884 7.071068e-011 7.071068e-011 7.071068e-011 7.071068e-011
6869069069.0691 0.0043872017 -0.027249549 0.01454649 -0.016056258 7.071068e-011 7.071068e-011 7.071068e-011 7.071068e-011
6877477477.4775 0.05380927 0.072460987 0.012641794 0.018112889 7.071068e-011 7.071068e-011 7.071068e-011 7.071068e-011
6885885885.8859 0.090355664 0.0070580044 -0.020458495 0.0076622292 7.071068e-011 7.071068e-011 7.071068e-011 7.071068e-011
6894294294.2943 0.047348361 -0.001018917 -0.0022644603 -0.022014895 7.071068e-011 7.071068e-011 7.071068e-011 7.071068e-011
6902702702.7027 0.038236842 0.019294936 0.021976853 0.0032859195 7.071068e-011 7.071068e-011 7.071068e-011 7.071068e-011
6911111111.1111 0.030908599 0.037618481 -0.0088156499 0.020187687 7.071068e-011 7.071068e-011 7.071068e-011 7.071068e-011
6919519519.5195 0.078241512 0.050062563 -0.016912028 -0.013649158 7.071068e-011 7.071068e-011 7.071068e-011 7.071068e-011
6927927927.9279 0.050929219 -0.012404207 0.017261397 -0.012738152 7.071068e-011 7.071068e-011 7.071068e-011 7.071068e-011
6936336336.3363 -0.0022674464 0.061996333 0.0072304402 0.019482214 7.071068e-011 7.071068e-011 7.071068e-011 7.071068e-011
6944744744.7447 0.11225174 0.089552723 -0.020831276 0.001108214 7.071068e-011 7.071068e-011 7.071068e-011 7.071068e-011
6953153153.1532 0.084592797 -0.045452595 0.0045225536 -0.019977763 7.071068e-011 7.071068e-011 7.071068e-011 7.071068e-011
6961561561.5616 -0.028400654 0.054107383 0.017308408 0.0099809226 7.071068e-011 7.071068e-011 7.071068e-011 7.071068e-011
6969969969.97 0.12437531 0.10610916 -0.014532764 0.013515606 7.071068e-011 7.071068e-011 7.071068e-011 7.071068e-011
6978378378.3784 0.10202172 -0.070627712 -0.0083466833 -0.017379018 7.071068e-011 7.071068e-011 7.071068e-011 7.071068e-011
6986786786.7868 -0.064075157 0.032348603 0.018726397 -0.0022439135 7.071068e-011 7.071068e-011 7.071068e-011 7.071068e-011
6995195195.1952 0.10263573 0.13406946 -0.003587486 0.018902471 7.071068e-011 7.071068e-011 7.071068e-011 7.071068e-011
7003603603.6036 0.10920611 -0.057657175 -0.016578855 -0.0089352475 7.071068e-011 7.071068e-011 7.071068e-011 7.071068e-011
7012012012.012 -0.072608955 0.032088254 0.014138629 -0.012441541 7.071068e-011 7.071068e-011 7.071068e-011 7.071068e-011
7020420420.4204 0.087654926 0.16152062 0.0077582421 0.017333601 7.071068e-011 7.071068e-011 7.071068e-011 7.071068e-011
7028828828.8288 0.13286731 -0.028720886 -0.018521789 0.001793274 7.071068e-011 7.071068e-011 7.071068e-011 7.071068e-011
7037237237.2372 -0.053839505 0.030314038 0.0044520074 -0.018628841 7.071068e-011 7.071068e-011 7.071068e-011 7.071068e-011
7045645645.6456 0.089673735 0.17091842 0.016423682 0.0098280692 7.071068e-011 7.071068e-011 7.071068e-011 7.071068e-011
7054054054.0541 0.16773133 -0.0027752754 -0.014693084 0.012012665 7.071068e-011 7.071068e-011 7.071068e-011 7.071068e-011
7062462462.4625 -0.0079137525 -0.0042747534 -0.0067972997 -0.018479286 7.071068e-011 7.071068e-011 7.071068e-011 7.071068e-011
7070870870.8709 0.077957101 0.14032647 0.019767854 -0.0011596136 7.071068e-011 7.071068e-011 7.071068e-011 7.071068e-011
7079279279.2793 0.16838491 0.0076325391 -0.005579852 0.018779058 7.071068e-011 7.071068e-011 7.071068e-011 7.071068e-011
7087687687.6877 0.03274614 -0.027127735 -0.01661665 -0.011512537 7.071068e-011 7.071068e-011 7.071068e-011 7.071068e-011
7096096096.0961 0.059286673 0.08913286 0.015959544 -0.012449318 7.071068e-011 7.071068e-011 7.071068e-011 7.071068e-011
7104504504.5045 0.14774208 0.010609557 0.0064956192 0.019144123 7.071068e-011 7.071068e-011 7.071068e-011 7.071068e-011
7112912912.9129 0.05103923 -0.044709932 -0.020633141 -0.00016402171 7.071068e-011 7.071068e-011 7.071068e-011 7.071068e-011
7121321321.3213 0.034274608 0.031759091 0.006335407 -0.019826723 7.071068e-011 7.071068e-011 7.071068e-011 7.071068e-011
7129729729.7297 0.089201003 0.014603552 0.016414084 0.012114634 7.071068e-011 7.071068e-011 7.071068e-011 7.071068e-011
7138138138.1381 0.043544192 -0.037752543 -0.017196663 0.011671203 7.071068e-011 7.071068e-011 7.071068e-011 7.071068e-011
7146546546.5465 -0.00053023518 0.013490899 -0.005814238 -0.020123309 7.071068e-011 7.071068e-011 7.071068e-011 7.071068e-011
7154954954.955 0.03054256 0.041348089 0.020794617 0.00090937479 7.071068e-011 7.071068e-011 7.071068e-011 7.071068e-011
7163363363.3634 0.045005359 0.015849259 -0.0076772724 0.019085266 7.071068e-011 7.071068e-011 7.071068e-011 7.071068e-011
7171771771.7718 0.0012710238 0.020160524 -0.015714902 -0.013508333 7.071068e-011 7.071068e-011 7.071068e-011 7.071068e-011
7180180180.1802 0.018342039 0.072488993 0.017638249 -0.010353144 7.071068e-011 7.071068e-011 7.071068e-011 7.071068e-011
7188588588.5886 0.067743048 0.056273248 0.0038554852 0.020447858 7.071068e-011 7.071068e-011 7.071068e-011 7.071068e-011
7196996996.997 0.040020149 0.010109412 -0.02059735 -0.0027880655 7.071068e-011 7.071068e-011 7.071068e-011 7.071068e-011
7205405405.4054 0.012216956 0.066971295 0.0095743369 -0.017975654 7.071068e-011 7.071068e-011 7.071068e-011 7.071068e-011
7213813813.8138 0.083088093 0.067358375 0.01381638 0.015210653 7.071068e-011 7.071068e-011 7.071068e-011 7.071068e-011
7222222222.2222 0.066376321 -0.0054285373 -0.019000459 0.0081814593 7.071068e-011 7.071068e-011 7.071068e-011 7.071068e-011
7230630630.6306 -0.0013164066 0.034927852 -0.0014019557 -0.020491663 7.071068e-011 7.071068e-011 7.071068e-011 7.071068e-011
7239039039.039 0.071328297 0.075671114 0.019936183 0.00588329 7.071068e-011 7.071068e-011 7.071068e-011 7.071068e-011
7247447447.4474 0.075404443 -0.014669711 -0.012043603 0.016950525 7.071068e-011 7.071068e-011 7.071068e-011 7.071068e-011
7255855855.8559 -0.016531192 0.0071293293 -0.011562044 -0.017034231 7.071068e-011 7.071068e-011 7.071068e-011 7.071068e-011
7264264264.2643 0.034627233 0.084062137 0.020124907 -0.0053110751 7.071068e-011 7.071068e-011 7.071068e-011 7.071068e-011
7272672672.6727 0.074484907 0.00087545096 -0.0015562031 0.020530742 7.071068e-011 7.071068e-011 7.071068e-011 7.071068e-011
7281081081.0811 -0.029687323 0.00060608005 -0.018705953 -0.008484005 7.071068e-011 7.071068e-011 7.071068e-011 7.071068e-011
7289489489.4895 -0.00027614296 0.10750866 0.014721942 -0.014587218 7.071068e-011 7.071068e-011 7.071068e-011 7.071068e-011
7297897897.8979 0.084986202 0.050925542 0.0087644774 0.018839028 7.071068e-011 7.071068e-011 7.071068e-011 7.071068e-011
7306306306.3063 0.0013056929 0.0087446412 -0.020576697 0.0015398181 7.071068e-011 7.071068e-011 7.071068e-011 7.071068e-011
7314714714.7147 0.0039002281 0.11261582 0.005433131 -0.020278918 7.071068e-011 7.071068e-011 7.071068e-011 7.071068e-011
7323123123.1231 0.11258497 0.075607322 0.016981378 0.011764152 7.071068e-011 7.071068e-011 7.071068e-011 7.071068e-011
7331531531.5315 0.051484592 -0.011852726 -0.017346028 0.011677191 7.071068e-011 7.071068e-011 7.071068e-011 7.071068e-011
7339939939.9399 0.0078001553 0.068408318 -0.005280734 -0.02055967 7.071068e-011 7.071068e-011 7.071068e-011 7.071068e-011
7348348348.3483 0.10530972 0.063862227 0.020913718 0.0019646257 7.071068e-011 7.071068e-011 7.071068e-011 7.071068e-011
7356756756.7568 0.066396177 -0.036921222 -0.0092334282 0.01876785 7.071068e-011 7.071068e-011 7.071068e-011 7.071068e-011
7365165165.1652 -0.010271578 0.020617105 -0.014712554 -0.015218935 7.071068e-011 7.071068e-011 7.071068e-011 7.071068e-011
7373573573.5736 0.061328959 0.049957689 0.019025328 -0.0085308263 7.071068e-011 7.071068e-011 7.071068e-011 7.071068e-011
7381981981.982 0.044133883 -0.035245139 0.0010290403 0.021117248 7.071068e-011 7.071068e-011 7.071068e-011 7.071068e-011
7390390390.3904 -0.043038599 0.0094550718 -0.020318303 -0.0061932784 7.071068e-011 7.071068e-011 7.071068e-011 7.071068e-011
7398798798.7988 0.012759526 0.071261413 0.012921249 -0.016673194 7.071068e-011 7.071068e-011 7.071068e-011 7.071068e-011
7407207207.2072 0.028047526 0.010003788 0.011154438 0.018000105 7.071068e-011 7.071068e-011 7.071068e-011 7.071068e-011
7415615615.6156 -0.040837947 0.035177238 -0.020877995 0.004355358 7.071068e-011 7.071068e-011 7.071068e-011 7.071068e-011
7424024024.024 0.0065670088 0.10498424 0.0030943619 -0.021027582 7.071068e-011 7.071068e-011 7.071068e-011 7.071068e-011
7432432432.4324 0.054761726 0.054301243 0.018652827 0.010447985 7.071068e-011 7.071068e-011 7.071068e-011 7.071068e-011
7440840840.8408 0.0099249324 0.042228658 -0.016155019 0.014024768 7.071068e-011 7.071068e-011 7.071068e-011 7.071068e-011
7449249249.2492 0.030124262 0.087027349 -0.0072907503 -0.01987844 7.071068e-011 7.071068e-011 7.071068e-011 7.071068e-011
7457657657.6577 0.077921227 0.049113166 0.021251567 0.0002057307 7.071068e-011 7.071068e-011 7.071068e-011 7.071068e-011
7466066066.0661 0.041885391 0.014033421 -0.0075500072 0.019920006 7.071068e-011 7.071068e-011 7.071068e-011 7.071068e-011
7474474474.4745 0.03042727 0.039196536 -0.015911302 -0.013857104 7.071068e-011 7.071068e-011 7.071068e-011 7.071068e-011
7482882882.8829 0.059774131 0.029197894 0.018642465 -0.0097634085 7.071068e-011 7.071068e-011 7.071068e-011 7.071068e-011
7491291291.2913 0.039021548 -0.013327399 0.0026058254 0.020928781 7.071068e-011 7.071068e-011 7.071068e-011 7.071068e-011
7499699699.6997 -0.0033191615 0.0022849063 -0.02034699 -0.0049568005 7.071068e-011 7.071068e-011 7.071068e-011 7.071068e-011
7508108108.1081 0.0031671659 0.031936269 0.01178017 -0.017290628 7.071068e-011 7.071068e-011 7.071068e-011 7.071068e-011
7516516516.5165 0.019418444 0.012070976 0.011958102 0.017008632 7.071068e-011 7.071068e-011 7.071068e-011 7.071068e-011
7524924924.9249 -0.026272072 0.0065119863 -0.020033015 0.0050356798 7.071068e-011 7.071068e-011 7.071068e-011 7.071068e-011
7533333333.3333 -0.029937344 0.065870382 0.0025821757 -0.020487139 7.071068e-011 7.071068e-011 7.071068e-011 7.071068e-011
7541741741.7417 0.02777035 0.069034867 0.018227505 0.0095194252 7.071068e-011 7.071068e-011 7.071068e-011 7.071068e-011
7550150150.1502 0.013206264 0.020580577 -0.015238638 0.013183789 7.071068e-011 7.071068e-011 7.071068e-011 7.071068e-011
7558558558.5586 -0.015406518 0.068258248 -0.0068060863 -0.01904623 7.071068e-011 7.071068e-011 7.071068e-011 7.071068e-011
7566966966.967 0.055459797 0.078233555 0.019990472 0.00052790227 7.071068e-011 7.071068e-011 7.071068e-011 7.071068e-011
7575375375.3754 0.053763583 0.0010522838 -0.0079527097 0.018431244 7.071068e-011 7.071068e-011 7.071068e-011 7.071068e-011
7583783783.7838 -0.011858173 0.023771966 -0.014356535 -0.014108858 7.071068e-011 7.071068e-011 7.071068e-011 7.071068e-011
7592192192.1922 0.045249183 0.060709789 0.018021427 -0.0082658026 7.071068e-011 7.071068e-011 7.071068e-011 7.071068e-011
7600600600.6006 0.051947106 -0.024161898 0.00082426722 0.019477198 7.071068e-011 7.071068e-011 7.071068e-011 7.071068e-011
7609009009.009 -0.037878685 -0.0110422 -0.018853197 -0.0065843067 7.071068e-011 7.071068e-011 7.071068e-011 7.071068e-011
7617417417.4174 -0.0054463889 0.058139611 0.012656335 -0.01527953 7.071068e-011 7.071068e-011 7.071068e-011 7.071068e-011
7625825825.8258 0.026534932 -0.0038513707 0.0093763676 0.017412255 7.071068e-011 7.071068e-011 7.071068e-011 7.071068e-011
7634234234.2342 -0.060466129 0.0037440942 -0.019543154 0.0023910443 7.071068e-011 7.071068e-011 7.071068e-011 7.071068e-011
7642642642.6426 -0.026876483 0.091572665 0.0050333263 -0.018879004 7.071068e-011 7.071068e-011 7.071068e-011 7.071068e-011
7651051051.0511 0.037581068 0.042763889 0.015711762 0.011739353 7.071068e-011 7.071068e-011 7.071068e-011 7.071068e-011
7659459459.4595 -0.029564321 0.017959697 -0.016797863 0.01061035 7.071068e-011 7.071068e-011 7.071068e-011 7.071068e-011
7667867867.8679 -0.011813795 0.10227305 -0.0038413673 -0.019120114 7.071068e-011 7.071068e-011 7.071068e-011 7.071068e-011
7676276276.2763 0.073784813 0.059299916 0.019072657 0.0040108017 7.071068e-011 7.071068e-011 7.071068e-011 7.071068e-011
7684684684.6847 0.021698207 -0.003990164 -0.010811016 0.016576901 7.071068e-011 7.071068e-011 7.071068e-011 7.071068e-011
7693093093.0931 0.0004922587 0.054146968 -0.011429667 -0.015989631 7.071068e-011 7.071068e-011 7.071068e-011 7.071068e-011
7701501501.5015 0.070925139 0.032819416 0.019027559 -0.0047833114 7.071068e-011 7.071068e-011 7.071068e-011 7.071068e-011
7709909909.9099 0.023615524 -0.042471342 -0.0026595478 0.019496826 7.071068e-011 7.071068e-011 7.071068e-011 7.071068e-011
7718318318.3183 -0.033252656 0.010576745 -0.017180266 -0.00963654 7.071068e-011 7.071068e-011 7.071068e-011 7.071068e-011
7726726726.7267 0.024186281 0.02797066 0.015469642 -0.012195577 7.071068e-011 7.071068e-011 7.071068e-011 7.071068e-011
7735135135.1351 0.003094011 -0.041133944 0.0058859233 0.018964238 7.071068e-011 7.071068e-011 7.071068e-011 7.071068e-011
7743543543.5435 -0.07493338 -0.00051754474 -0.019521013 -0.0015091361 7.071068e-011 7.071068e-011 7.071068e-011 7.071068e-011
7751951951.952 -0.030685635 0.064350255 0.0087651368 -0.017660011 7.071068e-011 7.071068e-011 7.071068e-011 7.071068e-011
7760360360.3604 -0.0024798545 0.01768598 0.013211598 0.014689915 7.071068e-011 7.071068e-011 7.071068e-011 7.071068e-011
7768768768.7688 -0.058155484 0.028209576 -0.018598577 0.0068211318 7.071068e-011 7.071068e-011 7.071068e-011 7.071068e-011
7777177177.1772 -0.027505053 0.095471658 0.00063511409 -0.019712241 7.071068e-011 7.071068e-011 7.071068e-011 7.071068e-011
7785585585.5856 0.033882335 0.05827003 0.018104566 0.0078609763 7.071068e-011 7.071068e-011 7.071068e-011 7.071068e-011
7793993993.994 -0.0053556105 0.027665425 -0.013938813 0.013654312 7.071068e-011 7.071068e-011 7.071068e-011 7.071068e-011
7802402402.4024 -0.00063998264 0.074733533 -0.0075338217 -0.018386008 7.071068e-011 7.071068e-011 7.071068e-011 7.071068e-011
7810810810.8108 0.057917938 0.049141511 0.019771852 -0.00040019667 7.071068e-011 7.071068e-011 7.071068e-011 7.071068e-011
7819219219.2192 0.026273947 -0.0064490661 -0.0071821585 0.018314015 7.071068e-011 7.071068e-011 7.071068e-011 7.071068e-011
7827627627.6276 -0.0037389738 0.026613908 -0.014372242 -0.013488128 7.071068e-011 7.071068e-011 7.071068e-011 7.071068e-011
7836036036.036 0.03735888 0.025922611 0.017863462 -0.0082937852 7.071068e-011 7.071068e-011 7.071068e-011 7.071068e-011
7844444444.4444 0.016725242 -0.02370972 0.0010741785 0.019715291 7.071068e-011 7.071068e-011 7.071068e-011 7.071068e-011
7852852852.8529 -0.028281657 0.0027958886 -0.01877244 -0.0063992161 7.071068e-011 7.071068e-011 7.071068e-011 7.071068e-011
7861261261.2613 0.0015114307 0.029571485 0.012804802 -0.015011501 7.071068e-011 7.071068e-011 7.071068e-011 7.071068e-011
7869669669.6697 0.0056048646 -0.0090859504 0.0089692594 0.017574973 7.071068e-011 7.071068e-011 7.071068e-011 7.071068e-011
7878078078.0781 -0.040284425 0.0032215999 -0.019808669 0.0019118049 7.071068e-011 7.071068e-011 7.071068e-011 7.071068e-011
7886486486.4865 -0.02460205 0.046864398 0.0054262476 -0.019001478 7.071068e-011 7.071068e-011 7.071068e-011 7.071068e-011
7894894894.8949 0.010915408 0.030471403 0.015372668 0.012024401 7.071068e-011 7.071068e-011 7.071068e-011 7.071068e-011
7903303303.3033 -0.013339785 0.011031688 -0.017108753 0.009648269 7.071068e-011 7.071068e-011 7.071068e-011 7.071068e-011
7911711711.7117 -0.017929209 0.043789912 -0.0027182067 -0.019487685 7.071068e-011 7.071068e-011 7.071068e-011 7.071068e-011
7920120120.1201 0.022977015 0.045011263 0.0188797 0.0047702854 7.071068e-011 7.071068e-011 7.071068e-011 7.071068e-011
7928528528.5285 0.023782661 0.002026431 -0.011493265 0.015691515 7.071068e-011 7.071068e-011 7.071068e-011 7.071068e-011
7936936936.9369 -0.009931203 0.010971844 -0.010111217 -0.016407039 7.071068e-011 7.071068e-011 7.071068e-011 7.071068e-011
7945345345.3453 0.017629568 0.032147408 0.019024692 -0.0030375572 7.071068e-011 7.071068e-011 7.071068e-011 7.071068e-011
