!Keysight Technologies,N5235B,MY61252044,A.15.00.15
!Date: Friday, January 20, 2023 23:03:29
!Correction: S11(Off) 
!S21(Off) 
!S12(Off) 
!S22(Off) 
!S2P File: Measurements: S11, S21, S12, S22:
# Hz S  RI   R 50
6600000000 0.018538175 -0.17497054 0.015347484 -0.0035869917 7.071068e-011 7.071068e-011 7.071068e-011 7.071068e-011
6608408408.4084 -0.12448634 0.16560791 0.0056869662 0.010645896 7.071068e-011 7.071068e-011 7.071068e-011 7.071068e-011
6616816816.8168 0.3061727 0.092568643 -0.0087772114 0.004006654 7.071068e-011 7.071068e-011 7.071068e-011 7.071068e-011
6625225225.2252 0.024246199 -0.2730501 -0.0021125993 -0.0092386138 7.071068e-011 7.071068e-011 7.071068e-011 7.071068e-011
6633633633.6336 -0.16550034 0.16174637 0.0093173636 -0.00072200102 7.071068e-011 7.071068e-011 7.071068e-011 7.071068e-011
6642042042.042 0.29003277 0.11282364 -0.0015238745 0.0093782879 7.071068e-011 7.071068e-011 7.071068e-011 7.071068e-011
6650450450.4505 0.038773883 -0.25194445 -0.010866196 -0.0037106837 7.071068e-011 7.071068e-011 7.071068e-011 7.071068e-011
6658858858.8589 -0.14811887 0.13439263 0.0055600074 -0.011705247 7.071068e-011 7.071068e-011 7.071068e-011 7.071068e-011
6667267267.2673 0.22839522 0.10139381 0.012518154 0.0087130917 7.071068e-011 7.071068e-011 7.071068e-011 7.071068e-011
6675675675.6757 0.042868607 -0.15150493 -0.011033851 0.014213467 7.071068e-011 7.071068e-011 7.071068e-011 7.071068e-011
6684084084.0841 -0.044389494 0.084626265 -0.015063271 -0.012826362 7.071068e-011 7.071068e-011 7.071068e-011 7.071068e-011
6692492492.4925 0.10588636 0.047293592 0.01426747 -0.015431833 7.071068e-011 7.071068e-011 7.071068e-011 7.071068e-011
6700900900.9009 0.085759528 0.018285492 0.015292554 0.014884549 7.071068e-011 7.071068e-011 7.071068e-011 7.071068e-011
6709309309.3093 0.077498525 -0.041822698 -0.015095559 0.013662965 7.071068e-011 7.071068e-011 7.071068e-011 7.071068e-011
6717717717.7177 -0.031549767 0.034481633 -0.010757214 -0.016102701 7.071068e-011 7.071068e-011 7.071068e-011 7.071068e-011
6726126126.1261 0.15550993 0.11609932 0.01651882 -0.0077011697 7.071068e-011 7.071068e-011 7.071068e-011 7.071068e-011
6734534534.5345 0.12816146 -0.14056748 0.0041441997 0.016078386 7.071068e-011 7.071068e-011 7.071068e-011 7.071068e-011
6742942942.9429 -0.10754971 0.026716193 -0.015901396 0.00030091227 7.071068e-011 7.071068e-011 7.071068e-011 7.071068e-011
6751351351.3514 0.17132866 0.15249237 0.0030554351 -0.015485608 7.071068e-011 7.071068e-011 7.071068e-011 7.071068e-011
6759759759.7598 0.1507701 -0.17149636 0.013425271 0.0065807863 7.071068e-011 7.071068e-011 7.071068e-011 7.071068e-011
6768168168.1682 -0.14705129 -0.0055484609 -0.010468257 0.010799181 7.071068e-011 7.071068e-011 7.071068e-011 7.071068e-011
6776576576.5766 0.13419527 0.17905517 -0.0084913876 -0.013168383 7.071068e-011 7.071068e-011 7.071068e-011 7.071068e-011
6784984984.985 0.15111417 -0.14643177 0.014396727 -0.0045538517 7.071068e-011 7.071068e-011 7.071068e-011 7.071068e-011
6793393393.3934 -0.14750037 -0.0063504488 0.00023035059 0.015516179 7.071068e-011 7.071068e-011 7.071068e-011 7.071068e-011
6801801801.8018 0.10176513 0.20249541 -0.015855955 -0.0037080338 7.071068e-011 7.071068e-011 7.071068e-011 7.071068e-011
6810210210.2102 0.17212263 -0.094830617 0.0081252912 -0.014733547 7.071068e-011 7.071068e-011 7.071068e-011 7.071068e-011
6818618618.6186 -0.10499292 -0.010429297 0.012612843 0.012764779 7.071068e-011 7.071068e-011 7.071068e-011 7.071068e-011
6827027027.027 0.087514661 0.18554328 -0.015595905 0.0097788367 7.071068e-011 7.071068e-011 7.071068e-011 7.071068e-011
6835435435.4354 0.18179366 -0.048863407 -0.0051304367 -0.017707963 7.071068e-011 7.071068e-011 7.071068e-011 7.071068e-011
6843843843.8438 -0.045720622 -0.027992206 0.020155912 -0.00049690041 7.071068e-011 7.071068e-011 7.071068e-011 7.071068e-011
6852252252.2523 0.074945286 0.12933207 -0.0038212491 0.020442005 7.071068e-011 7.071068e-011 7.071068e-011 7.071068e-011
6860660660.6607 0.1450386 -0.020484753 -0.018931024 -0.008901177 7.071068e-011 7.071068e-011 7.071068e-011 7.071068e-011
6869069069.0691 0.0041332105 -0.026695149 0.013896618 -0.016611604 7.071068e-011 7.071068e-011 7.071068e-011 7.071068e-011
6877477477.4775 0.054128747 0.072164156 0.013341249 0.017579248 7.071068e-011 7.071068e-011 7.071068e-011 7.071068e-011
6885885885.8859 0.090269737 0.0073517924 -0.020114837 0.0084555168 7.071068e-011 7.071068e-011 7.071068e-011 7.071068e-011
6894294294.2943 0.047331207 -0.0014273409 -0.0031192477 -0.02188128 7.071068e-011 7.071068e-011 7.071068e-011 7.071068e-011
6902702702.7027 0.038100291 0.0197035 0.022068324 0.0024217323 7.071068e-011 7.071068e-011 7.071068e-011 7.071068e-011
6911111111.1111 0.031178448 0.03749809 -0.0080089802 0.020498941 7.071068e-011 7.071068e-011 7.071068e-011 7.071068e-011
6919519519.5195 0.078027815 0.049931414 -0.017419923 -0.012967381 7.071068e-011 7.071068e-011 7.071068e-011 7.071068e-011
6927927927.9279 0.051010821 -0.012273611 0.016739246 -0.013400027 7.071068e-011 7.071068e-011 7.071068e-011 7.071068e-011
6936336336.3363 -0.0025147989 0.062018313 0.0080016199 0.019172352 7.071068e-011 7.071068e-011 7.071068e-011 7.071068e-011
6944744744.7447 0.11280733 0.089546017 -0.02074776 0.001949616 7.071068e-011 7.071068e-011 7.071068e-011 7.071068e-011
6953153153.1532 0.083944619 -0.045794066 0.0037096099 -0.020114861 7.071068e-011 7.071068e-011 7.071068e-011 7.071068e-011
6961561561.5616 -0.028122246 0.054717626 0.017665252 0.0092651444 7.071068e-011 7.071068e-011 7.071068e-011 7.071068e-011
6969969969.97 0.12466396 0.10562363 -0.013962 0.014059354 7.071068e-011 7.071068e-011 7.071068e-011 7.071068e-011
6978378378.3784 0.10153551 -0.070654668 -0.0090165939 -0.017007072 7.071068e-011 7.071068e-011 7.071068e-011 7.071068e-011
6986786786.7868 -0.063878521 0.032683425 0.018598152 -0.0029763228 7.071068e-011 7.071068e-011 7.071068e-011 7.071068e-011
6995195195.1952 0.10283268 0.13393001 -0.0028341785 0.019012064 7.071068e-011 7.071068e-011 7.071068e-011 7.071068e-011
7003603603.6036 0.1091213 -0.057972502 -0.016913714 -0.008258203 7.071068e-011 7.071068e-011 7.071068e-011 7.071068e-011
7012012012.012 -0.073007487 0.032569598 0.013608436 -0.01299494 7.071068e-011 7.071068e-011 7.071068e-011 7.071068e-011
7020420420.4204 0.088423342 0.16149443 0.0084473751 0.016977333 7.071068e-011 7.071068e-011 7.071068e-011 7.071068e-011
7028828828.8288 0.13231635 -0.029309308 -0.018400026 0.0025399907 7.071068e-011 7.071068e-011 7.071068e-011 7.071068e-011
7037237237.2372 -0.053887978 0.031090384 0.0036901457 -0.018756872 7.071068e-011 7.071068e-011 7.071068e-011 7.071068e-011
7045645645.6456 0.090097517 0.1705856 0.016773667 0.0091427779 7.071068e-011 7.071068e-011 7.071068e-011 7.071068e-011
7054054054.0541 0.16748847 -0.0029282791 -0.014173918 0.012569484 7.071068e-011 7.071068e-011 7.071068e-011 7.071068e-011
7062462462.4625 -0.0081052566 -0.0041018855 -0.0075223255 -0.018165372 7.071068e-011 7.071068e-011 7.071068e-011 7.071068e-011
7070870870.8709 0.078237943 0.14048374 0.019675627 -0.0019518974 7.071068e-011 7.071068e-011 7.071068e-011 7.071068e-011
7079279279.2793 0.16849825 0.0072651845 -0.0048088175 0.018962393 7.071068e-011 7.071068e-011 7.071068e-011 7.071068e-011
7087687687.6877 0.032228697 -0.027057128 -0.017047558 -0.010813036 7.071068e-011 7.071068e-011 7.071068e-011 7.071068e-011
7096096096.0961 0.059844118 0.089551888 0.015414651 -0.013068742 7.071068e-011 7.071068e-011 7.071068e-011 7.071068e-011
7104504504.5045 0.14754786 0.0099504255 0.0072654728 0.018828673 7.071068e-011 7.071068e-011 7.071068e-011 7.071068e-011
7112912912.9129 0.050996602 -0.044220369 -0.020577697 0.00068504416 7.071068e-011 7.071068e-011 7.071068e-011 7.071068e-011
7121321321.3213 0.034306061 0.031573024 0.0055178409 -0.020013092 7.071068e-011 7.071068e-011 7.071068e-011 7.071068e-011
7129729729.7297 0.089368097 0.014753904 0.016855158 0.011407734 7.071068e-011 7.071068e-011 7.071068e-011 7.071068e-011
7138138138.1381 0.043403495 -0.038023762 -0.016684648 0.012326709 7.071068e-011 7.071068e-011 7.071068e-011 7.071068e-011
7146546546.5465 -0.00062971044 0.013773893 -0.0066092033 -0.019835606 7.071068e-011 7.071068e-011 7.071068e-011 7.071068e-011
7154954954.955 0.030845072 0.041360144 0.020771895 4.1172629e-005 7.071068e-011 7.071068e-011 7.071068e-011 7.071068e-011
7163363363.3634 0.04470177 0.015511941 -0.0069025643 0.01933953 7.071068e-011 7.071068e-011 7.071068e-011 7.071068e-011
7171771771.7718 0.0014052415 0.020602448 -0.016233405 -0.012830966 7.071068e-011 7.071068e-011 7.071068e-011 7.071068e-011
7180180180.1802 0.018257271 0.072138593 0.017157733 -0.011063905 7.071068e-011 7.071068e-011 7.071068e-011 7.071068e-011
7188588588.5886 0.067935951 0.056531034 0.0046763853 0.020218182 7.071068e-011 7.071068e-011 7.071068e-011 7.071068e-011
7196996996.997 0.039749134 0.0096932072 -0.020630749 -0.0019295202 7.071068e-011 7.071068e-011 7.071068e-011 7.071068e-011
7205405405.4054 0.012355871 0.067493185 0.0088169761 -0.018301107 7.071068e-011 7.071068e-011 7.071068e-011 7.071068e-011
7213813813.8138 0.08328782 0.066982292 0.014390269 0.014603772 7.071068e-011 7.071068e-011 7.071068e-011 7.071068e-011
7222222222.2222 0.066034667 -0.0054309494 -0.018603766 0.0089336019 7.071068e-011 7.071068e-011 7.071068e-011 7.071068e-011
7230630630.6306 -0.0010636823 0.035235733 -0.0022278808 -0.020370955 7.071068e-011 7.071068e-011 7.071068e-011 7.071068e-011
7239039039.039 0.071299694 0.07540372 0.020124467 0.0050519756 7.071068e-011 7.071068e-011 7.071068e-011 7.071068e-011
7247447447.4474 0.075462662 -0.014546297 -0.011303727 0.017402405 7.071068e-011 7.071068e-011 7.071068e-011 7.071068e-011
7255855855.8559 -0.016802482 0.0070505128 -0.012228849 -0.016495986 7.071068e-011 7.071068e-011 7.071068e-011 7.071068e-011
7264264264.2643 0.034993738 0.084408566 0.019832034 -0.0061202184 7.071068e-011 7.071068e-011 7.071068e-011 7.071068e-011
7272672672.6727 0.074368112 0.00027134205 -0.00070755137 0.020517273 7.071068e-011 7.071068e-011 7.071068e-011 7.071068e-011
7281081081.0811 -0.030003423 0.001111766 -0.018981354 -0.0076906946 7.071068e-011 7.071068e-011 7.071068e-011 7.071068e-011
7289489489.4895 0.00023520872 0.10740212 0.01407957 -0.015134759 7.071068e-011 7.071068e-011 7.071068e-011 7.071068e-011
7297897897.8979 0.084655076 0.050699495 0.0095054833 0.01842301 7.071068e-011 7.071068e-011 7.071068e-011 7.071068e-011
7306306306.3063 0.0013934504 0.0088776294 -0.020454723 0.002376985 7.071068e-011 7.071068e-011 7.071068e-011 7.071068e-011
7314714714.7147 0.0038401352 0.11270104 0.0045770193 -0.020444179 7.071068e-011 7.071068e-011 7.071068e-011 7.071068e-011
7323123123.1231 0.11289161 0.075532354 0.017418381 0.011014438 7.071068e-011 7.071068e-011 7.071068e-011 7.071068e-011
7331531531.5315 0.05112417 -0.012096588 -0.016795598 0.012360951 7.071068e-011 7.071068e-011 7.071068e-011 7.071068e-011
7339939939.9399 0.0078833634 0.069000356 -0.0061157807 -0.020254761 7.071068e-011 7.071068e-011 7.071068e-011 7.071068e-011
7348348348.3483 0.1056847 0.063333377 0.020909883 0.0010925649 7.071068e-011 7.071068e-011 7.071068e-011 7.071068e-011
7356756756.7568 0.065837339 -0.036704432 -0.0084340842 0.01907072 7.071068e-011 7.071068e-011 7.071068e-011 7.071068e-011
7365165165.1652 -0.0098977555 0.020714907 -0.015281976 -0.01456493 7.071068e-011 7.071068e-011 7.071068e-011 7.071068e-011
7373573573.5736 0.061204698 0.04988214 0.018617064 -0.0092848456 7.071068e-011 7.071068e-011 7.071068e-011 7.071068e-011
7381981981.982 0.04423929 -0.035341304 0.0019044334 0.021013785 7.071068e-011 7.071068e-011 7.071068e-011 7.071068e-011
7390390390.3904 -0.043316673 0.0095033562 -0.020514913 -0.0053227125 7.071068e-011 7.071068e-011 7.071068e-011 7.071068e-011
7398798798.7988 0.013105767 0.071487978 0.01217056 -0.017161028 7.071068e-011 7.071068e-011 7.071068e-011 7.071068e-011
7407207207.2072 0.027938003 0.0094623026 0.011871066 0.017463211 7.071068e-011 7.071068e-011 7.071068e-011 7.071068e-011
7415615615.6156 -0.041062646 0.035716429 -0.020613581 0.0052129687 7.071068e-011 7.071068e-011 7.071068e-011 7.071068e-011
7424024024.024 0.0070203901 0.10471659 0.0022037241 -0.021073855 7.071068e-011 7.071068e-011 7.071068e-011 7.071068e-011
7432432432.4324 0.054406993 0.054352272 0.019015044 0.0096323108 7.071068e-011 7.071068e-011 7.071068e-011 7.071068e-011
7440840840.8408 0.010136995 0.042246308 -0.015515789 0.014644439 7.071068e-011 7.071068e-011 7.071068e-011 7.071068e-011
7449249249.2492 0.029943315 0.087104432 -0.008094647 -0.019509237 7.071068e-011 7.071068e-011 7.071068e-011 7.071068e-011
7457657657.6577 0.078191809 0.049143795 0.021188917 -0.00068457762 7.071068e-011 7.071068e-011 7.071068e-011 7.071068e-011
7466066066.0661 0.041600365 0.013800509 -0.0066848057 0.020169988 7.071068e-011 7.071068e-011 7.071068e-011 7.071068e-011
7474474474.4745 0.030505333 0.039657116 -0.016440334 -0.013135031 7.071068e-011 7.071068e-011 7.071068e-011 7.071068e-011
7482882882.8829 0.059988871 0.028733658 0.018161511 -0.010517413 7.071068e-011 7.071068e-011 7.071068e-011 7.071068e-011
7491291291.2913 0.038663171 -0.013036462 0.0034901537 0.020734934 7.071068e-011 7.071068e-011 7.071068e-011 7.071068e-011
7499699699.6997 -0.0029965248 0.0020952341 -0.020467253 -0.0040767728 7.071068e-011 7.071068e-011 7.071068e-011 7.071068e-011
7508108108.1081 0.0029399493 0.032127235 0.011002345 -0.01770965 7.071068e-011 7.071068e-011 7.071068e-011 7.071068e-011
7516516516.5165 0.019732853 0.011891275 0.012616978 0.016438944 7.071068e-011 7.071068e-011 7.071068e-011 7.071068e-011
7524924924.9249 -0.026643539 0.0064999475 -0.019748084 0.0058533284 7.071068e-011 7.071068e-011 7.071068e-011 7.071068e-011
7533333333.3333 -0.029665602 0.066200174 0.0017113283 -0.020519808 7.071068e-011 7.071068e-011 7.071068e-011 7.071068e-011
7541741741.7417 0.027834505 0.068580538 0.018561276 0.0087109916 7.071068e-011 7.071068e-011 7.071068e-011 7.071068e-011
7550150150.1502 0.012874263 0.020952016 -0.014619953 0.013777408 7.071068e-011 7.071068e-011 7.071068e-011 7.071068e-011
7558558558.5586 -0.015084133 0.068093143 -0.007589322 -0.018687014 7.071068e-011 7.071068e-011 7.071068e-011 7.071068e-011
7566966966.967 0.055248905 0.078389041 0.019934334 -0.00033091821 7.071068e-011 7.071068e-011 7.071068e-011 7.071068e-011
7575375375.3754 0.05396802 0.00078868604 -0.0071276133 0.018694311 7.071068e-011 7.071068e-011 7.071068e-011 7.071068e-011
7583783783.7838 -0.012256615 0.024028122 -0.014891604 -0.013430642 7.071068e-011 7.071068e-011 7.071068e-011 7.071068e-011
7592192192.1922 0.045770697 0.060741503 0.017586665 -0.0089897159 7.071068e-011 7.071068e-011 7.071068e-011 7.071068e-011
7600600600.6006 0.051592741 -0.02458594 0.0016389526 0.019358927 7.071068e-011 7.071068e-011 7.071068e-011 7.071068e-011
7609009009.009 -0.03786616 -0.010484749 -0.019059246 -0.0057667224 7.071068e-011 7.071068e-011 7.071068e-011 7.071068e-011
7617417417.4174 -0.0051498315 0.057799153 0.011960438 -0.015761869 7.071068e-011 7.071068e-011 7.071068e-011 7.071068e-011
7625825825.8258 0.026272802 -0.0037843287 0.010088026 0.016951382 7.071068e-011 7.071068e-011 7.071068e-011 7.071068e-011
7634234234.2342 -0.060361296 0.0037834106 -0.019368498 0.0032268153 7.071068e-011 7.071068e-011 7.071068e-011 7.071068e-011
7642642642.6426 -0.026969595 0.091685288 0.0041952641 -0.019020133 7.071068e-011 7.071068e-011 7.071068e-011 7.071068e-011
7651051051.0511 0.037918691 0.042649664 0.016150715 0.011005901 7.071068e-011 7.071068e-011 7.071068e-011 7.071068e-011
7659459459.4595 -0.030156054 0.017843198 -0.016258016 0.011281487 7.071068e-011 7.071068e-011 7.071068e-011 7.071068e-011
7667867867.8679 -0.011329458 0.10277452 -0.0046293712 -0.018865736 7.071068e-011 7.071068e-011 7.071068e-011 7.071068e-011
7676276276.2763 0.073672593 0.058632713 0.019162165 0.0031940606 7.071068e-011 7.071068e-011 7.071068e-011 7.071068e-011
7684684684.6847 0.02149112 -0.0035336954 -0.010068528 0.016977739 7.071068e-011 7.071068e-011 7.071068e-011 7.071068e-011
7693093093.0931 0.00073009171 0.054008171 -0.012077869 -0.015442416 7.071068e-011 7.071068e-011 7.071068e-011 7.071068e-011
7701501501.5015 0.070852071 0.032833964 0.01875139 -0.0055923606 7.071068e-011 7.071068e-011 7.071068e-011 7.071068e-011
7709909909.9099 0.023679154 -0.042550866 -0.0017971707 0.019533476 7.071068e-011 7.071068e-011 7.071068e-011 7.071068e-011
7718318318.3183 -0.033482462 0.010693957 -0.017530212 -0.008840804 7.071068e-011 7.071068e-011 7.071068e-011 7.071068e-011
7726726726.7267 0.02463948 0.028160749 0.014861593 -0.012813578 7.071068e-011 7.071068e-011 7.071068e-011 7.071068e-011
7735135135.1351 0.0027131361 -0.041702524 0.0066800662 0.018611621 7.071068e-011 7.071068e-011 7.071068e-011 7.071068e-011
7743543543.5435 -0.07492476 0.00023474898 -0.019489637 -0.00066506246 7.071068e-011 7.071068e-011 7.071068e-011 7.071068e-011
7751951951.952 -0.030411921 0.06380941 0.0079775816 -0.0179583 7.071068e-011 7.071068e-011 7.071068e-011 7.071068e-011
7760360360.3604 -0.0027637572 0.017945321 0.013795643 0.014064686 7.071068e-011 7.071068e-011 7.071068e-011 7.071068e-011
7768768768.7688 -0.058053367 0.028038627 -0.018233331 0.0076094903 7.071068e-011 7.071068e-011 7.071068e-011 7.071068e-011
7777177177.1772 -0.02759699 0.095675774 -0.00023710076 -0.019661793 7.071068e-011 7.071068e-011 7.071068e-011 7.071068e-011
7785585585.5856 0.03415174 0.058124397 0.018374721 0.0070208223 7.071068e-011 7.071068e-011 7.071068e-011 7.071068e-011
7793993993.994 -0.0057321354 0.027516751 -0.013263589 0.014213796 7.071068e-011 7.071068e-011 7.071068e-011 7.071068e-011
7802402402.4024 -0.00039161002 0.075252108 -0.0083082262 -0.017953485 7.071068e-011 7.071068e-011 7.071068e-011 7.071068e-011
7810810810.8108 0.058014251 0.048513062 0.01964066 -0.0012725425 7.071068e-011 7.071068e-011 7.071068e-011 7.071068e-011
7819219219.2192 0.025955137 -0.005940319 -0.0063553751 0.018526278 7.071068e-011 7.071068e-011 7.071068e-011 7.071068e-011
7827627627.6276 -0.0034266312 0.026368778 -0.014887974 -0.012812845 7.071068e-011 7.071068e-011 7.071068e-011 7.071068e-011
7836036036.036 0.037128247 0.026122991 0.017424228 -0.0090481909 7.071068e-011 7.071068e-011 7.071068e-011 7.071068e-011
7844444444.4444 0.016963845 -0.023902686 0.0019373787 0.019588951 7.071068e-011 7.071068e-011 7.071068e-011 7.071068e-011
7852852852.8529 -0.028661767 0.0028901591 -0.018977584 -0.0055348631 7.071068e-011 7.071068e-011 7.071068e-011 7.071068e-011
7861261261.2613 0.0019540037 0.029765876 0.012068311 -0.015522487 7.071068e-011 7.071068e-011 7.071068e-011 7.071068e-011
7869669669.6697 0.0053415983 -0.009583774 0.009714704 0.01707763 7.071068e-011 7.071068e-011 7.071068e-011 7.071068e-011
7878078078.0781 -0.040340677 0.0037745978 -0.019608343 0.0027877702 7.071068e-011 7.071068e-011 7.071068e-011 7.071068e-011
7886486486.4865 -0.02432031 0.046484046 0.0045524254 -0.019125711 7.071068e-011 7.071068e-011 7.071068e-011 7.071068e-011
7894894894.8949 0.010659737 0.030699477 0.015811615 0.011283309 7.071068e-011 7.071068e-011 7.071068e-011 7.071068e-011
7903303303.3033 -0.013105108 0.010855416 -0.016600799 0.01034777 7.071068e-011 7.071068e-011 7.071068e-011 7.071068e-011
7911711711.7117 -0.018273251 0.043963943 -0.0035673322 -0.019275069 7.071068e-011 7.071068e-011 7.071068e-011 7.071068e-011
7920120120.1201 0.023454474 0.04507456 0.0189998 0.0039070849 7.071068e-011 7.071068e-011 7.071068e-011 7.071068e-011
7928528528.5285 0.023336627 0.0016788676 -0.010734821 0.016131513 7.071068e-011 7.071068e-011 7.071068e-011 7.071068e-011
7936936936.9369 -0.0097917756 0.011524742 -0.01080039 -0.015863122 7.071068e-011 7.071068e-011 7.071068e-011 7.071068e-011
7945345345.3453 0.017773548 0.031679105 0.018778417 -0.0038793613 7.071068e-011 7.071068e-011 7.071068e-011 7.071068e-011
