!Keysight Technologies,N5235B,MY61252044,A.15.00.15
!Date: Friday, January 20, 2023 21:44:32
!Correction: S11(Off) 
!S21(Off) 
!S12(Off) 
!S22(Off) 
!S2P File: Measurements: S11, S21, S12, S22:
# Hz S  RI   R 50
6600000000 0.017562417 -0.17484944 0.015483915 -0.0030407927 7.071068e-011 7.071068e-011 7.071068e-011 7.071068e-011
6608408408.4084 -0.12369727 0.16659586 0.0053199846 0.010852746 7.071068e-011 7.071068e-011 7.071068e-011 7.071068e-011
6616816816.8168 0.30669636 0.09145245 -0.0089180088 0.0037027649 7.071068e-011 7.071068e-011 7.071068e-011 7.071068e-011
6625225225.2252 0.023134919 -0.2729969 -0.0017919709 -0.0093092937 7.071068e-011 7.071068e-011 7.071068e-011 7.071068e-011
6633633633.6336 -0.16497366 0.16276065 0.0093434118 -0.00039927347 7.071068e-011 7.071068e-011 7.071068e-011 7.071068e-011
6642042042.042 0.29078302 0.11197425 -0.0018428816 0.0093229478 7.071068e-011 7.071068e-011 7.071068e-011 7.071068e-011
6650450450.4505 0.037748363 -0.2522594 -0.010744868 -0.0040809172 7.071068e-011 7.071068e-011 7.071068e-011 7.071068e-011
6658858858.8589 -0.14788392 0.13558359 0.0059570656 -0.011513646 7.071068e-011 7.071068e-011 7.071068e-011 7.071068e-011
6667267267.2673 0.22926764 0.10041397 0.012208918 0.0091571072 7.071068e-011 7.071068e-011 7.071068e-011 7.071068e-011
6675675675.6757 0.041976772 -0.15125388 -0.011518876 0.013841517 7.071068e-011 7.071068e-011 7.071068e-011 7.071068e-011
6684084084.0841 -0.044188786 0.084822334 -0.014606379 -0.013352882 7.071068e-011 7.071068e-011 7.071068e-011 7.071068e-011
6692492492.4925 0.10613699 0.047277663 0.014819019 -0.014937204 7.071068e-011 7.071068e-011 7.071068e-011 7.071068e-011
6700900900.9009 0.085853256 0.018051472 0.014800497 0.015416333 7.071068e-011 7.071068e-011 7.071068e-011 7.071068e-011
6709309309.3093 0.076838695 -0.041778658 -0.015551099 0.013140208 7.071068e-011 7.071068e-011 7.071068e-011 7.071068e-011
6717717717.7177 -0.030960869 0.034848705 -0.010164675 -0.016491963 7.071068e-011 7.071068e-011 7.071068e-011 7.071068e-011
6726126126.1261 0.15558043 0.11584545 0.016817497 -0.0071141701 7.071068e-011 7.071068e-011 7.071068e-011 7.071068e-011
6734534534.5345 0.12789851 -0.14095035 0.003588031 0.01624199 7.071068e-011 7.071068e-011 7.071068e-011 7.071068e-011
6742942942.9429 -0.10778641 0.027530925 -0.015924616 -0.00025680746 7.071068e-011 7.071068e-011 7.071068e-011 7.071068e-011
6751351351.3514 0.17233606 0.15214127 0.0035971161 -0.015386309 7.071068e-011 7.071068e-011 7.071068e-011 7.071068e-011
6759759759.7598 0.14991751 -0.17212941 0.013209173 0.0070548304 7.071068e-011 7.071068e-011 7.071068e-011 7.071068e-011
6768168168.1682 -0.14700051 -0.0044810455 -0.010845807 0.010437625 7.071068e-011 7.071068e-011 7.071068e-011 7.071068e-011
6776576576.5766 0.13500418 0.17858274 -0.0080349054 -0.013467391 7.071068e-011 7.071068e-011 7.071068e-011 7.071068e-011
6784984984.985 0.15047507 -0.14683397 0.014563996 -0.0040464485 7.071068e-011 7.071068e-011 7.071068e-011 7.071068e-011
6793393393.3934 -0.14763656 -0.0056685749 -0.00032181045 0.015526456 7.071068e-011 7.071068e-011 7.071068e-011 7.071068e-011
6801801801.8018 0.10243748 0.20256013 -0.015730241 -0.0042659556 7.071068e-011 7.071068e-011 7.071068e-011 7.071068e-011
6810210210.2102 0.17191869 -0.095637746 0.0086562624 -0.01446368 7.071068e-011 7.071068e-011 7.071068e-011 7.071068e-011
6818618618.6186 -0.10566539 -0.0095624896 0.012171083 0.013225716 7.071068e-011 7.071068e-011 7.071068e-011 7.071068e-011
6827027027.027 0.08863993 0.18548472 -0.015959797 0.0092414459 7.071068e-011 7.071068e-011 7.071068e-011 7.071068e-011
6835435435.4354 0.18115079 -0.049404252 -0.0045156316 -0.017908808 7.071068e-011 7.071068e-011 7.071068e-011 7.071068e-011
6843843843.8438 -0.045767542 -0.027488112 0.020183779 0.00020458376 7.071068e-011 7.071068e-011 7.071068e-011 7.071068e-011
6852252252.2523 0.075276993 0.12932241 -0.0045524198 0.020316051 7.071068e-011 7.071068e-011 7.071068e-011 7.071068e-011
6860660660.6607 0.14498477 -0.020672902 -0.018635711 -0.009589198 7.071068e-011 7.071068e-011 7.071068e-011 7.071068e-011
6869069069.0691 0.0038726423 -0.026785757 0.014504806 -0.01612925 7.071068e-011 7.071068e-011 7.071068e-011 7.071068e-011
6877477477.4775 0.054314882 0.072701171 0.012712422 0.018081034 7.071068e-011 7.071068e-011 7.071068e-011 7.071068e-011
6885885885.8859 0.0903669 0.0066917632 -0.020459821 0.0077425353 7.071068e-011 7.071068e-011 7.071068e-011 7.071068e-011
6894294294.2943 0.047109216 -0.00097425666 -0.0023503895 -0.022029625 7.071068e-011 7.071068e-011 7.071068e-011 7.071068e-011
6902702702.7027 0.038247935 0.019473758 0.022012061 0.0032114205 7.071068e-011 7.071068e-011 7.071068e-011 7.071068e-011
6911111111.1111 0.031086018 0.037739448 -0.0087470831 0.020241253 7.071068e-011 7.071068e-011 7.071068e-011 7.071068e-011
6919519519.5195 0.07835228 0.049759708 -0.016987491 -0.013600605 7.071068e-011 7.071068e-011 7.071068e-011 7.071068e-011
6927927927.9279 0.050476231 -0.012365703 0.017225591 -0.012813533 7.071068e-011 7.071068e-011 7.071068e-011 7.071068e-011
6936336336.3363 -0.002016891 0.062514462 0.0073102703 0.019473009 7.071068e-011 7.071068e-011 7.071068e-011 7.071068e-011
6944744744.7447 0.11265972 0.089083038 -0.020844102 0.0011871967 7.071068e-011 7.071068e-011 7.071068e-011 7.071068e-011
6953153153.1532 0.083879516 -0.045634955 0.0044536027 -0.02002302 7.071068e-011 7.071068e-011 7.071068e-011 7.071068e-011
6961561561.5616 -0.028235121 0.054937512 0.017367704 0.0099223983 7.071068e-011 7.071068e-011 7.071068e-011 7.071068e-011
6969969969.97 0.12509504 0.10561102 -0.014495991 0.013594721 7.071068e-011 7.071068e-011 7.071068e-011 7.071068e-011
6978378378.3784 0.10118015 -0.071080297 -0.0084322346 -0.017368022 7.071068e-011 7.071068e-011 7.071068e-011 7.071068e-011
6986786786.7868 -0.064075336 0.033410408 0.018736385 -0.0023302366 7.071068e-011 7.071068e-011 7.071068e-011 7.071068e-011
6995195195.1952 0.1035625 0.13361512 -0.003511016 0.018933173 7.071068e-011 7.071068e-011 7.071068e-011 7.071068e-011
7003603603.6036 0.10834018 -0.058290374 -0.016640307 -0.0088675441 7.071068e-011 7.071068e-011 7.071068e-011 7.071068e-011
7012012012.012 -0.072771125 0.033189926 0.014090202 -0.01252179 7.071068e-011 7.071068e-011 7.071068e-011 7.071068e-011
7020420420.4204 0.088687584 0.16125149 0.0078383014 0.017317513 7.071068e-011 7.071068e-011 7.071068e-011 7.071068e-011
7028828828.8288 0.13216978 -0.029529953 -0.018528836 0.0018733257 7.071068e-011 7.071068e-011 7.071068e-011 7.071068e-011
7037237237.2372 -0.054233536 0.031367831 0.004376241 -0.018657254 7.071068e-011 7.071068e-011 7.071068e-011 7.071068e-011
7045645645.6456 0.09074273 0.17090458 0.016480187 0.0097603183 7.071068e-011 7.071068e-011 7.071068e-011 7.071068e-011
7054054054.0541 0.16730593 -0.0036548933 -0.014648383 0.012078681 7.071068e-011 7.071068e-011 7.071068e-011 7.071068e-011
7062462462.4625 -0.0085011665 -0.003430278 -0.006887902 -0.018462222 7.071068e-011 7.071068e-011 7.071068e-011 7.071068e-011
7070870870.8709 0.078877598 0.14049006 0.019777339 -0.0012457012 7.071068e-011 7.071068e-011 7.071068e-011 7.071068e-011
7079279279.2793 0.16821451 0.0068573081 -0.0054867207 0.018829325 7.071068e-011 7.071068e-011 7.071068e-011 7.071068e-011
7087687687.6877 0.032155689 -0.026630919 -0.016684961 -0.011446894 7.071068e-011 7.071068e-011 7.071068e-011 7.071068e-011
7096096096.0961 0.059920698 0.089487888 0.015915245 -0.012537271 7.071068e-011 7.071068e-011 7.071068e-011 7.071068e-011
7104504504.5045 0.14784242 0.0099939099 0.0065912479 0.019126067 7.071068e-011 7.071068e-011 7.071068e-011 7.071068e-011
7112912912.9129 0.050498929 -0.044505287 -0.020664813 -7.6172408e-005 7.071068e-011 7.071068e-011 7.071068e-011 7.071068e-011
7121321321.3213 0.034620866 0.03216701 0.0062612286 -0.019873576 7.071068e-011 7.071068e-011 7.071068e-011 7.071068e-011
7129729729.7297 0.089440078 0.014217585 0.016489414 0.012045079 7.071068e-011 7.071068e-011 7.071068e-011 7.071068e-011
7138138138.1381 0.043158874 -0.037805729 -0.017160766 0.011750883 7.071068e-011 7.071068e-011 7.071068e-011 7.071068e-011
7146546546.5465 -0.00047412104 0.013845875 -0.0059095323 -0.020120708 7.071068e-011 7.071068e-011 7.071068e-011 7.071068e-011
7154954954.955 0.030825563 0.041257326 0.020810395 0.00079858158 7.071068e-011 7.071068e-011 7.071068e-011 7.071068e-011
7163363363.3634 0.04486331 0.015574791 -0.0076100314 0.019136632 7.071068e-011 7.071068e-011 7.071068e-011 7.071068e-011
7171771771.7718 0.0010208297 0.020414608 -0.015784072 -0.013452383 7.071068e-011 7.071068e-011 7.071068e-011 7.071068e-011
7180180180.1802 0.018639814 0.072612956 0.017607966 -0.010434616 7.071068e-011 7.071068e-011 7.071068e-011 7.071068e-011
7188588588.5886 0.06777852 0.055944789 0.0039311033 0.020457307 7.071068e-011 7.071068e-011 7.071068e-011 7.071068e-011
7196996996.997 0.039638478 0.010168148 -0.020633392 -0.0026957472 7.071068e-011 7.071068e-011 7.071068e-011 7.071068e-011
7205405405.4054 0.012409089 0.067331128 0.0095095048 -0.018036332 7.071068e-011 7.071068e-011 7.071068e-011 7.071068e-011
7213813813.8138 0.083361492 0.067065872 0.013901746 0.015167683 7.071068e-011 7.071068e-011 7.071068e-011 7.071068e-011
7222222222.2222 0.065956496 -0.0055836332 -0.01898203 0.0082706902 7.071068e-011 7.071068e-011 7.071068e-011 7.071068e-011
7230630630.6306 -0.0013258096 0.035455149 -0.0015010919 -0.020489531 7.071068e-011 7.071068e-011 7.071068e-011 7.071068e-011
7239039039.039 0.071816944 0.075469971 0.019988161 0.0057992171 7.071068e-011 7.071068e-011 7.071068e-011 7.071068e-011
7247447447.4474 0.075002834 -0.015002297 -0.011975718 0.01702014 7.071068e-011 7.071068e-011 7.071068e-011 7.071068e-011
7255855855.8559 -0.016675651 0.007663609 -0.011650776 -0.017002763 7.071068e-011 7.071068e-011 7.071068e-011 7.071068e-011
7264264264.2643 0.035192695 0.084025256 0.020129923 -0.0054131974 7.071068e-011 7.071068e-011 7.071068e-011 7.071068e-011
7272672672.6727 0.074222296 0.00036797667 -0.0014558258 0.020561049 7.071068e-011 7.071068e-011 7.071068e-011 7.071068e-011
7281081081.0811 -0.030095153 0.0010546969 -0.018758258 -0.0084108198 7.071068e-011 7.071068e-011 7.071068e-011 7.071068e-011
7289489489.4895 0.00032027633 0.10774332 0.0146726 -0.014666292 7.071068e-011 7.071068e-011 7.071068e-011 7.071068e-011
7297897897.8979 0.084959142 0.050290555 0.0088545801 0.018815663 7.071068e-011 7.071068e-011 7.071068e-011 7.071068e-011
7306306306.3063 0.00072918792 0.0090419482 -0.02059656 0.0016464391 7.071068e-011 7.071068e-011 7.071068e-011 7.071068e-011
7314714714.7147 0.0043842285 0.113038 0.0053488794 -0.020327892 7.071068e-011 7.071068e-011 7.071068e-011 7.071068e-011
7323123123.1231 0.11276246 0.075052418 0.017058188 0.01170464 7.071068e-011 7.071068e-011 7.071068e-011 7.071068e-011
7331531531.5315 0.050890289 -0.011768686 -0.017306577 0.011776567 7.071068e-011 7.071068e-011 7.071068e-011 7.071068e-011
7339939939.9399 0.0080717271 0.068958156 -0.0053825057 -0.020552389 7.071068e-011 7.071068e-011 7.071068e-011 7.071068e-011
7348348348.3483 0.10570703 0.063438475 0.020948905 0.0018684209 7.071068e-011 7.071068e-011 7.071068e-011 7.071068e-011
7356756756.7568 0.06582357 -0.037069816 -0.0091535207 0.018841336 7.071068e-011 7.071068e-011 7.071068e-011 7.071068e-011
7365165165.1652 -0.010189473 0.021252535 -0.014805836 -0.015163371 7.071068e-011 7.071068e-011 7.071068e-011 7.071068e-011
7373573573.5736 0.061837599 0.049658045 0.018992146 -0.0086370027 7.071068e-011 7.071068e-011 7.071068e-011 7.071068e-011
7381981981.982 0.043680247 -0.035537954 0.0011303226 0.021132151 7.071068e-011 7.071068e-011 7.071068e-011 7.071068e-011
7390390390.3904 -0.043130558 0.0099551966 -0.02036145 -0.0061008814 7.071068e-011 7.071068e-011 7.071068e-011 7.071068e-011
7398798798.7988 0.013234385 0.07115262 0.012857798 -0.016751397 7.071068e-011 7.071068e-011 7.071068e-011 7.071068e-011
7407207207.2072 0.027785931 0.0096316719 0.011254 0.017966136 7.071068e-011 7.071068e-011 7.071068e-011 7.071068e-011
7415615615.6156 -0.041081887 0.035557419 -0.020877486 0.004452406 7.071068e-011 7.071068e-011 7.071068e-011 7.071068e-011
7424024024.024 0.0069948793 0.1050711 0.0029961076 -0.021055566 7.071068e-011 7.071068e-011 7.071068e-011 7.071068e-011
7432432432.4324 0.05463757 0.053906616 0.018720351 0.010364829 7.071068e-011 7.071068e-011 7.071068e-011 7.071068e-011
7440840840.8408 0.0096108122 0.042500146 -0.01611222 0.014114626 7.071068e-011 7.071068e-011 7.071068e-011 7.071068e-011
7449249249.2492 0.030438861 0.087192737 -0.0073964288 -0.019866152 7.071068e-011 7.071068e-011 7.071068e-011 7.071068e-011
7457657657.6577 0.077944636 0.048835877 0.021260817 9.8808028e-005 7.071068e-011 7.071068e-011 7.071068e-011 7.071068e-011
7466066066.0661 0.041626327 0.014137586 -0.0074720369 0.019972399 7.071068e-011 7.071068e-011 7.071068e-011 7.071068e-011
7474474474.4745 0.030561054 0.03944866 -0.015982438 -0.01379187 7.071068e-011 7.071068e-011 7.071068e-011 7.071068e-011
7482882882.8829 0.059985254 0.029038116 0.018626474 -0.0098564122 7.071068e-011 7.071068e-011 7.071068e-011 7.071068e-011
7491291291.2913 0.038782123 -0.01344637 0.0027086071 0.020943368 7.071068e-011 7.071068e-011 7.071068e-011 7.071068e-011
7499699699.6997 -0.0033684089 0.0025572893 -0.020387445 -0.004876351 7.071068e-011 7.071068e-011 7.071068e-011 7.071068e-011
7508108108.1081 0.0034268096 0.03192446 0.011706028 -0.017365979 7.071068e-011 7.071068e-011 7.071068e-011 7.071068e-011
7516516516.5165 0.019341016 0.011825205 0.012043162 0.01696007 7.071068e-011 7.071068e-011 7.071068e-011 7.071068e-011
7524924924.9249 -0.026504029 0.0066718147 -0.020019064 0.0051420075 7.071068e-011 7.071068e-011 7.071068e-011 7.071068e-011
7533333333.3333 -0.029718906 0.066075988 0.0024847388 -0.020521201 7.071068e-011 7.071068e-011 7.071068e-011 7.071068e-011
7541741741.7417 0.02791355 0.068736121 0.018292386 0.0094438409 7.071068e-011 7.071068e-011 7.071068e-011 7.071068e-011
7550150150.1502 0.012793717 0.020564137 -0.015185256 0.013267212 7.071068e-011 7.071068e-011 7.071068e-011 7.071068e-011
7558558558.5586 -0.015276789 0.068668365 -0.0069041322 -0.019040072 7.071068e-011 7.071068e-011 7.071068e-011 7.071068e-011
7566966966.967 0.055758715 0.077943973 0.020012354 0.00043236371 7.071068e-011 7.071068e-011 7.071068e-011 7.071068e-011
7575375375.3754 0.053358864 0.00089769118 -0.0078634778 0.01849303 7.071068e-011 7.071068e-011 7.071068e-011 7.071068e-011
7583783783.7838 -0.011874419 0.02424922 -0.014439948 -0.014055138 7.071068e-011 7.071068e-011 7.071068e-011 7.071068e-011
7592192192.1922 0.045690052 0.060561989 0.017998282 -0.0083551016 7.071068e-011 7.071068e-011 7.071068e-011 7.071068e-011
7600600600.6006 0.051617946 -0.02450024 0.00091880735 0.019483961 7.071068e-011 7.071068e-011 7.071068e-011 7.071068e-011
7609009009.009 -0.038081527 -0.010573476 -0.018905398 -0.0064954055 7.071068e-011 7.071068e-011 7.071068e-011 7.071068e-011
7617417417.4174 -0.0049015717 0.058137834 0.012593842 -0.015343535 7.071068e-011 7.071068e-011 7.071068e-011 7.071068e-011
7625825825.8258 0.02630337 -0.0043456051 0.009474244 0.017388826 7.071068e-011 7.071068e-011 7.071068e-011 7.071068e-011
7634234234.2342 -0.060808368 0.0041880845 -0.019554211 0.0024882893 7.071068e-011 7.071068e-011 7.071068e-011 7.071068e-011
7642642642.6426 -0.026360769 0.091706589 0.0049659838 -0.018918924 7.071068e-011 7.071068e-011 7.071068e-011 7.071068e-011
7651051051.0511 0.037486758 0.042265654 0.015792416 0.011673443 7.071068e-011 7.071068e-011 7.071068e-011 7.071068e-011
7659459459.4595 -0.030026449 0.018243222 -0.01676229 0.010713747 7.071068e-011 7.071068e-011 7.071068e-011 7.071068e-011
7667867867.8679 -0.011387638 0.10259919 -0.0039276322 -0.019124579 7.071068e-011 7.071068e-011 7.071068e-011 7.071068e-011
7676276276.2763 0.073906563 0.058805216 0.019109208 0.0039179358 7.071068e-011 7.071068e-011 7.071068e-011 7.071068e-011
7684684684.6847 0.021157905 -0.0038918834 -0.010735464 0.016648812 7.071068e-011 7.071068e-011 7.071068e-011 7.071068e-011
7693093093.0931 0.00078508793 0.054605346 -0.011526079 -0.015962852 7.071068e-011 7.071068e-011 7.071068e-011 7.071068e-011
7701501501.5015 0.071194775 0.032410722 0.019031037 -0.0048782779 7.071068e-011 7.071068e-011 7.071068e-011 7.071068e-011
7709909909.9099 0.023128258 -0.042516556 -0.0025590046 0.019538021 7.071068e-011 7.071068e-011 7.071068e-011 7.071068e-011
7718318318.3183 -0.033113863 0.011063541 -0.017254207 -0.0095513109 7.071068e-011 7.071068e-011 7.071068e-011 7.071068e-011
7726726726.7267 0.024578847 0.027707893 0.015428953 -0.012291011 7.071068e-011 7.071068e-011 7.071068e-011 7.071068e-011
7735135135.1351 0.0027155918 -0.041405536 0.0059996764 0.018955952 7.071068e-011 7.071068e-011 7.071068e-011 7.071068e-011
7743543543.5435 -0.075083084 -4.5887977e-005 -0.019550698 -0.0014143484 7.071068e-011 7.071068e-011 7.071068e-011 7.071068e-011
7751951951.952 -0.0301928 0.064295799 0.0086847711 -0.01771841 7.071068e-011 7.071068e-011 7.071068e-011 7.071068e-011
7760360360.3604 -0.0027298762 0.01726808 0.013308412 0.014637908 7.071068e-011 7.071068e-011 7.071068e-011 7.071068e-011
7768768768.7688 -0.058450717 0.028562631 -0.018582314 0.0069269454 7.071068e-011 7.071068e-011 7.071068e-011 7.071068e-011
7777177177.1772 -0.027119553 0.095610209 0.00054225832 -0.019745506 7.071068e-011 7.071068e-011 7.071068e-011 7.071068e-011
7785585585.5856 0.033839017 0.057878379 0.018171508 0.0077819461 7.071068e-011 7.071068e-011 7.071068e-011 7.071068e-011
7793993993.994 -0.005705093 0.02783962 -0.013889391 0.01375293 7.071068e-011 7.071068e-011 7.071068e-011 7.071068e-011
7802402402.4024 -0.00040073966 0.075041182 -0.0076316963 -0.018363249 7.071068e-011 7.071068e-011 7.071068e-011 7.071068e-011
7810810810.8108 0.058084682 0.048808869 0.019800559 -0.00051073608 7.071068e-011 7.071068e-011 7.071068e-011 7.071068e-011
7819219219.2192 0.025862301 -0.006435947 -0.0070994287 0.018366823 7.071068e-011 7.071068e-011 7.071068e-011 7.071068e-011
7827627627.6276 -0.003606332 0.027001111 -0.014453356 -0.013434296 7.071068e-011 7.071068e-011 7.071068e-011 7.071068e-011
7836036036.036 0.037614383 0.025683651 0.01782787 -0.0083981855 7.071068e-011 7.071068e-011 7.071068e-011 7.071068e-011
7844444444.4444 0.016439084 -0.023815738 0.0011744055 0.0197358 7.071068e-011 7.071068e-011 7.071068e-011 7.071068e-011
7852852852.8529 -0.02828433 0.0031346558 -0.018817281 -0.0063105747 7.071068e-011 7.071068e-011 7.071068e-011 7.071068e-011
7861261261.2613 0.0018155113 0.029501114 0.01273793 -0.015093444 7.071068e-011 7.071068e-011 7.071068e-011 7.071068e-011
7869669669.6697 0.0054347818 -0.0093479957 0.0090796901 0.017538391 7.071068e-011 7.071068e-011 7.071068e-011 7.071068e-011
7878078078.0781 -0.040499594 0.003480922 -0.019814204 0.0020211262 7.071068e-011 7.071068e-011 7.071068e-011 7.071068e-011
7886486486.4865 -0.024298782 0.046984527 0.0053335289 -0.019052647 7.071068e-011 7.071068e-011 7.071068e-011 7.071068e-011
7894894894.8949 0.010920205 0.030166594 0.015452026 0.011955604 7.071068e-011 7.071068e-011 7.071068e-011 7.071068e-011
7903303303.3033 -0.01362668 0.011140017 -0.017074669 0.0097567327 7.071068e-011 7.071068e-011 7.071068e-011 7.071068e-011
7911711711.7117 -0.017801311 0.044036642 -0.0028219055 -0.019503227 7.071068e-011 7.071068e-011 7.071068e-011 7.071068e-011
7920120120.1201 0.023158723 0.044850159 0.018924411 0.0046708244 7.071068e-011 7.071068e-011 7.071068e-011 7.071068e-011
7928528528.5285 0.023531172 0.0018956504 -0.011421732 0.015775811 7.071068e-011 7.071068e-011 7.071068e-011 7.071068e-011
7936936936.9369 -0.010009683 0.011300537 -0.010214905 -0.016370207 7.071068e-011 7.071068e-011 7.071068e-011 7.071068e-011
7945345345.3453 0.017976187 0.032122362 0.019023489 -0.0031452749 7.071068e-011 7.071068e-011 7.071068e-011 7.071068e-011
