!Keysight Technologies,N5235B,MY61252044,A.15.00.15
!Date: Friday, January 20, 2023 20:39:16
!Correction: S11(Off) 
!S21(Off) 
!S12(Off) 
!S22(Off) 
!S2P File: Measurements: S11, S21, S12, S22:
# Hz S  RI   R 50
6600000000 0.01699315 -0.17464821 0.014879376 -0.00524328 7.071068e-011 7.071068e-011 7.071068e-011 7.071068e-011
6601680336.0672 -0.060447432 -0.15834093 0.003331501 -0.014795614 7.071068e-011 7.071068e-011 7.071068e-011 7.071068e-011
6603360672.1344 -0.1283614 -0.10452486 -0.010294628 -0.01029834 7.071068e-011 7.071068e-011 7.071068e-011 7.071068e-011
6605041008.2016 -0.16816428 -0.020904478 -0.013516447 0.0029793228 7.071068e-011 7.071068e-011 7.071068e-011 7.071068e-011
6606721344.2689 -0.16748598 0.076288871 -0.0046368847 0.012109013 7.071068e-011 7.071068e-011 7.071068e-011 7.071068e-011
6608401680.3361 -0.1236053 0.16667245 0.0067947269 0.0099850055 7.071068e-011 7.071068e-011 7.071068e-011 7.071068e-011
6610082016.4033 -0.043894473 0.23137265 0.01134511 0.00037591282 7.071068e-011 7.071068e-011 7.071068e-011 7.071068e-011
6611762352.4705 0.05692574 0.25742763 0.0067698662 -0.0084505389 7.071068e-011 7.071068e-011 7.071068e-011 7.071068e-011
6613442688.5377 0.16060892 0.23973455 -0.0026167363 -0.010110274 7.071068e-011 7.071068e-011 7.071068e-011 7.071068e-011
6615123024.6049 0.2489697 0.18118657 -0.0093140136 -0.0038112616 7.071068e-011 7.071068e-011 7.071068e-011 7.071068e-011
6616803360.6721 0.30693218 0.091553472 -0.0083198184 0.0048868777 7.071068e-011 7.071068e-011 7.071068e-011 7.071068e-011
6618483696.7393 0.3246887 -0.014562833 -0.0012730198 0.0091942893 7.071068e-011 7.071068e-011 7.071068e-011 7.071068e-011
6620164032.8066 0.29870757 -0.12004389 0.006197283 0.006661112 7.071068e-011 7.071068e-011 7.071068e-011 7.071068e-011
6621844368.8738 0.23227242 -0.20755091 0.0091134682 -0.00060176302 7.071068e-011 7.071068e-011 7.071068e-011 7.071068e-011
6623524704.941 0.13531581 -0.26192668 0.0052648606 -0.0076849353 7.071068e-011 7.071068e-011 7.071068e-011 7.071068e-011
6625205041.0082 0.023451498 -0.2729511 -0.0030162979 -0.008986542 7.071068e-011 7.071068e-011 7.071068e-011 7.071068e-011
6626885377.0754 -0.084344573 -0.23747598 -0.0090108747 -0.0029303771 7.071068e-011 7.071068e-011 7.071068e-011 7.071068e-011
6628565713.1426 -0.16894495 -0.16067035 -0.0076753059 0.0053297686 7.071068e-011 7.071068e-011 7.071068e-011 7.071068e-011
6630246049.2098 -0.21479668 -0.055631738 -0.0005427092 0.0092207883 7.071068e-011 7.071068e-011 7.071068e-011 7.071068e-011
6631926385.2771 -0.21343251 0.058732897 0.0068869786 0.0061770165 7.071068e-011 7.071068e-011 7.071068e-011 7.071068e-011
6633606721.3443 -0.16557793 0.16175804 0.0092047555 -0.0016208796 7.071068e-011 7.071068e-011 7.071068e-011 7.071068e-011
6635287057.4115 -0.080684818 0.23546588 0.0043597948 -0.0083342586 7.071068e-011 7.071068e-011 7.071068e-011 7.071068e-011
6636967393.4787 0.025493933 0.26789239 -0.003888411 -0.0085047418 7.071068e-011 7.071068e-011 7.071068e-011 7.071068e-011
6638647729.5459 0.13424216 0.25487566 -0.008978839 -0.0022614649 7.071068e-011 7.071068e-011 7.071068e-011 7.071068e-011
6640328065.6131 0.22745688 0.20006604 -0.0074827811 0.0054691099 7.071068e-011 7.071068e-011 7.071068e-011 7.071068e-011
6642008401.6803 0.29046729 0.11355767 -0.00063527049 0.0094633251 7.071068e-011 7.071068e-011 7.071068e-011 7.071068e-011
6643688737.7475 0.31377557 0.0098427031 0.0072095217 0.0067845779 7.071068e-011 7.071068e-011 7.071068e-011 7.071068e-011
6645369073.8148 0.29395008 -0.094275914 0.010292254 -0.0015338105 7.071068e-011 7.071068e-011 7.071068e-011 7.071068e-011
6647049409.882 0.23416223 -0.18173532 0.005248507 -0.0094980393 7.071068e-011 7.071068e-011 7.071068e-011 7.071068e-011
6648729745.9492 0.14421085 -0.23780078 -0.0045118206 -0.010227323 7.071068e-011 7.071068e-011 7.071068e-011 7.071068e-011
6650410082.0164 0.039195791 -0.25265869 -0.011138506 -0.0027300729 7.071068e-011 7.071068e-011 7.071068e-011 7.071068e-011
6652090418.0836 -0.062634088 -0.2233869 -0.0092489002 0.0073539414 7.071068e-011 7.071068e-011 7.071068e-011 7.071068e-011
6653770754.1508 -0.14302325 -0.15515952 0.00022857309 0.0122139 7.071068e-011 7.071068e-011 7.071068e-011 7.071068e-011
6655451090.218 -0.18758422 -0.060796399 0.010177139 0.007372993 7.071068e-011 7.071068e-011 7.071068e-011 7.071068e-011
6657131426.2853 -0.18903728 0.041868336 0.012235277 -0.0037570801 7.071068e-011 7.071068e-011 7.071068e-011 7.071068e-011
6658811762.3525 -0.14872788 0.13386787 0.0045330054 -0.012139863 7.071068e-011 7.071068e-011 7.071068e-011 7.071068e-011
6660492098.4197 -0.075994328 0.19908814 -0.0068559707 -0.011243152 7.071068e-011 7.071068e-011 7.071068e-011 7.071068e-011
6662172434.4869 0.01412437 0.22748417 -0.013422064 -0.0016556976 7.071068e-011 7.071068e-011 7.071068e-011 7.071068e-011
6663852770.5541 0.10454127 0.2167886 -0.0099584423 0.0098850904 7.071068e-011 7.071068e-011 7.071068e-011 7.071068e-011
6665533106.6213 0.17971143 0.17185736 0.0018135192 0.014509911 7.071068e-011 7.071068e-011 7.071068e-011 7.071068e-011
6667213442.6885 0.22818114 0.10291048 0.013156523 0.0076369103 7.071068e-011 7.071068e-011 7.071068e-011 7.071068e-011
6668893778.7558 0.24377191 0.023171693 0.014557445 -0.0061243442 7.071068e-011 7.071068e-011 7.071068e-011 7.071068e-011
6670574114.823 0.22604327 -0.053287704 0.0039833901 -0.015874701 7.071068e-011 7.071068e-011 7.071068e-011 7.071068e-011
6672254450.8902 0.1799572 -0.11370201 -0.010718236 -0.013137103 7.071068e-011 7.071068e-011 7.071068e-011 7.071068e-011
6673934786.9574 0.11502715 -0.14840958 -0.017488539 0.00085170276 7.071068e-011 7.071068e-011 7.071068e-011 7.071068e-011
6675615123.0246 0.043926533 -0.15251788 -0.0099127172 0.014991743 7.071068e-011 7.071068e-011 7.071068e-011 7.071068e-011
6677295459.0918 -0.019813985 -0.1271341 0.0063198092 0.017210407 7.071068e-011 7.071068e-011 7.071068e-011 7.071068e-011
6678975795.159 -0.06475018 -0.079112403 0.01790351 0.0052738143 7.071068e-011 7.071068e-011 7.071068e-011 7.071068e-011
6680656131.2262 -0.083762094 -0.019432286 0.015216973 -0.011413313 7.071068e-011 7.071068e-011 7.071068e-011 7.071068e-011
6682336467.2935 -0.075513147 0.038985875 -8.2974941e-005 -0.019423807 7.071068e-011 7.071068e-011 7.071068e-011 7.071068e-011
6684016803.3607 -0.044919275 0.084375694 -0.015985265 -0.011701065 7.071068e-011 7.071068e-011 7.071068e-011 7.071068e-011
6685697139.4279 -0.0017289524 0.10927162 -0.019204376 0.0060470034 7.071068e-011 7.071068e-011 7.071068e-011 7.071068e-011
6687377475.4951 0.042610772 0.11214072 -0.0066073705 0.019277005 7.071068e-011 7.071068e-011 7.071068e-011 7.071068e-011
6689057811.5623 0.078083947 0.097237185 0.011685764 0.016941935 7.071068e-011 7.071068e-011 7.071068e-011 7.071068e-011
6690738147.6295 0.098970547 0.072936781 0.020775052 0.00073084177 7.071068e-011 7.071068e-011 7.071068e-011 7.071068e-011
6692418483.6967 0.10530122 0.048289523 0.013105252 -0.016424956 7.071068e-011 7.071068e-011 7.071068e-011 7.071068e-011
6694098819.764 0.10148024 0.029537579 -0.0054702233 -0.020512436 7.071068e-011 7.071068e-011 7.071068e-011 7.071068e-011
6695779155.8312 0.093315177 0.019067913 -0.019937396 -0.007802736 7.071068e-011 7.071068e-011 7.071068e-011 7.071068e-011
6697459491.8984 0.086163439 0.016038444 -0.018139388 0.011516636 7.071068e-011 7.071068e-011 7.071068e-011 7.071068e-011
6699139827.9656 0.083632924 0.016949153 -0.0014442665 0.021390462 7.071068e-011 7.071068e-011 7.071068e-011 7.071068e-011
6700820164.0328 0.086196832 0.017274965 0.016225651 0.013811705 7.071068e-011 7.071068e-011 7.071068e-011 7.071068e-011
6702500500.1 0.091681786 0.013679323 0.020645825 -0.0047025033 7.071068e-011 7.071068e-011 7.071068e-011 7.071068e-011
6704180836.1672 0.09682548 0.0047515226 0.0085746394 -0.019249415 7.071068e-011 7.071068e-011 7.071068e-011 7.071068e-011
6705861172.2344 0.09803284 -0.0091110263 -0.010241915 -0.018289028 7.071068e-011 7.071068e-011 7.071068e-011 7.071068e-011
6707541508.3017 0.092122309 -0.025458451 -0.020570168 -0.0026781356 7.071068e-011 7.071068e-011 7.071068e-011 7.071068e-011
6709221844.3689 0.07770782 -0.040243894 -0.014236311 0.014596154 7.071068e-011 7.071068e-011 7.071068e-011 7.071068e-011
6710902180.4361 0.055473298 -0.049200471 0.0028999466 0.019768558 7.071068e-011 7.071068e-011 7.071068e-011 7.071068e-011
6712582516.5033 0.027810208 -0.048263948 0.017093675 0.0096828127 7.071068e-011 7.071068e-011 7.071068e-011 7.071068e-011
6714262852.5705 -0.00054305245 -0.034102943 0.018005114 -0.00742803 7.071068e-011 7.071068e-011 7.071068e-011 7.071068e-011
6715943188.6377 -0.022624522 -0.0060803476 0.0051660938 -0.018740362 7.071068e-011 7.071068e-011 7.071068e-011 7.071068e-011
6717623524.7049 -0.031447951 0.032342255 -0.011729816 -0.015450638 7.071068e-011 7.071068e-011 7.071068e-011 7.071068e-011
6719303860.7722 -0.022379939 0.074377075 -0.019212358 7.4133191e-006 7.071068e-011 7.071068e-011 7.071068e-011 7.071068e-011
6720984196.8394 0.0057023703 0.11142774 -0.011471498 0.01499344 7.071068e-011 7.071068e-011 7.071068e-011 7.071068e-011
6722664532.9066 0.049668521 0.13469417 0.0046797022 0.017932566 7.071068e-011 7.071068e-011 7.071068e-011 7.071068e-011
6724344868.9738 0.10218967 0.13757582 0.016782017 0.0073483684 7.071068e-011 7.071068e-011 7.071068e-011 7.071068e-011
6726025205.041 0.15363038 0.1175804 0.016056903 -0.0086473152 7.071068e-011 7.071068e-011 7.071068e-011 7.071068e-011
6727705541.1082 0.19415022 0.076574437 0.002922554 -0.017883122 7.071068e-011 7.071068e-011 7.071068e-011 7.071068e-011
6729385877.1754 0.21524313 0.020384843 -0.012230631 -0.012967052 7.071068e-011 7.071068e-011 7.071068e-011 7.071068e-011
6731066213.2426 0.21142548 -0.041588891 -0.017279917 0.0016354356 7.071068e-011 7.071068e-011 7.071068e-011 7.071068e-011
6732746549.3099 0.18196058 -0.098188199 -0.0092664035 0.014139208 7.071068e-011 7.071068e-011 7.071068e-011 7.071068e-011
6734426885.3771 0.13092169 -0.13903032 0.005025025 0.015854249 7.071068e-011 7.071068e-011 7.071068e-011 7.071068e-011
6736107221.4443 0.066278137 -0.15617667 0.015393865 0.0060490039 7.071068e-011 7.071068e-011 7.071068e-011 7.071068e-011
6737787557.5115 -0.0011755497 -0.14537705 0.014299134 -0.0082350606 7.071068e-011 7.071068e-011 7.071068e-011 7.071068e-011
6739467893.5787 -0.059384909 -0.10729542 0.0023776384 -0.016208159 7.071068e-011 7.071068e-011 7.071068e-011 7.071068e-011
6741148229.6459 -0.097487584 -0.047846645 -0.011042839 -0.01178815 7.071068e-011 7.071068e-011 7.071068e-011 7.071068e-011
6742828565.7131 -0.10802589 0.022930477 -0.01589985 0.0011366665 7.071068e-011 7.071068e-011 7.071068e-011 7.071068e-011
6744508901.7804 -0.088313743 0.092616804 -0.0091562066 0.012972487 7.071068e-011 7.071068e-011 7.071068e-011 7.071068e-011
6746189237.8476 -0.041237719 0.14855546 0.0043394202 0.015366853 7.071068e-011 7.071068e-011 7.071068e-011 7.071068e-011
6747869573.9148 0.02506434 0.18052909 0.014857325 0.0061694807 7.071068e-011 7.071068e-011 7.071068e-011 7.071068e-011
6749549909.982 0.099084131 0.18287393 0.013951972 -0.0079287458 7.071068e-011 7.071068e-011 7.071068e-011 7.071068e-011
6751230246.0492 0.16834982 0.15507649 0.0023103599 -0.015644608 7.071068e-011 7.071068e-011 7.071068e-011 7.071068e-011
6752910582.1164 0.22165684 0.10158236 -0.01055038 -0.011350103 7.071068e-011 7.071068e-011 7.071068e-011 7.071068e-011
6754590918.1836 0.24920253 0.030471612 -0.015234726 0.00098645152 7.071068e-011 7.071068e-011 7.071068e-011 7.071068e-011
6756271254.2508 0.24641913 -0.046491358 -0.0088240383 0.012329471 7.071068e-011 7.071068e-011 7.071068e-011 7.071068e-011
6757951590.3181 0.21333636 -0.11693425 0.0040070615 0.014556129 7.071068e-011 7.071068e-011 7.071068e-011 7.071068e-011
6759631926.3853 0.15469261 -0.16943367 0.013731921 0.0059848521 7.071068e-011 7.071068e-011 7.071068e-011 7.071068e-011
6761312262.4525 0.079369664 -0.19509548 0.013154416 -0.0067749075 7.071068e-011 7.071068e-011 7.071068e-011 7.071068e-011
6762992598.5197 -0.00073015451 -0.18917917 0.0031685268 -0.01430313 7.071068e-011 7.071068e-011 7.071068e-011 7.071068e-011
6764672934.5869 -0.072634526 -0.15202534 -0.0089117 -0.011620753 7.071068e-011 7.071068e-011 7.071068e-011 7.071068e-011
6766353270.6541 -0.12437723 -0.089112975 -0.014785131 -0.00060993148 7.071068e-011 7.071068e-011 7.071068e-011 7.071068e-011
6768033606.7213 -0.14691649 -0.010481451 -0.010002637 0.011224436 7.071068e-011 7.071068e-011 7.071068e-011 7.071068e-011
6769713942.7886 -0.13594264 0.070625424 0.0025039844 0.015042 7.071068e-011 7.071068e-011 7.071068e-011 7.071068e-011
6771394278.8558 -0.093217395 0.14012879 0.013423931 0.007512168 7.071068e-011 7.071068e-011 7.071068e-011 7.071068e-011
6773074614.923 -0.02634608 0.18592115 0.014350489 -0.0058157328 7.071068e-011 7.071068e-011 7.071068e-011 7.071068e-011
6774754950.9902 0.052718472 0.2002795 0.0044540404 -0.014941423 7.071068e-011 7.071068e-011 7.071068e-011 7.071068e-011
6776435287.0574 0.12992674 0.18123077 -0.0089881867 -0.012842909 7.071068e-011 7.071068e-011 7.071068e-011 7.071068e-011
6778115623.1246 0.19198926 0.13282725 -0.015621835 -0.00088192854 7.071068e-011 7.071068e-011 7.071068e-011 7.071068e-011
6779795959.1918 0.22874035 0.063979819 -0.010292022 0.01155369 7.071068e-011 7.071068e-011 7.071068e-011 7.071068e-011
6781476295.2591 0.23446602 -0.013470141 0.0024415059 0.01504278 7.071068e-011 7.071068e-011 7.071068e-011 7.071068e-011
6783156631.3263 0.20851453 -0.08651302 0.013001873 0.0076533584 7.071068e-011 7.071068e-011 7.071068e-011 7.071068e-011
6784836967.3935 0.15541703 -0.14295809 0.014217731 -0.0050665066 7.071068e-011 7.071068e-011 7.071068e-011 7.071068e-011
6786517303.4607 0.084151767 -0.17358355 0.0052078511 -0.014307464 7.071068e-011 7.071068e-011 7.071068e-011 7.071068e-011
6788197639.5279 0.0063982927 -0.17349824 -0.0078638885 -0.013197331 7.071068e-011 7.071068e-011 7.071068e-011 7.071068e-011
6789877975.5951 -0.065268658 -0.1427189 -0.015260977 -0.0022177142 7.071068e-011 7.071068e-011 7.071068e-011 7.071068e-011
6791558311.6623 -0.11922895 -0.08614134 -0.011400467 0.010398514 7.071068e-011 7.071068e-011 7.071068e-011 7.071068e-011
6793238647.7295 -0.14679042 -0.012930953 0.00072606461 0.015493608 7.071068e-011 7.071068e-011 7.071068e-011 7.071068e-011
6794918983.7968 -0.14364518 0.065126844 0.012576629 0.0094623538 7.071068e-011 7.071068e-011 7.071068e-011 7.071068e-011
6796599319.864 -0.11040762 0.13561428 0.015586714 -0.0038663985 7.071068e-011 7.071068e-011 7.071068e-011 7.071068e-011
6798279655.9312 -0.052449953 0.18723826 0.0067822882 -0.014844867 7.071068e-011 7.071068e-011 7.071068e-011 7.071068e-011
6799959991.9984 0.02059729 0.21162394 -0.0074795289 -0.014583225 7.071068e-011 7.071068e-011 7.071068e-011 7.071068e-011
6801640328.0656 0.096479073 0.205202 -0.015980924 -0.0032815598 7.071068e-011 7.071068e-011 7.071068e-011 7.071068e-011
6803320664.1328 0.16278085 0.16967671 -0.012629606 0.010242608 7.071068e-011 7.071068e-011 7.071068e-011 7.071068e-011
6805001000.2 0.20886892 0.11133423 -0.00016479679 0.016355323 7.071068e-011 7.071068e-011 7.071068e-011 7.071068e-011
6806681336.2673 0.22735304 0.040174853 0.012717351 0.010633814 7.071068e-011 7.071068e-011 7.071068e-011 7.071068e-011
6808361672.3345 0.21549225 -0.031503297 0.016467026 -0.0032695699 7.071068e-011 7.071068e-011 7.071068e-011 7.071068e-011
6810042008.4017 0.17595088 -0.091403931 0.0077810837 -0.014963751 7.071068e-011 7.071068e-011 7.071068e-011 7.071068e-011
6811722344.4689 0.11605301 -0.12953691 -0.0066936696 -0.015452592 7.071068e-011 7.071068e-011 7.071068e-011 7.071068e-011
6813402680.5361 0.046475258 -0.13971157 -0.016208198 -0.0047129821 7.071068e-011 7.071068e-011 7.071068e-011 7.071068e-011
6815083016.6033 -0.020434082 -0.12071156 -0.014175598 0.0095519675 7.071068e-011 7.071068e-011 7.071068e-011 7.071068e-011
6816763352.6705 -0.073091961 -0.076756097 -0.0016560351 0.017415151 7.071068e-011 7.071068e-011 7.071068e-011 7.071068e-011
6818443688.7377 -0.1032673 -0.016267324 0.012865978 0.012478652 7.071068e-011 7.071068e-011 7.071068e-011 7.071068e-011
6820124024.805 -0.10700922 0.050356805 0.018053642 -0.0024433909 7.071068e-011 7.071068e-011 7.071068e-011 7.071068e-011
6821804360.8722 -0.084488466 0.11239582 0.0092811333 -0.015781453 7.071068e-011 7.071068e-011 7.071068e-011 7.071068e-011
6823484696.9394 -0.039982986 0.16003305 -0.0065463996 -0.017082354 7.071068e-011 7.071068e-011 7.071068e-011 7.071068e-011
6825165033.0066 0.018684588 0.18616965 -0.017418124 -0.005642565 7.071068e-011 7.071068e-011 7.071068e-011 7.071068e-011
6826845369.0738 0.081867546 0.18757193 -0.015415215 0.01003997 7.071068e-011 7.071068e-011 7.071068e-011 7.071068e-011
6828525705.141 0.13979906 0.16485676 -0.0018316139 0.018397063 7.071068e-011 7.071068e-011 7.071068e-011 7.071068e-011
6830206041.2082 0.18369505 0.12220152 0.013198889 0.012943191 7.071068e-011 7.071068e-011 7.071068e-011 7.071068e-011
6831886377.2755 0.20716192 0.066901267 0.01828705 -0.0020836112 7.071068e-011 7.071068e-011 7.071068e-011 7.071068e-011
6833566713.3427 0.20731412 0.0079431077 0.010007928 -0.015374356 7.071068e-011 7.071068e-011 7.071068e-011 7.071068e-011
6835247049.4099 0.18478353 -0.045515407 -0.0053951414 -0.01763746 7.071068e-011 7.071068e-011 7.071068e-011 7.071068e-011
6836927385.4771 0.14346695 -0.085066475 -0.017273711 -0.0072625508 7.071068e-011 7.071068e-011 7.071068e-011 7.071068e-011
6838607721.5443 0.09051805 -0.10419133 -0.016952079 0.0089467149 7.071068e-011 7.071068e-011 7.071068e-011 7.071068e-011
6840288057.6115 0.035503153 -0.099984162 -0.0037399665 0.019238217 7.071068e-011 7.071068e-011 7.071068e-011 7.071068e-011
6841968393.6787 -0.011708988 -0.074027687 0.012948545 0.015161331 7.071068e-011 7.071068e-011 7.071068e-011 7.071068e-011
6843648729.7459 -0.043040067 -0.031935204 0.0201692 -0.00071313593 7.071068e-011 7.071068e-011 7.071068e-011 7.071068e-011
6845329065.8132 -0.053647976 0.017927105 0.012134566 -0.016394891 7.071068e-011 7.071068e-011 7.071068e-011 7.071068e-011
6847009401.8804 -0.042861957 0.066046543 -0.0053316834 -0.019896191 7.071068e-011 7.071068e-011 7.071068e-011 7.071068e-011
6848689737.9476 -0.014237579 0.10395324 -0.019055417 -0.0082348334 7.071068e-011 7.071068e-011 7.071068e-011 7.071068e-011
6850370074.0148 0.025809813 0.12602013 -0.018345235 0.0098810736 7.071068e-011 7.071068e-011 7.071068e-011 7.071068e-011
6852050410.082 0.069630414 0.12988643 -0.0036681953 0.020493276 7.071068e-011 7.071068e-011 7.071068e-011 7.071068e-011
6853730746.1492 0.10969716 0.11645468 0.013660489 0.015641524 7.071068e-011 7.071068e-011 7.071068e-011 7.071068e-011
6855411082.2164 0.13995299 0.089567639 0.02071847 -0.00078447832 7.071068e-011 7.071068e-011 7.071068e-011 7.071068e-011
6857091418.2837 0.15689263 0.054618441 0.01246434 -0.016599355 7.071068e-011 7.071068e-011 7.071068e-011 7.071068e-011
6858771754.3509 0.15934213 0.017213237 -0.0050555123 -0.02021317 7.071068e-011 7.071068e-011 7.071068e-011 7.071068e-011
6860452090.4181 0.14790978 -0.01737017 -0.018968806 -0.0088309981 7.071068e-011 7.071068e-011 7.071068e-011 7.071068e-011
6862132426.4853 0.12481985 -0.044408608 -0.018874086 0.0092156958 7.071068e-011 7.071068e-011 7.071068e-011 7.071068e-011
6863812762.5525 0.093834378 -0.060206391 -0.0047669881 0.020560909 7.071068e-011 7.071068e-011 7.071068e-011 7.071068e-011
6865493098.6197 0.059897661 -0.062598467 0.013043113 0.016779359 7.071068e-011 7.071068e-011 7.071068e-011 7.071068e-011
6867173434.6869 0.028671397 -0.051502313 0.02144582 0.00043151539 7.071068e-011 7.071068e-011 7.071068e-011 7.071068e-011
6868853770.7542 0.0055766813 -0.029404683 0.013914572 -0.016609905 7.071068e-011 7.071068e-011 7.071068e-011 7.071068e-011
