!Keysight Technologies,N5235B,MY61252044,A.15.00.15
!Date: Friday, January 20, 2023 21:55:41
!Correction: S11(Off) 
!S21(Off) 
!S12(Off) 
!S22(Off) 
!S2P File: Measurements: S11, S21, S12, S22:
# Hz S  RI   R 50
6600000000 0.017094299 -0.17524023 0.015166632 -0.0042795665 7.071068e-011 7.071068e-011 7.071068e-011 7.071068e-011
6608408408.4084 -0.12316735 0.16698486 0.0061587552 0.010362591 7.071068e-011 7.071068e-011 7.071068e-011 7.071068e-011
6616816816.8168 0.30651906 0.090932839 -0.0085721612 0.0043938556 7.071068e-011 7.071068e-011 7.071068e-011 7.071068e-011
6625225225.2252 0.022771463 -0.27267042 -0.0025253973 -0.0091218436 7.071068e-011 7.071068e-011 7.071068e-011 7.071068e-011
6633633633.6336 -0.16471574 0.1627681 0.0092648547 -0.0011472916 7.071068e-011 7.071068e-011 7.071068e-011 7.071068e-011
6642042042.042 0.29086918 0.11188888 -0.0010908518 0.0094255386 7.071068e-011 7.071068e-011 7.071068e-011 7.071068e-011
6650450450.4505 0.037273537 -0.25244269 -0.01100654 -0.0032018123 7.071068e-011 7.071068e-011 7.071068e-011 7.071068e-011
6658858858.8589 -0.14756185 0.13604259 0.0050050472 -0.011928347 7.071068e-011 7.071068e-011 7.071068e-011 7.071068e-011
6667267267.2673 0.2293068 0.10008401 0.012876575 0.0081231557 7.071068e-011 7.071068e-011 7.071068e-011 7.071068e-011
6675675675.6757 0.041401129 -0.151307 -0.010371036 0.014691149 7.071068e-011 7.071068e-011 7.071068e-011 7.071068e-011
6684084084.0841 -0.043362059 0.084837936 -0.015648335 -0.012097787 7.071068e-011 7.071068e-011 7.071068e-011 7.071068e-011
6692492492.4925 0.1053573 0.047800269 0.01348105 -0.016059402 7.071068e-011 7.071068e-011 7.071068e-011 7.071068e-011
6700900900.9009 0.086378038 0.017177895 0.015910892 0.014120076 7.071068e-011 7.071068e-011 7.071068e-011 7.071068e-011
6709309309.3093 0.076570749 -0.041080017 -0.014428033 0.014307584 7.071068e-011 7.071068e-011 7.071068e-011 7.071068e-011
6717717717.7177 -0.030883206 0.034596529 -0.011455404 -0.015572411 7.071068e-011 7.071068e-011 7.071068e-011 7.071068e-011
6726126126.1261 0.15557393 0.11579001 0.016129369 -0.0084358519 7.071068e-011 7.071068e-011 7.071068e-011 7.071068e-011
6734534534.5345 0.12790106 -0.14092474 0.004870716 0.015868936 7.071068e-011 7.071068e-011 7.071068e-011 7.071068e-011
6742942942.9429 -0.10810948 0.027631644 -0.015874378 0.0010499238 7.071068e-011 7.071068e-011 7.071068e-011 7.071068e-011
6751351351.3514 0.17287217 0.15215088 0.0022973674 -0.015600062 7.071068e-011 7.071068e-011 7.071068e-011 7.071068e-011
6759759759.7598 0.14926587 -0.1724965 0.013699175 0.0059175412 7.071068e-011 7.071068e-011 7.071068e-011 7.071068e-011
6768168168.1682 -0.14678837 -0.0038363999 -0.0099191181 0.011254706 7.071068e-011 7.071068e-011 7.071068e-011 7.071068e-011
6776576576.5766 0.13509266 0.17796929 -0.0090812407 -0.01271756 7.071068e-011 7.071068e-011 7.071068e-011 7.071068e-011
6784984984.985 0.15021163 -0.14654596 0.014134986 -0.005200834 7.071068e-011 7.071068e-011 7.071068e-011 7.071068e-011
6793393393.3934 -0.14760596 -0.005870535 0.0009450817 0.015465089 7.071068e-011 7.071068e-011 7.071068e-011 7.071068e-011
6801801801.8018 0.10256315 0.20279293 -0.015993269 -0.0029555031 7.071068e-011 7.071068e-011 7.071068e-011 7.071068e-011
6810210210.2102 0.17183261 -0.096142955 0.0074076131 -0.015086837 7.071068e-011 7.071068e-011 7.071068e-011 7.071068e-011
6818618618.6186 -0.10590792 -0.009184367 0.013189448 0.012123026 7.071068e-011 7.071068e-011 7.071068e-011 7.071068e-011
6827027027.027 0.08909297 0.18540898 -0.015074753 0.010499573 7.071068e-011 7.071068e-011 7.071068e-011 7.071068e-011
6835435435.4354 0.18069613 -0.049859226 -0.005961345 -0.017394641 7.071068e-011 7.071068e-011 7.071068e-011 7.071068e-011
6843843843.8438 -0.045393199 -0.026847603 0.020051954 -0.0014592309 7.071068e-011 7.071068e-011 7.071068e-011 7.071068e-011
6852252252.2523 0.074879847 0.1287297 -0.0028371187 0.02053953 7.071068e-011 7.071068e-011 7.071068e-011 7.071068e-011
6860660660.6607 0.14548646 -0.020260425 -0.019281492 -0.0079838289 7.071068e-011 7.071068e-011 7.071068e-011 7.071068e-011
6869069069.0691 0.0033687197 -0.027150206 0.013076887 -0.017209221 7.071068e-011 7.071068e-011 7.071068e-011 7.071068e-011
6877477477.4775 0.054666176 0.07310129 0.014140509 0.016905736 7.071068e-011 7.071068e-011 7.071068e-011 7.071068e-011
6885885885.8859 0.090426296 0.0063689495 -0.019656306 0.0093867145 7.071068e-011 7.071068e-011 7.071068e-011 7.071068e-011
6894294294.2943 0.046669964 -0.00068676507 -0.004163234 -0.021679051 7.071068e-011 7.071068e-011 7.071068e-011 7.071068e-011
6902702702.7027 0.038867779 0.019146167 0.022122385 0.0013345901 7.071068e-011 7.071068e-011 7.071068e-011 7.071068e-011
6911111111.1111 0.030362036 0.038154121 -0.0069690165 0.020814354 7.071068e-011 7.071068e-011 7.071068e-011 7.071068e-011
6919519519.5195 0.079055496 0.049330164 -0.017964914 -0.012059033 7.071068e-011 7.071068e-011 7.071068e-011 7.071068e-011
6927927927.9279 0.049780313 -0.012136481 0.016031845 -0.014135387 7.071068e-011 7.071068e-011 7.071068e-011 7.071068e-011
6936336336.3363 -0.0015880476 0.062507756 0.0088770781 0.01871096 7.071068e-011 7.071068e-011 7.071068e-011 7.071068e-011
6944744744.7447 0.11251242 0.088744089 -0.020581517 0.0029084932 7.071068e-011 7.071068e-011 7.071068e-011 7.071068e-011
6953153153.1532 0.083820507 -0.045216281 0.0027649992 -0.020228559 7.071068e-011 7.071068e-011 7.071068e-011 7.071068e-011
6961561561.5616 -0.028201178 0.054366067 0.018078839 0.0084165912 7.071068e-011 7.071068e-011 7.071068e-011 7.071068e-011
6969969969.97 0.12514435 0.1061819 -0.013245136 0.014726087 7.071068e-011 7.071068e-011 7.071068e-011 7.071068e-011
6978378378.3784 0.10120232 -0.071861178 -0.0098376349 -0.01650689 7.071068e-011 7.071068e-011 7.071068e-011 7.071068e-011
6986786786.7868 -0.06433104 0.03415972 0.018370718 -0.0038921267 7.071068e-011 7.071068e-011 7.071068e-011 7.071068e-011
6995195195.1952 0.10409707 0.13307965 -0.0018941907 0.019058404 7.071068e-011 7.071068e-011 7.071068e-011 7.071068e-011
7003603603.6036 0.10783732 -0.058195174 -0.017232236 -0.0074012578 7.071068e-011 7.071068e-011 7.071068e-011 7.071068e-011
7012012012.012 -0.07237412 0.033410084 0.012926633 -0.013577509 7.071068e-011 7.071068e-011 7.071068e-011 7.071068e-011
7020420420.4204 0.088462628 0.16093394 0.0092104534 0.016519956 7.071068e-011 7.071068e-011 7.071068e-011 7.071068e-011
7028828828.8288 0.13232343 -0.029267766 -0.018233083 0.0033982291 7.071068e-011 7.071068e-011 7.071068e-011 7.071068e-011
7037237237.2372 -0.054448534 0.03106552 0.002774084 -0.018899444 7.071068e-011 7.071068e-011 7.071068e-011 7.071068e-011
7045645645.6456 0.090816289 0.17130859 0.017183019 0.0082889115 7.071068e-011 7.071068e-011 7.071068e-011 7.071068e-011
7054054054.0541 0.16745503 -0.0043226327 -0.013500611 0.013233604 7.071068e-011 7.071068e-011 7.071068e-011 7.071068e-011
7062462462.4625 -0.0090805413 -0.0028317124 -0.008394138 -0.017710658 7.071068e-011 7.071068e-011 7.071068e-011 7.071068e-011
7070870870.8709 0.079602592 0.14003119 0.01948352 -0.0029111495 7.071068e-011 7.071068e-011 7.071068e-011 7.071068e-011
7079279279.2793 0.16748179 0.0069613457 -0.0038666585 0.019099334 7.071068e-011 7.071068e-011 7.071068e-011 7.071068e-011
7087687687.6877 0.032720331 -0.026712675 -0.017485231 -0.0099532679 7.071068e-011 7.071068e-011 7.071068e-011 7.071068e-011
7096096096.0961 0.059522253 0.089492343 0.014732912 -0.013755498 7.071068e-011 7.071068e-011 7.071068e-011 7.071068e-011
7104504504.5045 0.1481187 0.010047593 0.0081459628 0.018417481 7.071068e-011 7.071068e-011 7.071068e-011 7.071068e-011
7112912912.9129 0.050422754 -0.044828929 -0.020475892 0.0016749061 7.071068e-011 7.071068e-011 7.071068e-011 7.071068e-011
7121321321.3213 0.034467865 0.032696385 0.0045262105 -0.020227168 7.071068e-011 7.071068e-011 7.071068e-011 7.071068e-011
7129729729.7297 0.089933738 0.013656753 0.017369185 0.010546204 7.071068e-011 7.071068e-011 7.071068e-011 7.071068e-011
7138138138.1381 0.042423792 -0.037301578 -0.016011795 0.013125357 7.071068e-011 7.071068e-011 7.071068e-011 7.071068e-011
7146546546.5465 0.00034516249 0.013405284 -0.0075792219 -0.019408956 7.071068e-011 7.071068e-011 7.071068e-011 7.071068e-011
7154954954.955 0.029983589 0.041672096 0.020663513 -0.00097757077 7.071068e-011 7.071068e-011 7.071068e-011 7.071068e-011
7163363363.3634 0.045594323 0.015258017 -0.0059352443 0.01958096 7.071068e-011 7.071068e-011 7.071068e-011 7.071068e-011
7171771771.7718 0.00041694433 0.020515021 -0.016783286 -0.011998523 7.071068e-011 7.071068e-011 7.071068e-011 7.071068e-011
7180180180.1802 0.01902551 0.072759151 0.016562514 -0.011852162 7.071068e-011 7.071068e-011 7.071068e-011 7.071068e-011
7188588588.5886 0.067729808 0.055537283 0.0056423661 0.019932205 7.071068e-011 7.071068e-011 7.071068e-011 7.071068e-011
7196996996.997 0.039387189 0.010604823 -0.020669857 -0.00090543024 7.071068e-011 7.071068e-011 7.071068e-011 7.071068e-011
7205405405.4054 0.012977647 0.066810988 0.0078851338 -0.018689467 7.071068e-011 7.071068e-011 7.071068e-011 7.071068e-011
7213813813.8138 0.082724288 0.067602143 0.015079673 0.013824532 7.071068e-011 7.071068e-011 7.071068e-011 7.071068e-011
7222222222.2222 0.066712566 -0.0061625033 -0.018070588 0.0098288432 7.071068e-011 7.071068e-011 7.071068e-011 7.071068e-011
7230630630.6306 -0.0020591291 0.035887014 -0.0032295887 -0.020155335 7.071068e-011 7.071068e-011 7.071068e-011 7.071068e-011
7239039039.039 0.072596028 0.075341895 0.020263467 0.0040501165 7.071068e-011 7.071068e-011 7.071068e-011 7.071068e-011
7247447447.4474 0.074382462 -0.015205714 -0.010419721 0.017874306 7.071068e-011 7.071068e-011 7.071068e-011 7.071068e-011
7255855855.8559 -0.016375218 0.0081500113 -0.012979414 -0.015850632 7.071068e-011 7.071068e-011 7.071068e-011 7.071068e-011
7264264264.2643 0.035162617 0.083445325 0.019483255 -0.007069502 7.071068e-011 7.071068e-011 7.071068e-011 7.071068e-011
7272672672.6727 0.074046992 0.00093338953 0.00031209245 0.020497985 7.071068e-011 7.071068e-011 7.071068e-011 7.071068e-011
7281081081.0811 -0.029829653 0.00047181806 -0.019312445 -0.0067085582 7.071068e-011 7.071068e-011 7.071068e-011 7.071068e-011
7289489489.4895 -9.0352878e-005 0.10825058 0.013257762 -0.015787778 7.071068e-011 7.071068e-011 7.071068e-011 7.071068e-011
7297897897.8979 0.085543133 0.049865432 0.010394471 0.017863065 7.071068e-011 7.071068e-011 7.071068e-011 7.071068e-011
7306306306.3063 3.9372775e-005 0.0090579875 -0.020228045 0.0033927003 7.071068e-011 7.071068e-011 7.071068e-011 7.071068e-011
7314714714.7147 0.0051136501 0.11336147 0.0035573426 -0.020561533 7.071068e-011 7.071068e-011 7.071068e-011 7.071068e-011
7323123123.1231 0.11227259 0.074427746 0.017873056 0.010132312 7.071068e-011 7.071068e-011 7.071068e-011 7.071068e-011
7331531531.5315 0.051200099 -0.0111015 -0.016154915 0.013131524 7.071068e-011 7.071068e-011 7.071068e-011 7.071068e-011
7339939939.9399 0.0079277772 0.068338014 -0.007101303 -0.019918753 7.071068e-011 7.071068e-011 7.071068e-011 7.071068e-011
7348348348.3483 0.10573835 0.064038523 0.020927705 3.4262266e-005 7.071068e-011 7.071068e-011 7.071068e-011 7.071068e-011
7356756756.7568 0.066017315 -0.037595954 -0.0074227941 0.019452162 7.071068e-011 7.071068e-011 7.071068e-011 7.071068e-011
7365165165.1652 -0.010688783 0.021626249 -0.015967943 -0.013718424 7.071068e-011 7.071068e-011 7.071068e-011 7.071068e-011
7373573573.5736 0.062524803 0.04952151 0.01805223 -0.01018761 7.071068e-011 7.071068e-011 7.071068e-011 7.071068e-011
7381981981.982 0.042921867 -0.035793282 0.0029371013 0.02080871 7.071068e-011 7.071068e-011 7.071068e-011 7.071068e-011
7390390390.3904 -0.042489968 0.010434386 -0.020687165 -0.0042990968 7.071068e-011 7.071068e-011 7.071068e-011 7.071068e-011
7398798798.7988 0.012786655 0.07051409 0.01129767 -0.017691908 7.071068e-011 7.071068e-011 7.071068e-011 7.071068e-011
7407207207.2072 0.028048554 0.010237894 0.012701017 0.016836489 7.071068e-011 7.071068e-011 7.071068e-011 7.071068e-011
7415615615.6156 -0.04109063 0.034920331 -0.020306643 0.0062273578 7.071068e-011 7.071068e-011 7.071068e-011 7.071068e-011
7424024024.024 0.0068472796 0.10568046 0.001126917 -0.021138884 7.071068e-011 7.071068e-011 7.071068e-011 7.071068e-011
7432432432.4324 0.0551298 0.053448666 0.019453401 0.0086275563 7.071068e-011 7.071068e-011 7.071068e-011 7.071068e-011
7440840840.8408 0.0089525022 0.042704806 -0.014707753 0.015391047 7.071068e-011 7.071068e-011 7.071068e-011 7.071068e-011
7449249249.2492 0.031212645 0.087342471 -0.0090633482 -0.019009899 7.071068e-011 7.071068e-011 7.071068e-011 7.071068e-011
7457657657.6577 0.077217922 0.048454612 0.021061996 -0.0017571127 7.071068e-011 7.071068e-011 7.071068e-011 7.071068e-011
7466066066.0661 0.042187128 0.014685231 -0.0056411442 0.020411765 7.071068e-011 7.071068e-011 7.071068e-011 7.071068e-011
7474474474.4745 0.030142158 0.038804177 -0.017023962 -0.012268608 7.071068e-011 7.071068e-011 7.071068e-011 7.071068e-011
7482882882.8829 0.060174834 0.029644605 0.017578121 -0.011387488 7.071068e-011 7.071068e-011 7.071068e-011 7.071068e-011
7491291291.2913 0.038861107 -0.014041265 0.004514866 0.02051097 7.071068e-011 7.071068e-011 7.071068e-011 7.071068e-011
7499699699.6997 -0.0037241294 0.0029068091 -0.020628953 -0.0030174188 7.071068e-011 7.071068e-011 7.071068e-011 7.071068e-011
7508108108.1081 0.0040875096 0.031806443 0.010055706 -0.01822737 7.071068e-011 7.071068e-011 7.071068e-011 7.071068e-011
7516516516.5165 0.018625639 0.011642355 0.013430231 0.015735084 7.071068e-011 7.071068e-011 7.071068e-011 7.071068e-011
7524924924.9249 -0.025765097 0.0070615415 -0.01937269 0.0068608094 7.071068e-011 7.071068e-011 7.071068e-011 7.071068e-011
7533333333.3333 -0.030334421 0.065591171 0.00063110574 -0.020523656 7.071068e-011 7.071068e-011 7.071068e-011 7.071068e-011
7541741741.7417 0.02847155 0.069347985 0.018918475 0.0077220798 7.071068e-011 7.071068e-011 7.071068e-011 7.071068e-011
7550150150.1502 0.012471247 0.019925565 -0.013864567 0.014461547 7.071068e-011 7.071068e-011 7.071068e-011 7.071068e-011
7558558558.5586 -0.015274188 0.069290206 -0.0085027888 -0.018235173 7.071068e-011 7.071068e-011 7.071068e-011 7.071068e-011
7566966966.967 0.056092601 0.077523261 0.019864788 -0.0013340689 7.071068e-011 7.071068e-011 7.071068e-011 7.071068e-011
7575375375.3754 0.052776061 0.0010275883 -0.0061568208 0.019009376 7.071068e-011 7.071068e-011 7.071068e-011 7.071068e-011
7583783783.7838 -0.011246622 0.024328021 -0.015550802 -0.012633057 7.071068e-011 7.071068e-011 7.071068e-011 7.071068e-011
7592192192.1922 0.045126349 0.06028359 0.017081743 -0.0098813642 7.071068e-011 7.071068e-011 7.071068e-011 7.071068e-011
7600600600.6006 0.052107528 -0.024140134 0.0026560018 0.019224536 7.071068e-011 7.071068e-011 7.071068e-011 7.071068e-011
7609009009.009 -0.038378198 -0.011124689 -0.019296952 -0.0047265482 7.071068e-011 7.071068e-011 7.071068e-011 7.071068e-011
7617417417.4174 -0.004772828 0.058865797 0.011075594 -0.016313078 7.071068e-011 7.071068e-011 7.071068e-011 7.071068e-011
7625825825.8258 0.026503032 -0.0051034805 0.0109064 0.016345019 7.071068e-011 7.071068e-011 7.071068e-011 7.071068e-011
7634234234.2342 -0.061310332 0.0048891464 -0.019128451 0.00418068 7.071068e-011 7.071068e-011 7.071068e-011 7.071068e-011
7642642642.6426 -0.025666036 0.09131097 0.0032330691 -0.019183215 7.071068e-011 7.071068e-011 7.071068e-011 7.071068e-011
7651051051.0511 0.03682081 0.042408802 0.016690511 0.010156692 7.071068e-011 7.071068e-011 7.071068e-011 7.071068e-011
7659459459.4595 -0.029541988 0.018326079 -0.015635436 0.01211991 7.071068e-011 7.071068e-011 7.071068e-011 7.071068e-011
7667867867.8679 -0.011721237 0.10236071 -0.0056269732 -0.018575719 7.071068e-011 7.071068e-011 7.071068e-011 7.071068e-011
7676276276.2763 0.074050397 0.05914779 0.019276107 0.002145502 7.071068e-011 7.071068e-011 7.071068e-011 7.071068e-011
7684684684.6847 0.021267667 -0.0044529438 -0.0091125537 0.017445676 7.071068e-011 7.071068e-011 7.071068e-011 7.071068e-011
7693093093.0931 0.0004054686 0.055229526 -0.012836587 -0.014728109 7.071068e-011 7.071068e-011 7.071068e-011 7.071068e-011
7701501501.5015 0.071904264 0.031821229 0.018371573 -0.0065310029 7.071068e-011 7.071068e-011 7.071068e-011 7.071068e-011
7709909909.9099 0.022281628 -0.042161494 -0.00079551898 0.019561229 7.071068e-011 7.071068e-011 7.071068e-011 7.071068e-011
7718318318.3183 -0.03221659 0.010967546 -0.017942695 -0.0079208277 7.071068e-011 7.071068e-011 7.071068e-011 7.071068e-011
7726726726.7267 0.023859022 0.027697517 0.014173801 -0.013574919 7.071068e-011 7.071068e-011 7.071068e-011 7.071068e-011
7735135135.1351 0.0032260935 -0.041284285 0.0076675848 0.018225869 7.071068e-011 7.071068e-011 7.071068e-011 7.071068e-011
7743543543.5435 -0.075404555 -0.00023735332 -0.019483346 0.0003976335 7.071068e-011 7.071068e-011 7.071068e-011 7.071068e-011
7751951951.952 -0.030177608 0.06465251 0.0069693751 -0.018339265 7.071068e-011 7.071068e-011 7.071068e-011 7.071068e-011
7760360360.3604 -0.0023894852 0.016866943 0.014505564 0.013253414 7.071068e-011 7.071068e-011 7.071068e-011 7.071068e-011
7768768768.7688 -0.059156366 0.02886598 -0.017726718 0.0085509941 7.071068e-011 7.071068e-011 7.071068e-011 7.071068e-011
7777177177.1772 -0.026206004 0.095461495 -0.0012503588 -0.019559596 7.071068e-011 7.071068e-011 7.071068e-011 7.071068e-011
7785585585.5856 0.032957528 0.05777533 0.018679755 0.0060536023 7.071068e-011 7.071068e-011 7.071068e-011 7.071068e-011
7793993993.994 -0.0048881648 0.028096721 -0.012497192 0.014880167 7.071068e-011 7.071068e-011 7.071068e-011 7.071068e-011
7802402402.4024 -0.0010146663 0.074704506 -0.0092577152 -0.017485304 7.071068e-011 7.071068e-011 7.071068e-011 7.071068e-011
7810810810.8108 0.058533683 0.049204212 0.019536972 -0.0023395787 7.071068e-011 7.071068e-011 7.071068e-011 7.071068e-011
7819219219.2192 0.025768552 -0.0068432922 -0.0053100684 0.018837402 7.071068e-011 7.071068e-011 7.071068e-011 7.071068e-011
7827627627.6276 -0.0038563162 0.02743287 -0.015551008 -0.01192866 7.071068e-011 7.071068e-011 7.071068e-011 7.071068e-011
7836036036.036 0.038149361 0.025426107 0.016834471 -0.0099706575 7.071068e-011 7.071068e-011 7.071068e-011 7.071068e-011
7844444444.4444 0.015690835 -0.023774518 0.0029863876 0.019373737 7.071068e-011 7.071068e-011 7.071068e-011 7.071068e-011
7852852852.8529 -0.027570866 0.0032749472 -0.019181062 -0.0045036129 7.071068e-011 7.071068e-011 7.071068e-011 7.071068e-011
7861261261.2613 0.0012052932 0.029152777 0.011210015 -0.016100848 7.071068e-011 7.071068e-011 7.071068e-011 7.071068e-011
7869669669.6697 0.0058833174 -0.0089138411 0.010602852 0.016516034 7.071068e-011 7.071068e-011 7.071068e-011 7.071068e-011
7878078078.0781 -0.040740337 0.0029262935 -0.01940969 0.0038463196 7.071068e-011 7.071068e-011 7.071068e-011 7.071068e-011
7886486486.4865 -0.024259979 0.047554441 0.0034896361 -0.019336289 7.071068e-011 7.071068e-011 7.071068e-011 7.071068e-011
7894894894.8949 0.011243744 0.029687274 0.016399357 0.010360002 7.071068e-011 7.071068e-011 7.071068e-011 7.071068e-011
7903303303.3033 -0.014166125 0.01147293 -0.015947072 0.011240693 7.071068e-011 7.071068e-011 7.071068e-011 7.071068e-011
7911711711.7117 -0.017138397 0.043942541 -0.0046205171 -0.018974382 7.071068e-011 7.071068e-011 7.071068e-011 7.071068e-011
7920120120.1201 0.022538099 0.044772346 0.019115089 0.0028510161 7.071068e-011 7.071068e-011 7.071068e-011 7.071068e-011
7928528528.5285 0.024021536 0.0021979578 -0.0098103518 0.016634591 7.071068e-011 7.071068e-011 7.071068e-011 7.071068e-011
7936936936.9369 -0.010408855 0.010860972 -0.011609396 -0.015221097 7.071068e-011 7.071068e-011 7.071068e-011 7.071068e-011
7945345345.3453 0.018170699 0.032647323 0.018503197 -0.0048878123 7.071068e-011 7.071068e-011 7.071068e-011 7.071068e-011
