!Keysight Technologies,N5235B,MY61252044,A.15.00.15
!Date: Friday, January 20, 2023 19:31:42
!Correction: S11(Off) 
!S21(Off) 
!S12(Off) 
!S22(Off) 
!S2P File: Measurements: S11, S21, S12, S22:
# Hz S  RI   R 50
6600000000 0.017138008 -0.17450163 0.01490457 -0.005235537 7.071068e-011 7.071068e-011 7.071068e-011 7.071068e-011
6608400000 -0.12375875 0.16640826 0.0067885616 0.010008987 7.071068e-011 7.071068e-011 7.071068e-011 7.071068e-011
6616800000 0.30680048 0.091906816 -0.0083394926 0.004874656 7.071068e-011 7.071068e-011 7.071068e-011 7.071068e-011
6625200000 0.023925219 -0.27302974 -0.0029929047 -0.0090047223 7.071068e-011 7.071068e-011 7.071068e-011 7.071068e-011
6633600000 -0.16593149 0.16130576 0.0092157926 -0.0015925956 7.071068e-011 7.071068e-011 7.071068e-011 7.071068e-011
6642000000 0.29018649 0.11414241 -0.00068241649 0.0094662448 7.071068e-011 7.071068e-011 7.071068e-011 7.071068e-011
6650400000 0.039961059 -0.25268748 -0.011133051 -0.0027927803 7.071068e-011 7.071068e-011 7.071068e-011 7.071068e-011
6658800000 -0.1492369 0.13317145 0.0046125622 -0.012113965 7.071068e-011 7.071068e-011 7.071068e-011 7.071068e-011
6667200000 0.22787909 0.10369138 0.013104034 0.0077439831 7.071068e-011 7.071068e-011 7.071068e-011 7.071068e-011
6675600000 0.044690359 -0.15273651 -0.010045949 0.014912698 7.071068e-011 7.071068e-011 7.071068e-011 7.071068e-011
6684000000 -0.045449123 0.084058903 -0.015883321 -0.011866565 7.071068e-011 7.071068e-011 7.071068e-011 7.071068e-011
6692400000 0.1054022 0.048513182 0.013287548 -0.016299861 7.071068e-011 7.071068e-011 7.071068e-011 7.071068e-011
6700800000 0.086073779 0.01728547 0.016084425 0.014012857 7.071068e-011 7.071068e-011 7.071068e-011 7.071068e-011
6709200000 0.078005262 -0.040077932 -0.014437868 0.014439879 7.071068e-011 7.071068e-011 7.071068e-011 7.071068e-011
6717600000 -0.031440094 0.031737484 -0.011537293 -0.015619429 7.071068e-011 7.071068e-011 7.071068e-011 7.071068e-011
6726000000 0.15288371 0.11800988 0.016188568 -0.0084288167 7.071068e-011 7.071068e-011 7.071068e-011 7.071068e-011
6734400000 0.13188183 -0.13848242 0.0048059756 0.01594216 7.071068e-011 7.071068e-011 7.071068e-011 7.071068e-011
6742800000 -0.10801931 0.021585828 -0.015928909 0.00089648372 7.071068e-011 7.071068e-011 7.071068e-011 7.071068e-011
6751200000 0.16706692 0.15585035 0.0025701486 -0.01562557 7.071068e-011 7.071068e-011 7.071068e-011 7.071068e-011
6759600000 0.15612902 -0.16858229 0.013640916 0.0062252483 7.071068e-011 7.071068e-011 7.071068e-011 7.071068e-011
6768000000 -0.14682792 -0.012273152 -0.01020786 0.011059575 7.071068e-011 7.071068e-011 7.071068e-011 7.071068e-011
6776400000 0.12837167 0.18203682 -0.0087524364 -0.013024103 7.071068e-011 7.071068e-011 7.071068e-011 7.071068e-011
6784800000 0.15688686 -0.14196236 0.014323916 -0.0047972519 7.071068e-011 7.071068e-011 7.071068e-011 7.071068e-011
6793200000 -0.14647061 -0.014768106 0.00041094091 0.015513537 7.071068e-011 7.071068e-011 7.071068e-011 7.071068e-011
6801600000 0.094663665 0.20570061 -0.015916957 -0.003615547 7.071068e-011 7.071068e-011 7.071068e-011 7.071068e-011
6810000000 0.17726742 -0.090037219 0.0081178136 -0.014795038 7.071068e-011 7.071068e-011 7.071068e-011 7.071068e-011
6818400000 -0.10274968 -0.018099098 0.012568375 0.01277864 7.071068e-011 7.071068e-011 7.071068e-011 7.071068e-011
6826800000 0.080058143 0.18792516 -0.015667995 0.0096728709 7.071068e-011 7.071068e-011 7.071068e-011 7.071068e-011
6835200000 0.18582775 -0.044134635 -0.0049646231 -0.017773692 7.071068e-011 7.071068e-011 7.071068e-011 7.071068e-011
6843600000 -0.042464729 -0.033390693 0.02019548 -0.0001843379 7.071068e-011 7.071068e-011 7.071068e-011 7.071068e-011
6852000000 0.068366721 0.13008007 -0.0042217593 0.020414462 7.071068e-011 7.071068e-011 7.071068e-011 7.071068e-011
6860400000 0.14843048 -0.016412564 -0.018729949 -0.0093541229 7.071068e-011 7.071068e-011 7.071068e-011 7.071068e-011
6868800000 0.0062078312 -0.030230559 0.014390474 -0.016214307 7.071068e-011 7.071068e-011 7.071068e-011 7.071068e-011
6877200000 0.050629858 0.072376043 0.012778739 0.018073002 7.071068e-011 7.071068e-011 7.071068e-011 7.071068e-011
6885600000 0.091942675 0.0089343041 -0.020462874 0.0077575212 7.071068e-011 7.071068e-011 7.071068e-011 7.071068e-011
6894000000 0.047770455 -0.0019157148 -0.0022340396 -0.022056412 7.071068e-011 7.071068e-011 7.071068e-011 7.071068e-011
6902400000 0.038320933 0.019304382 0.022003679 0.0034437506 7.071068e-011 7.071068e-011 7.071068e-011 7.071068e-011
6910800000 0.030924827 0.036100883 -0.0090396777 0.020143427 7.071068e-011 7.071068e-011 7.071068e-011 7.071068e-011
6919200000 0.076471411 0.051624265 -0.016767347 -0.013893633 7.071068e-011 7.071068e-011 7.071068e-011 7.071068e-011
6927600000 0.053792056 -0.011730459 0.017538602 -0.012474111 7.071068e-011 7.071068e-011 7.071068e-011 7.071068e-011
6936000000 -0.0032439958 0.057614058 0.0068601142 0.019718338 7.071068e-011 7.071068e-011 7.071068e-011 7.071068e-011
6944400000 0.10803911 0.093327284 -0.020902485 0.00057290838 7.071068e-011 7.071068e-011 7.071068e-011 7.071068e-011
6952800000 0.090196989 -0.04334344 0.0051272679 -0.019888135 7.071068e-011 7.071068e-011 7.071068e-011 7.071068e-011
6961200000 -0.029062128 0.047464523 0.017006854 0.010575046 7.071068e-011 7.071068e-011 7.071068e-011 7.071068e-011
6969600000 0.11781275 0.1106324 -0.01508567 0.012993546 7.071068e-011 7.071068e-011 7.071068e-011 7.071068e-011
6978000000 0.11010274 -0.066481113 -0.0076796557 -0.017759709 7.071068e-011 7.071068e-011 7.071068e-011 7.071068e-011
6986400000 -0.063863859 0.022992004 0.018846521 -0.0014543122 7.071068e-011 7.071068e-011 7.071068e-011 7.071068e-011
6994800000 0.094230406 0.13798319 -0.0045598284 0.018757431 7.071068e-011 7.071068e-011 7.071068e-011 7.071068e-011
7003200000 0.11742415 -0.051629879 -0.016159847 -0.0098609813 7.071068e-011 7.071068e-011 7.071068e-011 7.071068e-011
7011600000 -0.071368977 0.021125525 0.014822345 -0.011621372 7.071068e-011 7.071068e-011 7.071068e-011 7.071068e-011
7020000000 0.077902339 0.16486253 0.0067023709 0.017806856 7.071068e-011 7.071068e-011 7.071068e-011 7.071068e-011
7028400000 0.13977347 -0.021386588 -0.018643631 0.00062984298 7.071068e-011 7.071068e-011 7.071068e-011 7.071068e-011
7036800000 -0.050751079 0.019564511 0.0057619847 -0.018307932 7.071068e-011 7.071068e-011 7.071068e-011 7.071068e-011
7045200000 0.078609109 0.17301175 0.015712641 0.01104903 7.071068e-011 7.071068e-011 7.071068e-011 7.071068e-011
7053600000 0.17303148 0.0062056235 -0.015590244 0.010862416 7.071068e-011 7.071068e-011 7.071068e-011 7.071068e-011
7062000000 -0.0026144921 -0.012877344 -0.0052406429 -0.01900124 7.071068e-011 7.071068e-011 7.071068e-011 7.071068e-011
7070400000 0.068110064 0.14024997 0.019869741 0.00055143534 7.071068e-011 7.071068e-011 7.071068e-011 7.071068e-011
7078800000 0.17142451 0.016192507 -0.0072057666 0.018211683 7.071068e-011 7.071068e-011 7.071068e-011 7.071068e-011
7087200000 0.038831964 -0.032460883 -0.015461837 -0.013059832 7.071068e-011 7.071068e-011 7.071068e-011 7.071068e-011
7095600000 0.052030068 0.087261088 0.017194537 -0.010856134 7.071068e-011 7.071068e-011 7.071068e-011 7.071068e-011
7104000000 0.14873403 0.017521756 0.0045280932 0.019764872 7.071068e-011 7.071068e-011 7.071068e-011 7.071068e-011
7112400000 0.056906223 -0.046465442 -0.020495428 -0.0023519492 7.071068e-011 7.071068e-011 7.071068e-011 7.071068e-011
7120800000 0.030842055 0.028224425 0.0085386652 -0.019022163 7.071068e-011 7.071068e-011 7.071068e-011 7.071068e-011
7129200000 0.089000255 0.019029748 0.0149737 0.013939153 7.071068e-011 7.071068e-011 7.071068e-011 7.071068e-011
7137600000 0.047548644 -0.038036436 -0.018533373 0.0095531996 7.071068e-011 7.071068e-011 7.071068e-011 7.071068e-011
7146000000 -0.00015857274 0.0096465582 -0.003302413 -0.020761536 7.071068e-011 7.071068e-011 7.071068e-011 7.071068e-011
7154400000 0.028106285 0.041899558 0.02055118 0.0035214294 7.071068e-011 7.071068e-011 7.071068e-011 7.071068e-011
7162800000 0.046251576 0.017206756 -0.010114762 0.017926067 7.071068e-011 7.071068e-011 7.071068e-011 7.071068e-011
7171200000 0.0034894159 0.017808616 -0.013779938 -0.015558375 7.071068e-011 7.071068e-011 7.071068e-011 7.071068e-011
7179600000 0.014678494 0.070108093 0.018988928 -0.0078911865 7.071068e-011 7.071068e-011 7.071068e-011 7.071068e-011
7188000000 0.066415362 0.059951551 0.00087099092 0.020824915 7.071068e-011 7.071068e-011 7.071068e-011 7.071068e-011
7196400000 0.043885648 0.010217975 -0.020000173 -0.0058210795 7.071068e-011 7.071068e-011 7.071068e-011 7.071068e-011
7204800000 0.010088068 0.062559113 0.012163322 -0.016334137 7.071068e-011 7.071068e-011 7.071068e-011 7.071068e-011
7213200000 0.078983113 0.071518183 0.011319907 0.017194027 7.071068e-011 7.071068e-011 7.071068e-011 7.071068e-011
7221600000 0.071852535 -0.002568587 -0.020138798 0.0050941943 7.071068e-011 7.071068e-011 7.071068e-011 7.071068e-011
7230000000 -0.00074714771 0.028564066 0.0019329463 -0.020533163 7.071068e-011 7.071068e-011 7.071068e-011 7.071068e-011
7238400000 0.064768478 0.078712672 0.018675042 0.0091526099 7.071068e-011 7.071068e-011 7.071068e-011 7.071068e-011
7246800000 0.081209496 -0.0093809776 -0.014822003 0.014656024 7.071068e-011 7.071068e-011 7.071068e-011 7.071068e-011
7255200000 -0.012961211 -1.6136193e-005 -0.008432677 -0.018789085 7.071068e-011 7.071068e-011 7.071068e-011 7.071068e-011
7263600000 0.026860064 0.084057733 0.020774744 -0.0016385199 7.071068e-011 7.071068e-011 7.071068e-011 7.071068e-011
7272000000 0.078647092 0.0080455597 -0.0052659139 0.01997387 7.071068e-011 7.071068e-011 7.071068e-011 7.071068e-011
7280400000 -0.023480209 -0.0062795319 -0.016857369 -0.011880235 7.071068e-011 7.071068e-011 7.071068e-011 7.071068e-011
7288800000 -0.0089872386 0.10309768 0.017265439 -0.011485108 7.071068e-011 7.071068e-011 7.071068e-011 7.071068e-011
7297200000 0.0848637 0.059957501 0.0049019982 0.020215284 7.071068e-011 7.071068e-011 7.071068e-011 7.071068e-011
7305600000 0.0088232514 0.0044139372 -0.02048693 -0.0025293694 7.071068e-011 7.071068e-011 7.071068e-011 7.071068e-011
7314000000 -0.0040620654 0.10613941 0.0094537558 -0.018803041 7.071068e-011 7.071068e-011 7.071068e-011 7.071068e-011
7322400000 0.1086727 0.0857132 0.014262964 0.015032944 7.071068e-011 7.071068e-011 7.071068e-011 7.071068e-011
7330800000 0.060458913 -0.011706661 -0.019413222 0.0077181286 7.071068e-011 7.071068e-011 7.071068e-011 7.071068e-011
7339200000 0.0040326747 0.060678467 -0.00067260378 -0.021253496 7.071068e-011 7.071068e-011 7.071068e-011 7.071068e-011
7347600000 0.099076167 0.072201058 0.020028293 0.0064877942 7.071068e-011 7.071068e-011 7.071068e-011 7.071068e-011
7356000000 0.076136425 -0.033555672 -0.013131191 0.016239138 7.071068e-011 7.071068e-011 7.071068e-011 7.071068e-011
7364400000 -0.010132107 0.012268808 -0.010845192 -0.018198397 7.071068e-011 7.071068e-011 7.071068e-011 7.071068e-011
7372800000 0.054539911 0.054784473 0.020593788 -0.0039526443 7.071068e-011 7.071068e-011 7.071068e-011 7.071068e-011
7381200000 0.05305846 -0.030832434 -0.003966968 0.020779746 7.071068e-011 7.071068e-011 7.071068e-011 7.071068e-011
7389600000 -0.040858943 0.00045620062 -0.018257543 -0.010894359 7.071068e-011 7.071068e-011 7.071068e-011 7.071068e-011
7398000000 0.0054023508 0.072020382 0.016557032 -0.013031013 7.071068e-011 7.071068e-011 7.071068e-011 7.071068e-011
7406400000 0.03304654 0.014960513 0.0063778698 0.02021759 7.071068e-011 7.071068e-011 7.071068e-011 7.071068e-011
7414800000 -0.037967656 0.027203241 -0.021349886 -0.0010280192 7.071068e-011 7.071068e-011 7.071068e-011 7.071068e-011
7423200000 -0.0018009315 0.10355649 0.0083607817 -0.019592941 7.071068e-011 7.071068e-011 7.071068e-011 7.071068e-011
7431600000 0.055585656 0.060738776 0.015272996 0.014934261 7.071068e-011 7.071068e-011 7.071068e-011 7.071068e-011
7440000000 0.013399952 0.038322784 -0.019353392 0.0092571434 7.071068e-011 7.071068e-011 7.071068e-011 7.071068e-011
7448400000 0.024027307 0.085574724 -0.001749289 -0.021144271 7.071068e-011 7.071068e-011 7.071068e-011 7.071068e-011
7456800000 0.077462271 0.05543321 0.02042309 0.0059395479 7.071068e-011 7.071068e-011 7.071068e-011 7.071068e-011
7465200000 0.046154484 0.013899021 -0.012763168 0.01709247 7.071068e-011 7.071068e-011 7.071068e-011 7.071068e-011
7473600000 0.028551772 0.03691344 -0.011436451 -0.017796401 7.071068e-011 7.071068e-011 7.071068e-011 7.071068e-011
7482000000 0.05830821 0.0332634 0.020656493 -0.0040923012 7.071068e-011 7.071068e-011 7.071068e-011 7.071068e-011
7490400000 0.043683019 -0.010794557 -0.0035184841 0.020835217 7.071068e-011 7.071068e-011 7.071068e-011 7.071068e-011
7498800000 -0.00074785057 -0.0016045779 -0.018055877 -0.010636343 7.071068e-011 7.071068e-011 7.071068e-011 7.071068e-011
7507200000 0.00044412602 0.030955167 0.016374651 -0.013067223 7.071068e-011 7.071068e-011 7.071068e-011 7.071068e-011
7515600000 0.020676784 0.015414167 0.0063245157 0.019857503 7.071068e-011 7.071068e-011 7.071068e-011 7.071068e-011
7524000000 -0.021013856 0.0031043659 -0.020680061 -0.0012743351 7.071068e-011 7.071068e-011 7.071068e-011 7.071068e-011
7532400000 -0.034163505 0.060013842 0.0087365527 -0.018730991 7.071068e-011 7.071068e-011 7.071068e-011 7.071068e-011
7540800000 0.022677736 0.073303647 0.014410406 0.014734369 7.071068e-011 7.071068e-011 7.071068e-011 7.071068e-011
7549200000 0.019618558 0.022368073 -0.018587353 0.0077877119 7.071068e-011 7.071068e-011 7.071068e-011 7.071068e-011
7557600000 -0.018458113 0.060908701 -0.00036839701 -0.020257642 7.071068e-011 7.071068e-011 7.071068e-011 7.071068e-011
7566000000 0.04780649 0.083666131 0.018851018 0.0069522429 7.071068e-011 7.071068e-011 7.071068e-011 7.071068e-011
7574400000 0.061010033 0.0078499448 -0.013524316 0.014847141 7.071068e-011 7.071068e-011 7.071068e-011 7.071068e-011
7582800000 -0.0099249762 0.015315349 -0.0088685909 -0.018031787 7.071068e-011 7.071068e-011 7.071068e-011 7.071068e-011
7591200000 0.036609378 0.064377166 0.019773489 -0.0017742903 7.071068e-011 7.071068e-011 7.071068e-011 7.071068e-011
7599600000 0.059212148 -0.015011953 -0.0057277833 0.018678587 7.071068e-011 7.071068e-011 7.071068e-011 7.071068e-011
7608000000 -0.030901646 -0.020631189 -0.015479247 -0.012650682 7.071068e-011 7.071068e-011 7.071068e-011 7.071068e-011
7616400000 -0.015089653 0.056713637 0.017219191 -0.010018338 7.071068e-011 7.071068e-011 7.071068e-011 7.071068e-011
7624800000 0.031555247 0.0051795598 0.0026882358 0.019572068 7.071068e-011 7.071068e-011 7.071068e-011 7.071068e-011
7633200000 -0.052622084 -0.0063325246 -0.019131195 -0.0046772612 7.071068e-011 7.071068e-011 7.071068e-011 7.071068e-011
7641600000 -0.038418289 0.08684095 0.011415888 -0.015872225 7.071068e-011 7.071068e-011 7.071068e-011 7.071068e-011
7650000000 0.037775792 0.053191561 0.010474183 0.016606336 7.071068e-011 7.071068e-011 7.071068e-011 7.071068e-011
7658400000 -0.020862669 0.011663522 -0.01954234 0.0037392771 7.071068e-011 7.071068e-011 7.071068e-011 7.071068e-011
7666800000 -0.022828033 0.095764019 0.0034802968 -0.019274803 7.071068e-011 7.071068e-011 7.071068e-011 7.071068e-011
7675200000 0.069543608 0.071737595 0.016158998 0.010780037 7.071068e-011 7.071068e-011 7.071068e-011 7.071068e-011
7683600000 0.032084502 -0.0040683174 -0.016284183 0.011262581 7.071068e-011 7.071068e-011 7.071068e-011 7.071068e-011
7692000000 -0.0053188605 0.046808828 -0.0045599565 -0.019158946 7.071068e-011 7.071068e-011 7.071068e-011 7.071068e-011
7700400000 0.065708116 0.043935355 0.019466655 0.0028424403 7.071068e-011 7.071068e-011 7.071068e-011 7.071068e-011
7708800000 0.035754025 -0.039780155 -0.010008062 0.016935566 7.071068e-011 7.071068e-011 7.071068e-011 7.071068e-011
7717200000 -0.033718064 0.0006914878 -0.012023684 -0.015654063 7.071068e-011 7.071068e-011 7.071068e-011 7.071068e-011
7725600000 0.016850673 0.033825487 0.019009428 -0.0050974251 7.071068e-011 7.071068e-011 7.071068e-011 7.071068e-011
7734000000 0.014057594 -0.035594754 -0.0021602274 0.019762192 7.071068e-011 7.071068e-011 7.071068e-011 7.071068e-011
7742400000 -0.070671044 -0.012326396 -0.017301783 -0.0091899484 7.071068e-011 7.071068e-011 7.071068e-011 7.071068e-011
7750800000 -0.040701527 0.062389366 0.015237806 -0.012548405 7.071068e-011 7.071068e-011 7.071068e-011 7.071068e-011
7759200000 0.0015747588 0.025402326 0.0060151485 0.01890602 7.071068e-011 7.071068e-011 7.071068e-011 7.071068e-011
7767600000 -0.053297784 0.019382775 -0.019791208 -0.001486327 7.071068e-011 7.071068e-011 7.071068e-011 7.071068e-011
7776000000 -0.037863225 0.090982206 0.008760741 -0.017629668 7.071068e-011 7.071068e-011 7.071068e-011 7.071068e-011
7784400000 0.031515371 0.068067297 0.01311031 0.014777484 7.071068e-011 7.071068e-011 7.071068e-011 7.071068e-011
7792800000 0.0012674481 0.024784826 -0.01847584 0.0065258439 7.071068e-011 7.071068e-011 7.071068e-011 7.071068e-011
7801200000 -0.0075946748 0.070175201 0.0011101002 -0.019856771 7.071068e-011 7.071068e-011 7.071068e-011 7.071068e-011
7809600000 0.053026967 0.058491722 0.018051796 0.0082326606 7.071068e-011 7.071068e-011 7.071068e-011 7.071068e-011
7818000000 0.035439573 -0.0042632381 -0.014428362 0.013327025 7.071068e-011 7.071068e-011 7.071068e-011 7.071068e-011
7826400000 -0.005581398 0.020707663 -0.0069853864 -0.01846822 7.071068e-011 7.071068e-011 7.071068e-011 7.071068e-011
7834800000 0.0325041 0.031698734 0.019740013 0.00045653136 7.071068e-011 7.071068e-011 7.071068e-011 7.071068e-011
7843200000 0.025362322 -0.019731659 -0.0078687053 0.018169455 7.071068e-011 7.071068e-011 7.071068e-011 7.071068e-011
7851600000 -0.026855754 -0.0046180687 -0.013868835 -0.01420289 7.071068e-011 7.071068e-011 7.071068e-011 7.071068e-011
7860000000 -0.0040985332 0.030755796 0.018281279 -0.0075710593 7.071068e-011 7.071068e-011 7.071068e-011 7.071068e-011
7868400000 0.010300519 -0.0034842733 -7.3145609e-005 0.019734809 7.071068e-011 7.071068e-011 7.071068e-011 7.071068e-011
7876800000 -0.03610269 -0.0038013132 -0.018481743 -0.0074942908 7.071068e-011 7.071068e-011 7.071068e-011 7.071068e-011
7885200000 -0.030652571 0.043378975 0.01368464 -0.014337364 7.071068e-011 7.071068e-011 7.071068e-011 7.071068e-011
7893600000 0.0088510755 0.036293391 0.0079731224 0.017876739 7.071068e-011 7.071068e-011 7.071068e-011 7.071068e-011
7902000000 -0.0082313875 0.009215272 -0.019664384 0.00037690715 7.071068e-011 7.071068e-011 7.071068e-011 7.071068e-011
7910400000 -0.021463219 0.039086767 0.0069540739 -0.018520733 7.071068e-011 7.071068e-011 7.071068e-011 7.071068e-011
7918800000 0.017132785 0.048960701 0.014348783 0.013222777 7.071068e-011 7.071068e-011 7.071068e-011 7.071068e-011
7927200000 0.028528247 0.0074351043 -0.01767038 0.0081825508 7.071068e-011 7.071068e-011 7.071068e-011 7.071068e-011
7935600000 -0.0078966459 0.0057698963 -0.00083780504 -0.019329499 7.071068e-011 7.071068e-011 7.071068e-011 7.071068e-011
7944000000 0.010822684 0.033148091 0.018159447 0.0067035411 7.071068e-011 7.071068e-011 7.071068e-011 7.071068e-011
7952400000 0.037599865 -0.0054792985 -0.013137558 0.014215319 7.071068e-011 7.071068e-011 7.071068e-011 7.071068e-011
7960800000 -0.015001958 -0.033515487 -0.0082626091 -0.017475722 7.071068e-011 7.071068e-011 7.071068e-011 7.071068e-011
7969200000 -0.029281806 0.020864762 0.019018393 -0.00089181267 7.071068e-011 7.071068e-011 7.071068e-011 7.071068e-011
7977600000 0.020051979 0.0068279672 -0.0065600672 0.01789695 7.071068e-011 7.071068e-011 7.071068e-011 7.071068e-011
7986000000 -0.024207817 -0.039707754 -0.014075878 -0.012850793 7.071068e-011 7.071068e-011 7.071068e-011 7.071068e-011
7994400000 -0.065319471 0.024702068 0.017152065 -0.0081261573 7.071068e-011 7.071068e-011 7.071068e-011 7.071068e-011
