!Keysight Technologies,N5235B,MY61252044,A.15.00.15
!Date: Friday, January 20, 2023 23:13:49
!Correction: S11(Off) 
!S21(Off) 
!S12(Off) 
!S22(Off) 
!S2P File: Measurements: S11, S21, S12, S22:
# Hz S  RI   R 50
6600000000 0.018444829 -0.17516643 0.01546192 -0.0030397153 7.071068e-011 7.071068e-011 7.071068e-011 7.071068e-011
6608408408.4084 -0.12445284 0.16566113 0.0053029316 0.010838573 7.071068e-011 7.071068e-011 7.071068e-011 7.071068e-011
6616816816.8168 0.3060126 0.092555478 -0.0089139445 0.0036884269 7.071068e-011 7.071068e-011 7.071068e-011 7.071068e-011
6625225225.2252 0.024466451 -0.27294242 -0.0017779279 -0.0093060555 7.071068e-011 7.071068e-011 7.071068e-011 7.071068e-011
6633633633.6336 -0.16561718 0.1615378 0.0093380967 -0.00038403677 7.071068e-011 7.071068e-011 7.071068e-011 7.071068e-011
6642042042.042 0.28997168 0.11303366 -0.0018596726 0.0093190093 7.071068e-011 7.071068e-011 7.071068e-011 7.071068e-011
6650450450.4505 0.039000381 -0.25206235 -0.010722258 -0.0040967413 7.071068e-011 7.071068e-011 7.071068e-011 7.071068e-011
6658858858.8589 -0.14834319 0.13448776 0.0059844959 -0.011490418 7.071068e-011 7.071068e-011 7.071068e-011 7.071068e-011
6667267267.2673 0.22855993 0.10117005 0.012198618 0.0091744699 7.071068e-011 7.071068e-011 7.071068e-011 7.071068e-011
6675675675.6757 0.042802092 -0.15110746 -0.011545706 0.013816294 7.071068e-011 7.071068e-011 7.071068e-011 7.071068e-011
6684084084.0841 -0.044370793 0.084218621 -0.014589865 -0.013362016 7.071068e-011 7.071068e-011 7.071068e-011 7.071068e-011
6692492492.4925 0.10583837 0.047458448 0.014828393 -0.014911255 7.071068e-011 7.071068e-011 7.071068e-011 7.071068e-011
6700900900.9009 0.085938342 0.01829716 0.014757054 0.015425871 7.071068e-011 7.071068e-011 7.071068e-011 7.071068e-011
6709309309.3093 0.077210322 -0.04185218 -0.015561652 0.013101154 7.071068e-011 7.071068e-011 7.071068e-011 7.071068e-011
6717717717.7177 -0.031149879 0.034372948 -0.010134735 -0.016486397 7.071068e-011 7.071068e-011 7.071068e-011 7.071068e-011
6726126126.1261 0.15507786 0.11625434 0.016806237 -0.0070772232 7.071068e-011 7.071068e-011 7.071068e-011 7.071068e-011
6734534534.5345 0.12858456 -0.14063609 0.003551183 0.016234202 7.071068e-011 7.071068e-011 7.071068e-011 7.071068e-011
6742942942.9429 -0.10785226 0.026660161 -0.015911488 -0.00028286831 7.071068e-011 7.071068e-011 7.071068e-011 7.071068e-011
6751351351.3514 0.17150326 0.15256764 0.0036218662 -0.015368956 7.071068e-011 7.071068e-011 7.071068e-011 7.071068e-011
6759759759.7598 0.1506696 -0.17154266 0.013179078 0.0070720352 7.071068e-011 7.071068e-011 7.071068e-011 7.071068e-011
6768168168.1682 -0.14689544 -0.005499742 -0.010859167 0.010403708 7.071068e-011 7.071068e-011 7.071068e-011 7.071068e-011
6776576576.5766 0.13402422 0.17890869 -0.0079975538 -0.013474065 7.071068e-011 7.071068e-011 7.071068e-011 7.071068e-011
6784984984.985 0.15119901 -0.14617339 0.01455843 -0.0040109772 7.071068e-011 7.071068e-011 7.071068e-011 7.071068e-011
6793393393.3934 -0.14739411 -0.0066087684 -0.00035283819 0.015521071 7.071068e-011 7.071068e-011 7.071068e-011 7.071068e-011
6801801801.8018 0.10149717 0.20266336 -0.015714759 -0.0043014265 7.071068e-011 7.071068e-011 7.071068e-011 7.071068e-011
6810210210.2102 0.17244965 -0.094887532 0.0086824261 -0.014426012 7.071068e-011 7.071068e-011 7.071068e-011 7.071068e-011
6818618618.6186 -0.10529936 -0.010371136 0.012138343 0.013239119 7.071068e-011 7.071068e-011 7.071068e-011 7.071068e-011
6827027027.027 0.087796189 0.18545371 -0.015963875 0.0092000924 7.071068e-011 7.071068e-011 7.071068e-011 7.071068e-011
6835435435.4354 0.18147448 -0.048737802 -0.0044681691 -0.017895633 7.071068e-011 7.071068e-011 7.071068e-011 7.071068e-011
6843843843.8438 -0.045407575 -0.028054498 0.020167505 0.00025292035 7.071068e-011 7.071068e-011 7.071068e-011 7.071068e-011
6852252252.2523 0.07471972 0.12925412 -0.0045950771 0.020294938 7.071068e-011 7.071068e-011 7.071068e-011 7.071068e-011
6860660660.6607 0.14510582 -0.02024924 -0.018598011 -0.0096167345 7.071068e-011 7.071068e-011 7.071068e-011 7.071068e-011
6869069069.0691 0.0041739154 -0.027048077 0.014520876 -0.016083419 7.071068e-011 7.071068e-011 7.071068e-011 7.071068e-011
6877477477.4775 0.05401925 0.072537467 0.01266745 0.018096197 7.071068e-011 7.071068e-011 7.071068e-011 7.071068e-011
6885885885.8859 0.090365969 0.0069100363 -0.020450123 0.0076961596 7.071068e-011 7.071068e-011 7.071068e-011 7.071068e-011
6894294294.2943 0.047252808 -0.0010138999 -0.0022991567 -0.022011774 7.071068e-011 7.071068e-011 7.071068e-011 7.071068e-011
6902702702.7027 0.038230017 0.019373514 0.02198286 0.0032543344 7.071068e-011 7.071068e-011 7.071068e-011 7.071068e-011
6911111111.1111 0.030997818 0.037653681 -0.0087830815 0.020204172 7.071068e-011 7.071068e-011 7.071068e-011 7.071068e-011
6919519519.5195 0.078278616 0.049932506 -0.016935701 -0.013625512 7.071068e-011 7.071068e-011 7.071068e-011 7.071068e-011
6927927927.9279 0.050755635 -0.012393659 0.017244227 -0.012765738 7.071068e-011 7.071068e-011 7.071068e-011 7.071068e-011
6936336336.3363 -0.0021651476 0.062202122 0.0072643366 0.01947327 7.071068e-011 7.071068e-011 7.071068e-011 7.071068e-011
6944744744.7447 0.11243957 0.089350671 -0.020833043 0.0011413898 7.071068e-011 7.071068e-011 7.071068e-011 7.071068e-011
6953153153.1532 0.084290631 -0.045546491 0.0044894954 -0.019988304 7.071068e-011 7.071068e-011 7.071068e-011 7.071068e-011
6961561561.5616 -0.02831834 0.054461289 0.017328136 0.0099520469 7.071068e-011 7.071068e-011 7.071068e-011 7.071068e-011
6969969969.97 0.12467773 0.10587338 -0.014512452 0.013541567 7.071068e-011 7.071068e-011 7.071068e-011 7.071068e-011
6978378378.3784 0.10166748 -0.070817262 -0.00837682 -0.017368047 7.071068e-011 7.071068e-011 7.071068e-011 7.071068e-011
6986786786.7868 -0.064068541 0.0327859 0.018726269 -0.0022758569 7.071068e-011 7.071068e-011 7.071068e-011 7.071068e-011
6995195195.1952 0.10302269 0.13386956 -0.0035556227 0.018911356 7.071068e-011 7.071068e-011 7.071068e-011 7.071068e-011
7003603603.6036 0.10885828 -0.057928316 -0.016598115 -0.0089053046 7.071068e-011 7.071068e-011 7.071068e-011 7.071068e-011
7012012012.012 -0.072683193 0.03254278 0.014119356 -0.01246547 7.071068e-011 7.071068e-011 7.071068e-011 7.071068e-011
7020420420.4204 0.08809942 0.16139312 0.0077907541 0.017322293 7.071068e-011 7.071068e-011 7.071068e-011 7.071068e-011
7028828828.8288 0.13256827 -0.029070074 -0.018521333 0.0018263941 7.071068e-011 7.071068e-011 7.071068e-011 7.071068e-011
7037237237.2372 -0.053991549 0.030758921 0.0044209748 -0.0186389 7.071068e-011 7.071068e-011 7.071068e-011 7.071068e-011
7045645645.6456 0.090113282 0.170873 0.016442608 0.00979809 7.071068e-011 7.071068e-011 7.071068e-011 7.071068e-011
7054054054.0541 0.16754091 -0.0031480186 -0.01467285 0.012039194 7.071068e-011 7.071068e-011 7.071068e-011 7.071068e-011
7062462462.4625 -0.0081529161 -0.0039365264 -0.0068309358 -0.018468941 7.071068e-011 7.071068e-011 7.071068e-011 7.071068e-011
7070870870.8709 0.078341983 0.14038438 0.019767674 -0.0011947233 7.071068e-011 7.071068e-011 7.071068e-011 7.071068e-011
7079279279.2793 0.16832128 0.0072933175 -0.0055485726 0.018792396 7.071068e-011 7.071068e-011 7.071068e-011 7.071068e-011
7087687687.6877 0.032484081 -0.026931262 -0.016640112 -0.011485088 7.071068e-011 7.071068e-011 7.071068e-011 7.071068e-011
7096096096.0961 0.059564698 0.089272968 0.015939157 -0.012478124 7.071068e-011 7.071068e-011 7.071068e-011 7.071068e-011
7104504504.5045 0.14776431 0.010338004 0.0065326407 0.019136056 7.071068e-011 7.071068e-011 7.071068e-011 7.071068e-011
7112912912.9129 0.050824217 -0.044632293 -0.020638388 -0.00012890577 7.071068e-011 7.071068e-011 7.071068e-011 7.071068e-011
7121321321.3213 0.034416813 0.031915501 0.0063063563 -0.019837383 7.071068e-011 7.071068e-011 7.071068e-011 7.071068e-011
7129729729.7297 0.089302741 0.014446539 0.016443817 0.012075428 7.071068e-011 7.071068e-011 7.071068e-011 7.071068e-011
7138138138.1381 0.04339049 -0.037799291 -0.017183775 0.011695903 7.071068e-011 7.071068e-011 7.071068e-011 7.071068e-011
7146546546.5465 -0.0005174306 0.013642878 -0.0058469232 -0.020117175 7.071068e-011 7.071068e-011 7.071068e-011 7.071068e-011
7154954954.955 0.030668115 0.04130657 0.020799898 0.00085559813 7.071068e-011 7.071068e-011 7.071068e-011 7.071068e-011
7163363363.3634 0.044940896 0.015738202 -0.0076605389 0.019094927 7.071068e-011 7.071068e-011 7.071068e-011 7.071068e-011
7171771771.7718 0.0011850956 0.020270916 -0.015746184 -0.013474933 7.071068e-011 7.071068e-011 7.071068e-011 7.071068e-011
7180180180.1802 0.018468779 0.072539888 0.017620025 -0.010390643 7.071068e-011 7.071068e-011 7.071068e-011 7.071068e-011
7188588588.5886 0.067776233 0.056136195 0.0038796477 0.02044582 7.071068e-011 7.071068e-011 7.071068e-011 7.071068e-011
7196996996.997 0.039865412 0.010120358 -0.020604469 -0.0027411515 7.071068e-011 7.071068e-011 7.071068e-011 7.071068e-011
7205405405.4054 0.012302449 0.067133397 0.009543255 -0.017995337 7.071068e-011 7.071068e-011 7.071068e-011 7.071068e-011
7213813813.8138 0.083219446 0.067217074 0.013842599 0.0151891 7.071068e-011 7.071068e-011 7.071068e-011 7.071068e-011
7222222222.2222 0.066200919 -0.0054867575 -0.018985692 0.00822041 7.071068e-011 7.071068e-011 7.071068e-011 7.071068e-011
7230630630.6306 -0.0013032818 0.035132043 -0.0014399164 -0.020490276 7.071068e-011 7.071068e-011 7.071068e-011 7.071068e-011
7239039039.039 0.071531154 0.075586371 0.019948844 0.0058504012 7.071068e-011 7.071068e-011 7.071068e-011 7.071068e-011
7247447447.4474 0.075246967 -0.01481303 -0.012011285 0.016976433 7.071068e-011 7.071068e-011 7.071068e-011 7.071068e-011
7255855855.8559 -0.016601199 0.0073462855 -0.011597622 -0.017012615 7.071068e-011 7.071068e-011 7.071068e-011 7.071068e-011
7264264264.2643 0.034877472 0.08405862 0.020117424 -0.005345522 7.071068e-011 7.071068e-011 7.071068e-011 7.071068e-011
7272672672.6727 0.074379176 0.00064766296 -0.001518724 0.020533035 7.071068e-011 7.071068e-011 7.071068e-011 7.071068e-011
7281081081.0811 -0.029854052 0.00080590806 -0.018722842 -0.0084484909 7.071068e-011 7.071068e-011 7.071068e-011 7.071068e-011
7289489489.4895 -1.7172659e-005 0.10759359 0.014695664 -0.014614907 7.071068e-011 7.071068e-011 7.071068e-011 7.071068e-011
7297897897.8979 0.0849692 0.050666302 0.0088001946 0.018823661 7.071068e-011 7.071068e-011 7.071068e-011 7.071068e-011
7306306306.3063 0.0010820434 0.0088581359 -0.02057294 0.001582406 7.071068e-011 7.071068e-011 7.071068e-011 7.071068e-011
7314714714.7147 0.0040954105 0.11279208 0.0053952755 -0.020288814 7.071068e-011 7.071068e-011 7.071068e-011 7.071068e-011
7323123123.1231 0.11267253 0.075363412 0.017003693 0.011731324 7.071068e-011 7.071068e-011 7.071068e-011 7.071068e-011
7331531531.5315 0.051227625 -0.011831961 -0.017324647 0.0117142 7.071068e-011 7.071068e-011 7.071068e-011 7.071068e-011
7339939939.9399 0.007923794 0.068640359 -0.0053198547 -0.020550096 7.071068e-011 7.071068e-011 7.071068e-011 7.071068e-011
7348348348.3483 0.10547206 0.063664906 0.020919453 0.0019256767 7.071068e-011 7.071068e-011 7.071068e-011 7.071068e-011
7356756756.7568 0.066158324 -0.036980312 -0.0091976952 0.018785281 7.071068e-011 7.071068e-011 7.071068e-011 7.071068e-011
7365165165.1652 -0.010230034 0.020860471 -0.014741082 -0.015187848 7.071068e-011 7.071068e-011 7.071068e-011 7.071068e-011
7373573573.5736 0.061531853 0.049830493 0.019009216 -0.0085678585 7.071068e-011 7.071068e-011 7.071068e-011 7.071068e-011
7381981981.982 0.043962911 -0.035374995 0.0010718105 0.021116432 7.071068e-011 7.071068e-011 7.071068e-011 7.071068e-011
7390390390.3904 -0.043090355 0.009665628 -0.02033191 -0.0061549647 7.071068e-011 7.071068e-011 7.071068e-011 7.071068e-011
7398798798.7988 0.012976857 0.071220323 0.012887639 -0.016699804 7.071068e-011 7.071068e-011 7.071068e-011 7.071068e-011
7407207207.2072 0.027930286 0.0098398337 0.011190956 0.017978478 7.071068e-011 7.071068e-011 7.071068e-011 7.071068e-011
7415615615.6156 -0.040929005 0.035347406 -0.02086987 0.0043962388 7.071068e-011 7.071068e-011 7.071068e-011 7.071068e-011
7424024024.024 0.0067523955 0.10500593 0.0030527082 -0.021034431 7.071068e-011 7.071068e-011 7.071068e-011 7.071068e-011
7432432432.4324 0.054720167 0.054145116 0.018675957 0.010411995 7.071068e-011 7.071068e-011 7.071068e-011 7.071068e-011
7440840840.8408 0.0098123709 0.042328462 -0.016130418 0.014058001 7.071068e-011 7.071068e-011 7.071068e-011 7.071068e-011
7449249249.2492 0.030244473 0.087101847 -0.0073322002 -0.019866392 7.071068e-011 7.071068e-011 7.071068e-011 7.071068e-011
7457657657.6577 0.07795497 0.048990574 0.021251874 0.00016533372 7.071068e-011 7.071068e-011 7.071068e-011 7.071068e-011
7466066066.0661 0.041763913 0.01406398 -0.0075102202 0.019933861 7.071068e-011 7.071068e-011 7.071068e-011 7.071068e-011
7474474474.4745 0.030499147 0.03929821 -0.015937814 -0.013825646 7.071068e-011 7.071068e-011 7.071068e-011 7.071068e-011
7482882882.8829 0.059855722 0.029117938 0.018623542 -0.0098010795 7.071068e-011 7.071068e-011 7.071068e-011 7.071068e-011
7491291291.2913 0.03893074 -0.013375502 0.0026502826 0.020922648 7.071068e-011 7.071068e-011 7.071068e-011 7.071068e-011
7499699699.6997 -0.0033337877 0.0023828789 -0.020357098 -0.004918057 7.071068e-011 7.071068e-011 7.071068e-011 7.071068e-011
7508108108.1081 0.0032729798 0.031944282 0.011743296 -0.017314972 7.071068e-011 7.071068e-011 7.071068e-011 7.071068e-011
7516516516.5165 0.01939659 0.011958362 0.011990952 0.016983829 7.071068e-011 7.071068e-011 7.071068e-011 7.071068e-011
7524924924.9249 -0.026380673 0.0065815211 -0.020021923 0.0050748587 7.071068e-011 7.071068e-011 7.071068e-011 7.071068e-011
7533333333.3333 -0.029829938 0.065968089 0.0025386424 -0.020492984 7.071068e-011 7.071068e-011 7.071068e-011 7.071068e-011
7541741741.7417 0.027829461 0.068894379 0.01824645 0.0094840704 7.071068e-011 7.071068e-011 7.071068e-011 7.071068e-011
7550150150.1502 0.013051084 0.0205852 -0.01521082 0.013214629 7.071068e-011 7.071068e-011 7.071068e-011 7.071068e-011
7558558558.5586 -0.015351223 0.068416797 -0.0068448554 -0.019031744 7.071068e-011 7.071068e-011 7.071068e-011 7.071068e-011
7566966966.967 0.055599377 0.078129053 0.019990725 0.00048991141 7.071068e-011 7.071068e-011 7.071068e-011 7.071068e-011
7575375375.3754 0.053603906 0.00096655393 -0.0079154707 0.018447928 7.071068e-011 7.071068e-011 7.071068e-011 7.071068e-011
7583783783.7838 -0.011874801 0.023976002 -0.01438614 -0.014079005 7.071068e-011 7.071068e-011 7.071068e-011 7.071068e-011
7592192192.1922 0.045447104 0.060636543 0.018001163 -0.0083014267 7.071068e-011 7.071068e-011 7.071068e-011 7.071068e-011
7600600600.6006 0.051803946 -0.024308732 0.00086271286 0.019474359 7.071068e-011 7.071068e-011 7.071068e-011 7.071068e-011
7609009009.009 -0.037955023 -0.01083925 -0.018868018 -0.0065444848 7.071068e-011 7.071068e-011 7.071068e-011 7.071068e-011
7617417417.4174 -0.005224315 0.058128491 0.012626536 -0.015304621 7.071068e-011 7.071068e-011 7.071068e-011 7.071068e-011
7625825825.8258 0.026439924 -0.0040417602 0.0094108144 0.017396478 7.071068e-011 7.071068e-011 7.071068e-011 7.071068e-011
7634234234.2342 -0.06060686 0.0039193612 -0.019540463 0.0024332975 7.071068e-011 7.071068e-011 7.071068e-011 7.071068e-011
7642642642.6426 -0.026657799 0.091639616 0.0049970662 -0.018889351 7.071068e-011 7.071068e-011 7.071068e-011 7.071068e-011
7651051051.0511 0.037559077 0.042542901 0.015735399 0.011708156 7.071068e-011 7.071068e-011 7.071068e-011 7.071068e-011
7659459459.4595 -0.029761622 0.018083401 -0.016774302 0.010647318 7.071068e-011 7.071068e-011 7.071068e-011 7.071068e-011
7667867867.8679 -0.01161825 0.10240304 -0.0038780828 -0.019114248 7.071068e-011 7.071068e-011 7.071068e-011 7.071068e-011
7676276276.2763 0.073828705 0.059078876 0.01908239 0.0039720419 7.071068e-011 7.071068e-011 7.071068e-011 7.071068e-011
7684684684.6847 0.021488536 -0.0039427648 -0.010778377 0.016603066 7.071068e-011 7.071068e-011 7.071068e-011 7.071068e-011
7693093093.0931 0.00061231927 0.054320976 -0.011463705 -0.01596728 7.071068e-011 7.071068e-011 7.071068e-011 7.071068e-011
7701501501.5015 0.071036741 0.032652684 0.019019581 -0.004822311 7.071068e-011 7.071068e-011 7.071068e-011 7.071068e-011
7709909909.9099 0.023417063 -0.042504705 -0.0026212365 0.019504568 7.071068e-011 7.071068e-011 7.071068e-011 7.071068e-011
7718318318.3183 -0.033207528 0.010787561 -0.017203381 -0.009599437 7.071068e-011 7.071068e-011 7.071068e-011 7.071068e-011
7726726726.7267 0.024362991 0.027851675 0.015447037 -0.012227118 7.071068e-011 7.071068e-011 7.071068e-011 7.071068e-011
7735135135.1351 0.0029205522 -0.041247714 0.0059244051 0.018951582 7.071068e-011 7.071068e-011 7.071068e-011 7.071068e-011
7743543543.5435 -0.074975997 -0.0003125415 -0.019524939 -0.0014673638 7.071068e-011 7.071068e-011 7.071068e-011 7.071068e-011
7751951951.952 -0.030487321 0.064326085 0.0087307794 -0.017677639 7.071068e-011 7.071068e-011 7.071068e-011 7.071068e-011
7760360360.3604 -0.0025702352 0.017524542 0.013242313 0.014662716 7.071068e-011 7.071068e-011 7.071068e-011 7.071068e-011
7768768768.7688 -0.058274027 0.028344834 -0.018584449 0.0068608848 7.071068e-011 7.071068e-011 7.071068e-011 7.071068e-011
7777177177.1772 -0.027339708 0.095546998 0.00059630239 -0.019716538 7.071068e-011 7.071068e-011 7.071068e-011 7.071068e-011
7785585585.5856 0.03388343 0.058093116 0.018122785 0.0078230733 7.071068e-011 7.071068e-011 7.071068e-011 7.071068e-011
7793993993.994 -0.0055108233 0.027741846 -0.013910576 0.013685674 7.071068e-011 7.071068e-011 7.071068e-011 7.071068e-011
7802402402.4024 -0.0005145407 0.074852049 -0.0075688362 -0.018373627 7.071068e-011 7.071068e-011 7.071068e-011 7.071068e-011
7810810810.8108 0.057980776 0.048992071 0.019772926 -0.00044532077 7.071068e-011 7.071068e-011 7.071068e-011 7.071068e-011
7819219219.2192 0.026119014 -0.0064429562 -0.0071451124 0.018327869 7.071068e-011 7.071068e-011 7.071068e-011 7.071068e-011
7827627627.6276 -0.0036851631 0.026757121 -0.0144015 -0.013459803 7.071068e-011 7.071068e-011 7.071068e-011 7.071068e-011
7836036036.036 0.037468057 0.025835332 0.017845025 -0.0083371364 7.071068e-011 7.071068e-011 7.071068e-011 7.071068e-011
7844444444.4444 0.016608763 -0.023774995 0.0011096869 0.019717615 7.071068e-011 7.071068e-011 7.071068e-011 7.071068e-011
7852852852.8529 -0.028292634 0.0029401125 -0.018789029 -0.0063569322 7.071068e-011 7.071068e-011 7.071068e-011 7.071068e-011
7861261261.2613 0.0016490461 0.029536624 0.012774198 -0.015040636 7.071068e-011 7.071068e-011 7.071068e-011 7.071068e-011
7869669669.6697 0.0055228844 -0.0091986414 0.0090049077 0.017559128 7.071068e-011 7.071068e-011 7.071068e-011 7.071068e-011
7878078078.0781 -0.04035522 0.0033386145 -0.019804934 0.0019580971 7.071068e-011 7.071068e-011 7.071068e-011 7.071068e-011
7886486486.4865 -0.024487136 0.046905253 0.005391086 -0.019012623 7.071068e-011 7.071068e-011 7.071068e-011 7.071068e-011
7894894894.8949 0.010927406 0.030353954 0.015399765 0.011993219 7.071068e-011 7.071068e-011 7.071068e-011 7.071068e-011
7903303303.3033 -0.013454236 0.011059147 -0.017089101 0.0096883923 7.071068e-011 7.071068e-011 7.071068e-011 7.071068e-011
7911711711.7117 -0.017879508 0.043901049 -0.0027563043 -0.019483753 7.071068e-011 7.071068e-011 7.071068e-011 7.071068e-011
7920120120.1201 0.023066154 0.044929091 0.018891735 0.0047299089 7.071068e-011 7.071068e-011 7.071068e-011 7.071068e-011
7928528528.5285 0.023667583 0.0019745312 -0.011459162 0.015719505 7.071068e-011 7.071068e-011 7.071068e-011 7.071068e-011
7936936936.9369 -0.0099466667 0.011105746 -0.010145335 -0.016388545 7.071068e-011 7.071068e-011 7.071068e-011 7.071068e-011
7945345345.3453 0.017761489 0.032124829 0.019018523 -0.0030803531 7.071068e-011 7.071068e-011 7.071068e-011 7.071068e-011
