!Keysight Technologies,N5235B,MY61252044,A.15.00.15
!Date: Friday, January 20, 2023 23:18:19
!Correction: S11(Off) 
!S21(Off) 
!S12(Off) 
!S22(Off) 
!S2P File: Measurements: S11, S21, S12, S22:
# Hz S  RI   R 50
6600000000 0.018444283 -0.17535134 0.015489333 -0.0031020648 7.071068e-011 7.071068e-011 7.071068e-011 7.071068e-011
6608408408.4084 -0.12442672 0.16574316 0.0053545642 0.010846644 7.071068e-011 7.071068e-011 7.071068e-011 7.071068e-011
6616816816.8168 0.30596739 0.092504688 -0.0089206481 0.0037275716 7.071068e-011 7.071068e-011 7.071068e-011 7.071068e-011
6625225225.2252 0.024515469 -0.27285311 -0.0018127296 -0.0093245227 7.071068e-011 7.071068e-011 7.071068e-011 7.071068e-011
6633633633.6336 -0.16562307 0.16139424 0.0093608983 -0.00041939368 7.071068e-011 7.071068e-011 7.071068e-011 7.071068e-011
6642042042.042 0.28989866 0.11317562 -0.001828904 0.0093493192 7.071068e-011 7.071068e-011 7.071068e-011 7.071068e-011
6650450450.4505 0.039103776 -0.25215524 -0.010759728 -0.0040672878 7.071068e-011 7.071068e-011 7.071068e-011 7.071068e-011
6658858858.8589 -0.14843863 0.13455452 0.0059555094 -0.0115375 7.071068e-011 7.071068e-011 7.071068e-011 7.071068e-011
6667267267.2673 0.22863705 0.10110234 0.012254645 0.0091536585 7.071068e-011 7.071068e-011 7.071068e-011 7.071068e-011
6675675675.6757 0.042683601 -0.15101506 -0.011529856 0.013888515 7.071068e-011 7.071068e-011 7.071068e-011 7.071068e-011
6684084084.0841 -0.044176418 0.084117904 -0.014678365 -0.013348467 7.071068e-011 7.071068e-011 7.071068e-011 7.071068e-011
6692492492.4925 0.10557783 0.047563251 0.014808882 -0.015015884 7.071068e-011 7.071068e-011 7.071068e-011 7.071068e-011
6700900900.9009 0.086186215 0.018197412 0.014853697 0.015397474 7.071068e-011 7.071068e-011 7.071068e-011 7.071068e-011
6709309309.3093 0.076990314 -0.041743089 -0.015542535 0.013186048 7.071068e-011 7.071068e-011 7.071068e-011 7.071068e-011
6717717717.7177 -0.030947931 0.034278654 -0.010215157 -0.016480261 7.071068e-011 7.071068e-011 7.071068e-011 7.071068e-011
6726126126.1261 0.15486661 0.11630777 0.016817758 -0.0071518947 7.071068e-011 7.071068e-011 7.071068e-011 7.071068e-011
6734534534.5345 0.12878966 -0.14061171 0.0036135849 0.016261755 7.071068e-011 7.071068e-011 7.071068e-011 7.071068e-011
6742942942.9429 -0.10802297 0.026571907 -0.015955059 -0.000225821 7.071068e-011 7.071068e-011 7.071068e-011 7.071068e-011
6751351351.3514 0.17161031 0.15267938 0.0035741101 -0.015421787 7.071068e-011 7.071068e-011 7.071068e-011 7.071068e-011
6759759759.7598 0.15058824 -0.17165253 0.013242974 0.0070400205 7.071068e-011 7.071068e-011 7.071068e-011 7.071068e-011
6768168168.1682 -0.14682682 -0.0053774333 -0.010846109 0.010472234 7.071068e-011 7.071068e-011 7.071068e-011 7.071068e-011
6776576576.5766 0.13397209 0.17876154 -0.0080690756 -0.013475779 7.071068e-011 7.071068e-011 7.071068e-011 7.071068e-011
6784984984.985 0.15120506 -0.14596651 0.014575081 -0.0040754294 7.071068e-011 7.071068e-011 7.071068e-011 7.071068e-011
6793393393.3934 -0.1473203 -0.0068111457 -0.00029532905 0.015558056 7.071068e-011 7.071068e-011 7.071068e-011 7.071068e-011
6801801801.8018 0.10135389 0.20282248 -0.015767394 -0.0042536263 7.071068e-011 7.071068e-011 7.071068e-011 7.071068e-011
6810210210.2102 0.17261344 -0.094982117 0.0086475248 -0.014494838 7.071068e-011 7.071068e-011 7.071068e-011 7.071068e-011
6818618618.6186 -0.10545774 -0.010321982 0.012216906 0.013224764 7.071068e-011 7.071068e-011 7.071068e-011 7.071068e-011
6827027027.027 0.087957293 0.18544105 -0.015966214 0.0092841648 7.071068e-011 7.071068e-011 7.071068e-011 7.071068e-011
6835435435.4354 0.18129386 -0.048764341 -0.0045520952 -0.017920004 7.071068e-011 7.071068e-011 7.071068e-011 7.071068e-011
6843843843.8438 -0.045201249 -0.02795732 0.020217635 0.00017585901 7.071068e-011 7.071068e-011 7.071068e-011 7.071068e-011
6852252252.2523 0.074517742 0.12907828 -0.0045177052 0.020359622 7.071068e-011 7.071068e-011 7.071068e-011 7.071068e-011
6860660660.6607 0.14525613 -0.020015592 -0.01867578 -0.0095597031 7.071068e-011 7.071068e-011 7.071068e-011 7.071068e-011
6869069069.0691 0.004086962 -0.027295817 0.014492352 -0.016167786 7.071068e-011 7.071068e-011 7.071068e-011 7.071068e-011
6877477477.4775 0.054051697 0.072793819 0.012766231 0.018086266 7.071068e-011 7.071068e-011 7.071068e-011 7.071068e-011
6885885885.8859 0.0903892 0.0066740988 -0.020471249 0.0077888817 7.071068e-011 7.071068e-011 7.071068e-011 7.071068e-011
6894294294.2943 0.047157951 -0.00078616553 -0.0023873181 -0.022059815 7.071068e-011 7.071068e-011 7.071068e-011 7.071068e-011
6902702702.7027 0.038397685 0.019176388 0.022052538 0.0031671836 7.071068e-011 7.071068e-011 7.071068e-011 7.071068e-011
6911111111.1111 0.030767564 0.037806239 -0.0087225037 0.020293336 7.071068e-011 7.071068e-011 7.071068e-011 7.071068e-011
6919519519.5195 0.078527831 0.04983956 -0.017031129 -0.013578256 7.071068e-011 7.071068e-011 7.071068e-011 7.071068e-011
6927927927.9279 0.050494239 -0.012362454 0.017222932 -0.012865188 7.071068e-011 7.071068e-011 7.071068e-011 7.071068e-011
6936336336.3363 -0.0019210771 0.062225591 0.0073545133 0.019481 7.071068e-011 7.071068e-011 7.071068e-011 7.071068e-011
6944744744.7447 0.11221179 0.089264594 -0.020871131 0.0012205861 7.071068e-011 7.071068e-011 7.071068e-011 7.071068e-011
6953153153.1532 0.084465675 -0.045377918 0.0044252868 -0.020049699 7.071068e-011 7.071068e-011 7.071068e-011 7.071068e-011
6961561561.5616 -0.028427213 0.054235332 0.017409237 0.0099105472 7.071068e-011 7.071068e-011 7.071068e-011 7.071068e-011
6969969969.97 0.12468633 0.10611376 -0.014493698 0.01363536 7.071068e-011 7.071068e-011 7.071068e-011 7.071068e-011
6978378378.3784 0.10171994 -0.071038358 -0.0084767146 -0.017371478 7.071068e-011 7.071068e-011 7.071068e-011 7.071068e-011
6986786786.7868 -0.064174019 0.032981284 0.01875532 -0.0023671906 7.071068e-011 7.071068e-011 7.071068e-011 7.071068e-011
6995195195.1952 0.10315933 0.13372271 -0.0034824947 0.018963102 7.071068e-011 7.071068e-011 7.071068e-011 7.071068e-011
7003603603.6036 0.10867925 -0.057809055 -0.016666563 -0.0088494141 7.071068e-011 7.071068e-011 7.071068e-011 7.071068e-011
7012012012.012 -0.072464652 0.032490183 0.014096363 -0.012543075 7.071068e-011 7.071068e-011 7.071068e-011 7.071068e-011
7020420420.4204 0.087864444 0.16136821 0.0078701852 0.017330915 7.071068e-011 7.071068e-011 7.071068e-011 7.071068e-011
7028828828.8288 0.13277046 -0.028939141 -0.018558761 0.0019045004 7.071068e-011 7.071068e-011 7.071068e-011 7.071068e-011
7037237237.2372 -0.054130908 0.030572118 0.0043574264 -0.018703565 7.071068e-011 7.071068e-011 7.071068e-011 7.071068e-011
7045645645.6456 0.090161115 0.17107783 0.016525235 0.0097523266 7.071068e-011 7.071068e-011 7.071068e-011 7.071068e-011
7054054054.0541 0.1675635 -0.0033378571 -0.014650618 0.012135321 7.071068e-011 7.071068e-011 7.071068e-011 7.071068e-011
7062462462.4625 -0.0082259951 -0.0037444527 -0.0069278236 -0.018477043 7.071068e-011 7.071068e-011 7.071068e-011 7.071068e-011
7070870870.8709 0.078467883 0.14021486 0.019799905 -0.0012830894 7.071068e-011 7.071068e-011 7.071068e-011 7.071068e-011
7079279279.2793 0.16811962 0.0074359016 -0.0054752459 0.018851733 7.071068e-011 7.071068e-011 7.071068e-011 7.071068e-011
7087687687.6877 0.032743897 -0.026995407 -0.016718354 -0.011438817 7.071068e-011 7.071068e-011 7.071068e-011 7.071068e-011
7096096096.0961 0.059302129 0.089262933 0.015922546 -0.01256544 7.071068e-011 7.071068e-011 7.071068e-011 7.071068e-011
7104504504.5045 0.14797857 0.010440111 0.00662721 0.019149682 7.071068e-011 7.071068e-011 7.071068e-011 7.071068e-011
7112912912.9129 0.050669752 -0.044784475 -0.020684466 -4.3122433e-005 7.071068e-011 7.071068e-011 7.071068e-011 7.071068e-011
7121321321.3213 0.034508236 0.03211166 0.0062385327 -0.01991014 7.071068e-011 7.071068e-011 7.071068e-011 7.071068e-011
7129729729.7297 0.089280516 0.014234773 0.016535616 0.01202851 7.071068e-011 7.071068e-011 7.071068e-011 7.071068e-011
7138138138.1381 0.043327104 -0.037564348 -0.017164296 0.011800603 7.071068e-011 7.071068e-011 7.071068e-011 7.071068e-011
7146546546.5465 -0.00036853843 0.013431397 -0.0059494274 -0.020128842 7.071068e-011 7.071068e-011 7.071068e-011 7.071068e-011
7154954954.955 0.030443454 0.041473605 0.020839557 0.00076011056 7.071068e-011 7.071068e-011 7.071068e-011 7.071068e-011
7163363363.3634 0.045199722 0.015650131 -0.0075886548 0.019160546 7.071068e-011 7.071068e-011 7.071068e-011 7.071068e-011
7171771771.7718 0.00092501484 0.020282036 -0.015826067 -0.013439278 7.071068e-011 7.071068e-011 7.071068e-011 7.071068e-011
7180180180.1802 0.018700201 0.07260178 0.017612463 -0.010485181 7.071068e-011 7.071068e-011 7.071068e-011 7.071068e-011
7188588588.5886 0.067579187 0.056010749 0.0039776755 0.020477587 7.071068e-011 7.071068e-011 7.071068e-011 7.071068e-011
7196996996.997 0.039998569 0.010316745 -0.020666223 -0.0026553385 7.071068e-011 7.071068e-011 7.071068e-011 7.071068e-011
7205405405.4054 0.01225711 0.066900507 0.0094788298 -0.018079953 7.071068e-011 7.071068e-011 7.071068e-011 7.071068e-011
7213813813.8138 0.083155185 0.06746392 0.013944235 0.015150881 7.071068e-011 7.071068e-011 7.071068e-011 7.071068e-011
7222222222.2222 0.066350475 -0.0056951954 -0.018980676 0.0083227763 7.071068e-011 7.071068e-011 7.071068e-011 7.071068e-011
7230630630.6306 -0.001511136 0.035291445 -0.0015343977 -0.020514686 7.071068e-011 7.071068e-011 7.071068e-011 7.071068e-011
7239039039.039 0.071762368 0.075500563 0.020003524 0.0057758833 7.071068e-011 7.071068e-011 7.071068e-011 7.071068e-011
7247447447.4474 0.074993514 -0.014791086 -0.011964727 0.017057875 7.071068e-011 7.071068e-011 7.071068e-011 7.071068e-011
7255855855.8559 -0.016358491 0.0074116867 -0.011689755 -0.017003004 7.071068e-011 7.071068e-011 7.071068e-011 7.071068e-011
7264264264.2643 0.034666952 0.08390259 0.02014045 -0.0054478757 7.071068e-011 7.071068e-011 7.071068e-011 7.071068e-011
7272672672.6727 0.074507259 0.00087095867 -0.0014242125 0.020586662 7.071068e-011 7.071068e-011 7.071068e-011 7.071068e-011
7281081081.0811 -0.029889176 0.00055355136 -0.018800681 -0.0083766123 7.071068e-011 7.071068e-011 7.071068e-011 7.071068e-011
7289489489.4895 -8.6994361e-005 0.10782447 0.014649609 -0.014711955 7.071068e-011 7.071068e-011 7.071068e-011 7.071068e-011
7297897897.8979 0.085103609 0.050470218 0.0089057758 0.018812343 7.071068e-011 7.071068e-011 7.071068e-011 7.071068e-011
7306306306.3063 0.00089147378 0.0090020653 -0.020595193 0.0016719836 7.071068e-011 7.071068e-011 7.071068e-011 7.071068e-011
7314714714.7147 0.0043229628 0.11271803 0.0053192661 -0.020342542 7.071068e-011 7.071068e-011 7.071068e-011 7.071068e-011
7323123123.1231 0.11241844 0.075348824 0.017082566 0.011682989 7.071068e-011 7.071068e-011 7.071068e-011 7.071068e-011
7331531531.5315 0.05147098 -0.011713291 -0.017314134 0.01180977 7.071068e-011 7.071068e-011 7.071068e-011 7.071068e-011
7339939939.9399 0.0077273962 0.068446934 -0.0054264511 -0.020572817 7.071068e-011 7.071068e-011 7.071068e-011 7.071068e-011
7348348348.3483 0.10557478 0.063915715 0.020975888 0.001825839 7.071068e-011 7.071068e-011 7.071068e-011 7.071068e-011
7356756756.7568 0.066150628 -0.037222799 -0.0091214161 0.018869692 7.071068e-011 7.071068e-011 7.071068e-011 7.071068e-011
7365165165.1652 -0.010307435 0.021083025 -0.014840638 -0.015138977 7.071068e-011 7.071068e-011 7.071068e-011 7.071068e-011
7373573573.5736 0.061672378 0.049652562 0.018994279 -0.0086697908 7.071068e-011 7.071068e-011 7.071068e-011 7.071068e-011
7381981981.982 0.043753061 -0.035250541 0.0011652892 0.021143923 7.071068e-011 7.071068e-011 7.071068e-011 7.071068e-011
7390390390.3904 -0.042833451 0.0096234642 -0.020391311 -0.0060791909 7.071068e-011 7.071068e-011 7.071068e-011 7.071068e-011
7398798798.7988 0.012705514 0.071157545 0.01284206 -0.016785579 7.071068e-011 7.071068e-011 7.071068e-011 7.071068e-011
7407207207.2072 0.028160648 0.009995087 0.011295773 0.017968291 7.071068e-011 7.071068e-011 7.071068e-011 7.071068e-011
7415615615.6156 -0.041083042 0.035130057 -0.020896021 0.0045019398 7.071068e-011 7.071068e-011 7.071068e-011 7.071068e-011
7424024024.024 0.0068125613 0.10524922 0.002955205 -0.021094535 7.071068e-011 7.071068e-011 7.071068e-011 7.071068e-011
7432432432.4324 0.054742463 0.053909447 0.018761164 0.010338411 7.071068e-011 7.071068e-011 7.071068e-011 7.071068e-011
7440840840.8408 0.0096988231 0.042542357 -0.016086841 0.014159532 7.071068e-011 7.071068e-011 7.071068e-011 7.071068e-011
7449249249.2492 0.030422794 0.086940132 -0.007436309 -0.01985953 7.071068e-011 7.071068e-011 7.071068e-011 7.071068e-011
7457657657.6577 0.07770662 0.049078651 0.021285266 6.5046297e-005 7.071068e-011 7.071068e-011 7.071068e-011 7.071068e-011
7466066066.0661 0.042029183 0.014076639 -0.0074356589 0.019998614 7.071068e-011 7.071068e-011 7.071068e-011 7.071068e-011
7474474474.4745 0.030247075 0.039192665 -0.016026456 -0.013781591 7.071068e-011 7.071068e-011 7.071068e-011 7.071068e-011
7482882882.8829 0.060041409 0.029300114 0.018617827 -0.0099045634 7.071068e-011 7.071068e-011 7.071068e-011 7.071068e-011
7491291291.2913 0.038818531 -0.01359605 0.0027514412 0.020954695 7.071068e-011 7.071068e-011 7.071068e-011 7.071068e-011
7499699699.6997 -0.0033052193 0.0026199212 -0.020423792 -0.0048274752 7.071068e-011 7.071068e-011 7.071068e-011 7.071068e-011
7508108108.1081 0.0033347334 0.031718828 0.011679708 -0.017404864 7.071068e-011 7.071068e-011 7.071068e-011 7.071068e-011
7516516516.5165 0.019243058 0.012139601 0.012097277 0.016950719 7.071068e-011 7.071068e-011 7.071068e-011 7.071068e-011
7524924924.9249 -0.026157005 0.0064721643 -0.020028694 0.0051812711 7.071068e-011 7.071068e-011 7.071068e-011 7.071068e-011
7533333333.3333 -0.030088404 0.065975085 0.0024440717 -0.02053125 7.071068e-011 7.071068e-011 7.071068e-011 7.071068e-011
7541741741.7417 0.028068036 0.068976931 0.0183152 0.0094102202 7.071068e-011 7.071068e-011 7.071068e-011 7.071068e-011
7550150150.1502 0.012843939 0.020432234 -0.015178796 0.013301934 7.071068e-011 7.071068e-011 7.071068e-011 7.071068e-011
7558558558.5586 -0.01521753 0.068614461 -0.0069431835 -0.019035934 7.071068e-011 7.071068e-011 7.071068e-011 7.071068e-011
7566966966.967 0.055527922 0.077900544 0.020034205 0.00039538753 7.071068e-011 7.071068e-011 7.071068e-011 7.071068e-011
7575375375.3754 0.053572092 0.0012019332 -0.0078430828 0.018522853 7.071068e-011 7.071068e-011 7.071068e-011 7.071068e-011
7583783783.7838 -0.011752334 0.023773754 -0.014486916 -0.014030331 7.071068e-011 7.071068e-011 7.071068e-011 7.071068e-011
7592192192.1922 0.045241956 0.060767755 0.017991519 -0.0084088705 7.071068e-011 7.071068e-011 7.071068e-011 7.071068e-011
7600600600.6006 0.052045424 -0.024334781 0.00096204609 0.019499546 7.071068e-011 7.071068e-011 7.071068e-011 7.071068e-011
7609009009.009 -0.038184613 -0.010906584 -0.018924866 -0.0064586625 7.071068e-011 7.071068e-011 7.071068e-011 7.071068e-011
7617417417.4174 -0.0050377017 0.058267031 0.012570211 -0.015382087 7.071068e-011 7.071068e-011 7.071068e-011 7.071068e-011
7625825825.8258 0.026309645 -0.0042301281 0.0095002158 0.017378138 7.071068e-011 7.071068e-011 7.071068e-011 7.071068e-011
7634234234.2342 -0.060550891 0.0041451133 -0.019564409 0.0025204071 7.071068e-011 7.071068e-011 7.071068e-011 7.071068e-011
7642642642.6426 -0.026633095 0.091400348 0.0049220575 -0.018951444 7.071068e-011 7.071068e-011 7.071068e-011 7.071068e-011
7651051051.0511 0.037428249 0.042768743 0.015829286 0.011655344 7.071068e-011 7.071068e-011 7.071068e-011 7.071068e-011
7659459459.4595 -0.029565373 0.017923426 -0.016752243 0.01075924 7.071068e-011 7.071068e-011 7.071068e-011 7.071068e-011
7667867867.8679 -0.011863167 0.10246533 -0.0039891959 -0.019118972 7.071068e-011 7.071068e-011 7.071068e-011 7.071068e-011
7676276276.2763 0.074050173 0.059124894 0.019123692 0.0038748269 7.071068e-011 7.071068e-011 7.071068e-011 7.071068e-011
7684684684.6847 0.021302985 -0.0040639872 -0.010707657 0.016671276 7.071068e-011 7.071068e-011 7.071068e-011 7.071068e-011
7693093093.0931 0.00073581981 0.054501325 -0.011548339 -0.015932167 7.071068e-011 7.071068e-011 7.071068e-011 7.071068e-011
7701501501.5015 0.07098183 0.032433704 0.019026378 -0.0049117999 7.071068e-011 7.071068e-011 7.071068e-011 7.071068e-011
7709909909.9099 0.023386706 -0.042262323 -0.0025377492 0.01955493 7.071068e-011 7.071068e-011 7.071068e-011 7.071068e-011
7718318318.3183 -0.033077765 0.0105649 -0.017287148 -0.0095367916 7.071068e-011 7.071068e-011 7.071068e-011 7.071068e-011
7726726726.7267 0.024150234 0.028019143 0.01541546 -0.012337119 7.071068e-011 7.071068e-011 7.071068e-011 7.071068e-011
7735135135.1351 0.0031729231 -0.0413226 0.006042154 0.018954346 7.071068e-011 7.071068e-011 7.071068e-011 7.071068e-011
7743543543.5435 -0.075229734 -0.00034135496 -0.019561114 -0.0013579503 7.071068e-011 7.071068e-011 7.071068e-011 7.071068e-011
7751951951.952 -0.030290222 0.064434737 0.0086465757 -0.01774385 7.071068e-011 7.071068e-011 7.071068e-011 7.071068e-011
7760360360.3604 -0.0027154183 0.017354628 0.013330339 0.014611642 7.071068e-011 7.071068e-011 7.071068e-011 7.071068e-011
7768768768.7688 -0.058212847 0.028553085 -0.018575236 0.0069559431 7.071068e-011 7.071068e-011 7.071068e-011 7.071068e-011
7777177177.1772 -0.027318146 0.095307603 0.00050999405 -0.019749526 7.071068e-011 7.071068e-011 7.071068e-011 7.071068e-011
7785585585.5856 0.033747144 0.05830685 0.018192688 0.0077517955 7.071068e-011 7.071068e-011 7.071068e-011 7.071068e-011
7793993993.994 -0.0052991691 0.027594792 -0.013870162 0.013782369 7.071068e-011 7.071068e-011 7.071068e-011 7.071068e-011
7802402402.4024 -0.00077582285 0.074913897 -0.0076819267 -0.018368021 7.071068e-011 7.071068e-011 7.071068e-011 7.071068e-011
7810810810.8108 0.058227591 0.049030501 0.019801671 -0.00055843528 7.071068e-011 7.071068e-011 7.071068e-011 7.071068e-011
7819219219.2192 0.025906153 -0.0065514874 -0.0070506134 0.018391296 7.071068e-011 7.071068e-011 7.071068e-011 7.071068e-011
7827627627.6276 -0.0035366858 0.026932733 -0.014484713 -0.013394844 7.071068e-011 7.071068e-011 7.071068e-011 7.071068e-011
7836036036.036 0.037388813 0.025616553 0.01781833 -0.0084343888 7.071068e-011 7.071068e-011 7.071068e-011 7.071068e-011
7844444444.4444 0.01658589 -0.023536626 0.0012049718 0.019732803 7.071068e-011 7.071068e-011 7.071068e-011 7.071068e-011
7852852852.8529 -0.028171113 0.0027224822 -0.018846679 -0.0062801735 7.071068e-011 7.071068e-011 7.071068e-011 7.071068e-011
7861261261.2613 0.0014442964 0.029684255 0.012726558 -0.015130978 7.071068e-011 7.071068e-011 7.071068e-011 7.071068e-011
7869669669.6697 0.0057669478 -0.0092585776 0.0091172373 0.017545968 7.071068e-011 7.071068e-011 7.071068e-011 7.071068e-011
7878078078.0781 -0.040599145 0.0032984063 -0.01983073 0.0020690162 7.071068e-011 7.071068e-011 7.071068e-011 7.071068e-011
7886486486.4865 -0.024283525 0.047023177 0.0052875145 -0.019074228 7.071068e-011 7.071068e-011 7.071068e-011 7.071068e-011
7894894894.8949 0.010776771 0.030172087 0.015485158 0.011917677 7.071068e-011 7.071068e-011 7.071068e-011 7.071068e-011
7903303303.3033 -0.013391433 0.011292547 -0.017054465 0.0097884946 7.071068e-011 7.071068e-011 7.071068e-011 7.071068e-011
7911711711.7117 -0.017852757 0.043652624 -0.0028603214 -0.01948655 7.071068e-011 7.071068e-011 7.071068e-011 7.071068e-011
7920120120.1201 0.022932183 0.045150101 0.018936217 0.0046450188 7.071068e-011 7.071068e-011 7.071068e-011 7.071068e-011
7928528528.5285 0.023869576 0.0018293014 -0.011400379 0.015796445 7.071068e-011 7.071068e-011 7.071068e-011 7.071068e-011
7936936936.9369 -0.010186273 0.011159153 -0.010248225 -0.016364155 7.071068e-011 7.071068e-011 7.071068e-011 7.071068e-011
