!Keysight Technologies,N5235B,MY61252044,A.15.00.15
!Date: Friday, January 20, 2023 23:55:24
!Correction: S11(Off) 
!S21(Off) 
!S12(Off) 
!S22(Off) 
!S2P File: Measurements: S11, S21, S12, S22:
# Hz S  RI   R 50
6600000000 0.019052716 -0.17541665 0.015453361 -0.003033424 7.071068e-011 7.071068e-011 7.071068e-011 7.071068e-011
6608408408.4084 -0.12498926 0.16506764 0.0052916743 0.010841075 7.071068e-011 7.071068e-011 7.071068e-011 7.071068e-011
6616816816.8168 0.30568197 0.093344934 -0.008915036 0.0036763349 7.071068e-011 7.071068e-011 7.071068e-011 7.071068e-011
6625225225.2252 0.025391376 -0.27296245 -0.0017641066 -0.0093075698 7.071068e-011 7.071068e-011 7.071068e-011 7.071068e-011
6633633633.6336 -0.16610321 0.16071326 0.0093396725 -0.00037152981 7.071068e-011 7.071068e-011 7.071068e-011 7.071068e-011
6642042042.042 0.28948036 0.11379784 -0.0018729838 0.0093173971 7.071068e-011 7.071068e-011 7.071068e-011 7.071068e-011
6650450450.4505 0.039869737 -0.25199559 -0.010718879 -0.0041121286 7.071068e-011 7.071068e-011 7.071068e-011 7.071068e-011
6658858858.8589 -0.14868957 0.13377072 0.0059995763 -0.011487206 7.071068e-011 7.071068e-011 7.071068e-011 7.071068e-011
6667267267.2673 0.2281339 0.10170583 0.012187065 0.0091924332 7.071068e-011 7.071068e-011 7.071068e-011 7.071068e-011
6675675675.6757 0.0433461 -0.15099323 -0.011563374 0.01380543 7.071068e-011 7.071068e-011 7.071068e-011 7.071068e-011
6684084084.0841 -0.044463813 0.083803028 -0.014578104 -0.013379693 7.071068e-011 7.071068e-011 7.071068e-011 7.071068e-011
6692492492.4925 0.10557874 0.047599204 0.014845304 -0.014897673 7.071068e-011 7.071068e-011 7.071068e-011 7.071068e-011
6700900900.9009 0.086011179 0.018471412 0.014739137 0.015440094 7.071068e-011 7.071068e-011 7.071068e-011 7.071068e-011
6709309309.3093 0.077426143 -0.041879103 -0.01557475 0.013080988 7.071068e-011 7.071068e-011 7.071068e-011 7.071068e-011
6717717717.7177 -0.031257849 0.034048747 -0.010111806 -0.016496152 7.071068e-011 7.071068e-011 7.071068e-011 7.071068e-011
6726126126.1261 0.1547237 0.11656184 0.016814029 -0.0070524635 7.071068e-011 7.071068e-011 7.071068e-011 7.071068e-011
6734534534.5345 0.12910071 -0.14042377 0.0035259072 0.016236972 7.071068e-011 7.071068e-011 7.071068e-011 7.071068e-011
6742942942.9429 -0.10792597 0.026040737 -0.015911356 -0.00030781399 7.071068e-011 7.071068e-011 7.071068e-011 7.071068e-011
6751351351.3514 0.17096616 0.1529271 0.0036476075 -0.015362788 7.071068e-011 7.071068e-011 7.071068e-011 7.071068e-011
6759759759.7598 0.15122616 -0.17119503 0.013168696 0.007091586 7.071068e-011 7.071068e-011 7.071068e-011 7.071068e-011
6768168168.1682 -0.14683545 -0.0061804405 -0.010877393 0.010387524 7.071068e-011 7.071068e-011 7.071068e-011 7.071068e-011
6776576576.5766 0.1333763 0.17917071 -0.0079748714 -0.013488775 7.071068e-011 7.071068e-011 7.071068e-011 7.071068e-011
6784984984.985 0.15171236 -0.14570987 0.014565584 -0.0039887256 7.071068e-011 7.071068e-011 7.071068e-011 7.071068e-011
6793393393.3934 -0.14722541 -0.0072688991 -0.00037952879 0.015519137 7.071068e-011 7.071068e-011 7.071068e-011 7.071068e-011
6801801801.8018 0.10083587 0.20281447 -0.015708867 -0.0043281773 7.071068e-011 7.071068e-011 7.071068e-011 7.071068e-011
6810210210.2102 0.17286108 -0.09439601 0.008703161 -0.014413232 7.071068e-011 7.071068e-011 7.071068e-011 7.071068e-011
6818618618.6186 -0.10508254 -0.010919418 0.012114412 0.013260046 7.071068e-011 7.071068e-011 7.071068e-011 7.071068e-011
6827027027.027 0.087260887 0.18548614 -0.015976958 0.0091753872 7.071068e-011 7.071068e-011 7.071068e-011 7.071068e-011
6835435435.4354 0.18169491 -0.048306473 -0.0044435356 -0.017902855 7.071068e-011 7.071068e-011 7.071068e-011 7.071068e-011
6843843843.8438 -0.045139089 -0.028420351 0.020167805 0.0002903213 7.071068e-011 7.071068e-011 7.071068e-011 7.071068e-011
6852252252.2523 0.074319325 0.1291842 -0.0046228985 0.020288596 7.071068e-011 7.071068e-011 7.071068e-011 7.071068e-011
6860660660.6607 0.14520502 -0.019920921 -0.018583473 -0.0096429121 7.071068e-011 7.071068e-011 7.071068e-011 7.071068e-011
6869069069.0691 0.0043791425 -0.02725899 0.014550865 -0.016056208 7.071068e-011 7.071068e-011 7.071068e-011 7.071068e-011
6877477477.4775 0.053810421 0.072479323 0.012643183 0.018115969 7.071068e-011 7.071068e-011 7.071068e-011 7.071068e-011
6885885885.8859 0.090365581 0.0070361579 -0.020463374 0.0076636113 7.071068e-011 7.071068e-011 7.071068e-011 7.071068e-011
6894294294.2943 0.047331627 -0.0010045128 -0.0022607113 -0.022016702 7.071068e-011 7.071068e-011 7.071068e-011 7.071068e-011
6902702702.7027 0.038249847 0.019289635 0.021981081 0.0032857785 7.071068e-011 7.071068e-011 7.071068e-011 7.071068e-011
6911111111.1111 0.030891851 0.037620615 -0.0088175032 0.020189445 7.071068e-011 7.071068e-011 7.071068e-011 7.071068e-011
6919519519.5195 0.078253128 0.050056808 -0.016911533 -0.013652415 7.071068e-011 7.071068e-011 7.071068e-011 7.071068e-011
6927927927.9279 0.050902158 -0.012406421 0.017264122 -0.012739416 7.071068e-011 7.071068e-011 7.071068e-011 7.071068e-011
6936336336.3363 -0.0022480991 0.062012389 0.0072315042 0.019484412 7.071068e-011 7.071068e-011 7.071068e-011 7.071068e-011
6944744744.7447 0.1122473 0.0895321 -0.020832699 0.001104377 7.071068e-011 7.071068e-011 7.071068e-011 7.071068e-011
6953153153.1532 0.084588692 -0.045438465 0.0045250161 -0.019980075 7.071068e-011 7.071068e-011 7.071068e-011 7.071068e-011
6961561561.5616 -0.028397869 0.054107212 0.017310001 0.009981879 7.071068e-011 7.071068e-011 7.071068e-011 7.071068e-011
6969969969.97 0.12437952 0.10610706 -0.014536642 0.01351513 7.071068e-011 7.071068e-011 7.071068e-011 7.071068e-011
6978378378.3784 0.10201319 -0.070654988 -0.0083480123 -0.017381338 7.071068e-011 7.071068e-011 7.071068e-011 7.071068e-011
6986786786.7868 -0.064086124 0.032379542 0.018730178 -0.0022442306 7.071068e-011 7.071068e-011 7.071068e-011 7.071068e-011
6995195195.1952 0.10266924 0.13405795 -0.00358969 0.018906182 7.071068e-011 7.071068e-011 7.071068e-011 7.071068e-011
7003603603.6036 0.10917901 -0.057669848 -0.016582824 -0.0089355865 7.071068e-011 7.071068e-011 7.071068e-011 7.071068e-011
7012012012.012 -0.07259696 0.032110225 0.01414052 -0.012440865 7.071068e-011 7.071068e-011 7.071068e-011 7.071068e-011
7020420420.4204 0.087664284 0.16151112 0.0077583948 0.017336885 7.071068e-011 7.071068e-011 7.071068e-011 7.071068e-011
7028828828.8288 0.13286453 -0.028724719 -0.018525582 0.0017932761 7.071068e-011 7.071068e-011 7.071068e-011 7.071068e-011
7037237237.2372 -0.053854428 0.030319748 0.0044573462 -0.018632459 7.071068e-011 7.071068e-011 7.071068e-011 7.071068e-011
7045645645.6456 0.089697219 0.17093714 0.016427081 0.0098304227 7.071068e-011 7.071068e-011 7.071068e-011 7.071068e-011
7054054054.0541 0.16773856 -0.002805315 -0.014696859 0.012015986 7.071068e-011 7.071068e-011 7.071068e-011 7.071068e-011
7062462462.4625 -0.0079330932 -0.0042476431 -0.0067992783 -0.018483903 7.071068e-011 7.071068e-011 7.071068e-011 7.071068e-011
7070870870.8709 0.077991299 0.14032146 0.019772643 -0.0011586765 7.071068e-011 7.071068e-011 7.071068e-011 7.071068e-011
7079279279.2793 0.16837625 0.0076230094 -0.0055818902 0.018782275 7.071068e-011 7.071068e-011 7.071068e-011 7.071068e-011
7087687687.6877 0.032754559 -0.027116232 -0.016621916 -0.011517095 7.071068e-011 7.071068e-011 7.071068e-011 7.071068e-011
7096096096.0961 0.059279766 0.089131966 0.015964355 -0.01244852 7.071068e-011 7.071068e-011 7.071068e-011 7.071068e-011
7104504504.5045 0.14775214 0.010611967 0.0064969058 0.019147338 7.071068e-011 7.071068e-011 7.071068e-011 7.071068e-011
7112912912.9129 0.051023558 -0.04472328 -0.020638516 -0.00016526679 7.071068e-011 7.071068e-011 7.071068e-011 7.071068e-011
7121321321.3213 0.034284469 0.0317857 0.0063468451 -0.019826846 7.071068e-011 7.071068e-011 7.071068e-011 7.071068e-011
7129729729.7297 0.089210659 0.014582478 0.01642287 0.012107357 7.071068e-011 7.071068e-011 7.071068e-011 7.071068e-011
7138138138.1381 0.043534711 -0.037744284 -0.017206132 0.0116668 7.071068e-011 7.071068e-011 7.071068e-011 7.071068e-011
7146546546.5465 -0.00051679765 0.013489698 -0.0058089755 -0.020128999 7.071068e-011 7.071068e-011 7.071068e-011 7.071068e-011
7154954954.955 0.030528754 0.04135333 0.020800283 0.00089222938 7.071068e-011 7.071068e-011 7.071068e-011 7.071068e-011
7163363363.3634 0.045020357 0.01584875 -0.0076930146 0.019083224 7.071068e-011 7.071068e-011 7.071068e-011 7.071068e-011
7171771771.7718 0.0012484941 0.020162625 -0.015719164 -0.013509797 7.071068e-011 7.071068e-011 7.071068e-011 7.071068e-011
7180180180.1802 0.018362138 0.072504245 0.017638668 -0.010358787 7.071068e-011 7.071068e-011 7.071068e-011 7.071068e-011
7188588588.5886 0.067735076 0.056247838 0.0038433087 0.020453788 7.071068e-011 7.071068e-011 7.071068e-011 7.071068e-011
7196996996.997 0.040018681 0.010128258 -0.020600189 -0.0027834284 7.071068e-011 7.071068e-011 7.071068e-011 7.071068e-011
7205405405.4054 0.012224833 0.06696374 0.009578432 -0.017978603 7.071068e-011 7.071068e-011 7.071068e-011 7.071068e-011
7213813813.8138 0.083088465 0.067366846 0.013816661 0.015214754 7.071068e-011 7.071068e-011 7.071068e-011 7.071068e-011
7222222222.2222 0.06638927 -0.0054421625 -0.01900254 0.0081845932 7.071068e-011 7.071068e-011 7.071068e-011 7.071068e-011
7230630630.6306 -0.0013325526 0.034943059 -0.0014012143 -0.020494504 7.071068e-011 7.071068e-011 7.071068e-011 7.071068e-011
7239039039.039 0.071358182 0.075668737 0.019938273 0.0058869948 7.071068e-011 7.071068e-011 7.071068e-011 7.071068e-011
7247447447.4474 0.07538569 -0.014686682 -0.012046503 0.016955791 7.071068e-011 7.071068e-011 7.071068e-011 7.071068e-011
7255855855.8559 -0.016519794 0.0071529131 -0.011564822 -0.017038496 7.071068e-011 7.071068e-011 7.071068e-011 7.071068e-011
7264264264.2643 0.034633726 0.084050052 0.020129636 -0.0053094663 7.071068e-011 7.071068e-011 7.071068e-011 7.071068e-011
7272672672.6727 0.074486077 0.00088378479 -0.0015578739 0.020534156 7.071068e-011 7.071068e-011 7.071068e-011 7.071068e-011
7281081081.0811 -0.029692661 0.00059973728 -0.018709203 -0.0084850108 7.071068e-011 7.071068e-011 7.071068e-011 7.071068e-011
7289489489.4895 -0.00027498978 0.10753497 0.014724261 -0.01458742 7.071068e-011 7.071068e-011 7.071068e-011 7.071068e-011
7297897897.8979 0.08500658 0.050906952 0.008764416 0.018841639 7.071068e-011 7.071068e-011 7.071068e-011 7.071068e-011
7306306306.3063 0.0012777263 0.0087542012 -0.020577636 0.0015417533 7.071068e-011 7.071068e-011 7.071068e-011 7.071068e-011
7314714714.7147 0.003929439 0.1126297 0.0054360246 -0.02027997 7.071068e-011 7.071068e-011 7.071068e-011 7.071068e-011
7323123123.1231 0.11257768 0.075591207 0.016981987 0.011765058 7.071068e-011 7.071068e-011 7.071068e-011 7.071068e-011
7331531531.5315 0.05148825 -0.011836896 -0.017348878 0.011678851 7.071068e-011 7.071068e-011 7.071068e-011 7.071068e-011
7339939939.9399 0.0077995355 0.068402939 -0.0052792397 -0.020561839 7.071068e-011 7.071068e-011 7.071068e-011 7.071068e-011
7348348348.3483 0.10532209 0.063875034 0.020917604 0.0019648131 7.071068e-011 7.071068e-011 7.071068e-011 7.071068e-011
7356756756.7568 0.066393435 -0.036942504 -0.0092335101 0.018770944 7.071068e-011 7.071068e-011 7.071068e-011 7.071068e-011
7365165165.1652 -0.010282902 0.020642867 -0.014713274 -0.015221452 7.071068e-011 7.071068e-011 7.071068e-011 7.071068e-011
7373573573.5736 0.061359011 0.04994319 0.019028472 -0.0085306838 7.071068e-011 7.071068e-011 7.071068e-011 7.071068e-011
7381981981.982 0.044108793 -0.035254139 0.0010330831 0.021120226 7.071068e-011 7.071068e-011 7.071068e-011 7.071068e-011
7390390390.3904 -0.043026779 0.0094717192 -0.020320961 -0.0061988863 7.071068e-011 7.071068e-011 7.071068e-011 7.071068e-011
7398798798.7988 0.012754636 0.071248084 0.012923537 -0.016674172 7.071068e-011 7.071068e-011 7.071068e-011 7.071068e-011
7407207207.2072 0.028053764 0.010013753 0.011157942 0.01800308 7.071068e-011 7.071068e-011 7.071068e-011 7.071068e-011
7415615615.6156 -0.040845681 0.035166979 -0.020884352 0.0043510864 7.071068e-011 7.071068e-011 7.071068e-011 7.071068e-011
7424024024.024 0.0065764282 0.1050093 0.0030960666 -0.021033447 7.071068e-011 7.071068e-011 7.071068e-011 7.071068e-011
7432432432.4324 0.054772533 0.054275673 0.018657355 0.010448351 7.071068e-011 7.071068e-011 7.071068e-011 7.071068e-011
7440840840.8408 0.0099068722 0.042247683 -0.016161861 0.014025329 7.071068e-011 7.071068e-011 7.071068e-011 7.071068e-011
7449249249.2492 0.030152172 0.087028563 -0.0072922367 -0.019883586 7.071068e-011 7.071068e-011 7.071068e-011 7.071068e-011
7457657657.6577 0.077907637 0.049107015 0.021255344 0.0002070418 7.071068e-011 7.071068e-011 7.071068e-011 7.071068e-011
7466066066.0661 0.041899953 0.01404442 -0.0075532645 0.019921526 7.071068e-011 7.071068e-011 7.071068e-011 7.071068e-011
7474474474.4745 0.030420896 0.039188288 -0.015911074 -0.013860209 7.071068e-011 7.071068e-011 7.071068e-011 7.071068e-011
7482882882.8829 0.059788227 0.029211815 0.018646805 -0.0097656455 7.071068e-011 7.071068e-011 7.071068e-011 7.071068e-011
7491291291.2913 0.039020769 -0.013350381 0.0026057169 0.020931959 7.071068e-011 7.071068e-011 7.071068e-011 7.071068e-011
7499699699.6997 -0.0033269397 0.0023095284 -0.020349845 -0.0049618292 7.071068e-011 7.071068e-011 7.071068e-011 7.071068e-011
7508108108.1081 0.0031859726 0.031922836 0.011782273 -0.017294029 7.071068e-011 7.071068e-011 7.071068e-011 7.071068e-011
7516516516.5165 0.019400664 0.012076311 0.011959193 0.017012566 7.071068e-011 7.071068e-011 7.071068e-011 7.071068e-011
7524924924.9249 -0.026259625 0.0065136147 -0.02003634 0.0050347662 7.071068e-011 7.071068e-011 7.071068e-011 7.071068e-011
7533333333.3333 -0.029949814 0.065870486 0.0025842912 -0.020489661 7.071068e-011 7.071068e-011 7.071068e-011 7.071068e-011
7541741741.7417 0.027788326 0.069043078 0.018229499 0.0095211901 7.071068e-011 7.071068e-011 7.071068e-011 7.071068e-011
7550150150.1502 0.013189527 0.020565154 -0.015242069 0.013184316 7.071068e-011 7.071068e-011 7.071068e-011 7.071068e-011
7558558558.5586 -0.015404223 0.068290152 -0.0068040369 -0.01905071 7.071068e-011 7.071068e-011 7.071068e-011 7.071068e-011
7566966966.967 0.055473555 0.078215256 0.019993462 0.00052963826 7.071068e-011 7.071068e-011 7.071068e-011 7.071068e-011
7575375375.3754 0.053745758 0.0010654721 -0.0079572508 0.018433176 7.071068e-011 7.071068e-011 7.071068e-011 7.071068e-011
7583783783.7838 -0.011842891 0.023773162 -0.014357064 -0.014112692 7.071068e-011 7.071068e-011 7.071068e-011 7.071068e-011
7592192192.1922 0.045242593 0.060711488 0.018020842 -0.0082679465 7.071068e-011 7.071068e-011 7.071068e-011 7.071068e-011
7600600600.6006 0.051962011 -0.024165317 0.0008229051 0.019479595 7.071068e-011 7.071068e-011 7.071068e-011 7.071068e-011
7609009009.009 -0.037898839 -0.011045628 -0.018854791 -0.0065867123 7.071068e-011 7.071068e-011 7.071068e-011 7.071068e-011
7617417417.4174 -0.005425896 0.05815547 0.012656933 -0.015282705 7.071068e-011 7.071068e-011 7.071068e-011 7.071068e-011
7625825825.8258 0.026531041 -0.003879068 0.0093754828 0.017420597 7.071068e-011 7.071068e-011 7.071068e-011 7.071068e-011
7634234234.2342 -0.060479425 0.0037718527 -0.019547386 0.0023928136 7.071068e-011 7.071068e-011 7.071068e-011 7.071068e-011
7642642642.6426 -0.026855154 0.09156204 0.0050341245 -0.018881755 7.071068e-011 7.071068e-011 7.071068e-011 7.071068e-011
7651051051.0511 0.037563276 0.042766899 0.01571046 0.011746442 7.071068e-011 7.071068e-011 7.071068e-011 7.071068e-011
7659459459.4595 -0.029554848 0.017963696 -0.01679964 0.010616061 7.071068e-011 7.071068e-011 7.071068e-011 7.071068e-011
7667867867.8679 -0.011820063 0.10228213 -0.0038435892 -0.019124364 7.071068e-011 7.071068e-011 7.071068e-011 7.071068e-011
7676276276.2763 0.073806249 0.059301037 0.019075297 0.0040149698 7.071068e-011 7.071068e-011 7.071068e-011 7.071068e-011
7684684684.6847 0.021678837 -0.0040051807 -0.010810544 0.016580669 7.071068e-011 7.071068e-011 7.071068e-011 7.071068e-011
7693093093.0931 0.00050162827 0.054179188 -0.011432859 -0.015990971 7.071068e-011 7.071068e-011 7.071068e-011 7.071068e-011
7701501501.5015 0.070938379 0.032793988 0.019031895 -0.0047790147 7.071068e-011 7.071068e-011 7.071068e-011 7.071068e-011
7709909909.9099 0.023595452 -0.042458214 -0.0026618296 0.019501517 7.071068e-011 7.071068e-011 7.071068e-011 7.071068e-011
7718318318.3183 -0.033234034 0.010578254 -0.017188421 -0.0096364068 7.071068e-011 7.071068e-011 7.071068e-011 7.071068e-011
7726726726.7267 0.024177535 0.027968552 0.015478233 -0.012195745 7.071068e-011 7.071068e-011 7.071068e-011 7.071068e-011
7735135135.1351 0.0031040919 -0.041137721 0.0058896537 0.018968837 7.071068e-011 7.071068e-011 7.071068e-011 7.071068e-011
7743543543.5435 -0.074955985 -0.00051589735 -0.019526687 -0.0015050633 7.071068e-011 7.071068e-011 7.071068e-011 7.071068e-011
7751951951.952 -0.030663088 0.064368583 0.0087712444 -0.017662821 7.071068e-011 7.071068e-011 7.071068e-011 7.071068e-011
7760360360.3604 -0.0024897626 0.017658565 0.013214785 0.014690746 7.071068e-011 7.071068e-011 7.071068e-011 7.071068e-011
7768768768.7688 -0.058165327 0.028239403 -0.018601367 0.0068237595 7.071068e-011 7.071068e-011 7.071068e-011 7.071068e-011
7777177177.1772 -0.027486488 0.095462121 0.00064223079 -0.019718101 7.071068e-011 7.071068e-011 7.071068e-011 7.071068e-011
7785585585.5856 0.033866182 0.058270138 0.018108241 0.0078609018 7.071068e-011 7.071068e-011 7.071068e-011 7.071068e-011
7793993993.994 -0.0053420467 0.027665867 -0.013939517 0.013657761 7.071068e-011 7.071068e-011 7.071068e-011 7.071068e-011
7802402402.4024 -0.00065334892 0.074735261 -0.0075286855 -0.018390385 7.071068e-011 7.071068e-011 7.071068e-011 7.071068e-011
7810810810.8108 0.05794296 0.049146559 0.019775257 -0.00040589878 7.071068e-011 7.071068e-011 7.071068e-011 7.071068e-011
7819219219.2192 0.026255932 -0.0064668106 -0.0071811629 0.018316811 7.071068e-011 7.071068e-011 7.071068e-011 7.071068e-011
7827627627.6276 -0.0037329169 0.026641473 -0.014371627 -0.013491981 7.071068e-011 7.071068e-011 7.071068e-011 7.071068e-011
7836036036.036 0.03736854 0.025899645 0.017862275 -0.0082997074 7.071068e-011 7.071068e-011 7.071068e-011 7.071068e-011
7844444444.4444 0.016711256 -0.023697093 0.0010703321 0.019719152 7.071068e-011 7.071068e-011 7.071068e-011 7.071068e-011
7852852852.8529 -0.028265083 0.0027909046 -0.018775452 -0.0064016664 7.071068e-011 7.071068e-011 7.071068e-011 7.071068e-011
7861261261.2613 0.0014974817 0.029577557 0.012808014 -0.015016464 7.071068e-011 7.071068e-011 7.071068e-011 7.071068e-011
7869669669.6697 0.0056235264 -0.009086201 0.0089711919 0.01757976 7.071068e-011 7.071068e-011 7.071068e-011 7.071068e-011
7878078078.0781 -0.040309019 0.0032191474 -0.01981337 0.0019127143 7.071068e-011 7.071068e-011 7.071068e-011 7.071068e-011
7886486486.4865 -0.024585266 0.046889286 0.0054278169 -0.019007947 7.071068e-011 7.071068e-011 7.071068e-011 7.071068e-011
7894894894.8949 0.010912798 0.03044783 0.015377404 0.012026582 7.071068e-011 7.071068e-011 7.071068e-011 7.071068e-011
7903303303.3033 -0.013349604 0.011054561 -0.017113492 0.009650534 7.071068e-011 7.071068e-011 7.071068e-011 7.071068e-011
7911711711.7117 -0.017917024 0.043780606 -0.0027207278 -0.019491322 7.071068e-011 7.071068e-011 7.071068e-011 7.071068e-011
7920120120.1201 0.022962591 0.045020238 0.0188821 0.0047728214 7.071068e-011 7.071068e-011 7.071068e-011 7.071068e-011
7928528528.5285 0.023798238 0.0020203805 -0.011496634 0.015694641 7.071068e-011 7.071068e-011 7.071068e-011 7.071068e-011
7936936936.9369 -0.0099532306 0.01097525 -0.01011324 -0.016411755 7.071068e-011 7.071068e-011 7.071068e-011 7.071068e-011
7945345345.3453 0.017653862 0.032160904 0.019031608 -0.0030369856 7.071068e-011 7.071068e-011 7.071068e-011 7.071068e-011
