!Keysight Technologies,N5235B,MY61252044,A.15.00.15
!Date: Friday, January 20, 2023 23:19:47
!Correction: S11(Off) 
!S21(Off) 
!S12(Off) 
!S22(Off) 
!S2P File: Measurements: S11, S21, S12, S22:
# Hz S  RI   R 50
6600000000 0.01850733 -0.17519216 0.015462999 -0.0030352408 7.071068e-011 7.071068e-011 7.071068e-011 7.071068e-011
6608408408.4084 -0.12450632 0.16560225 0.0053005293 0.010840935 7.071068e-011 7.071068e-011 7.071068e-011 7.071068e-011
6616816816.8168 0.30598521 0.092635259 -0.0089140451 0.0036853608 7.071068e-011 7.071068e-011 7.071068e-011 7.071068e-011
6625225225.2252 0.024560409 -0.27293026 -0.0017750788 -0.0093069933 7.071068e-011 7.071068e-011 7.071068e-011 7.071068e-011
6633633633.6336 -0.16566372 0.1614524 0.0093382681 -0.00038338319 7.071068e-011 7.071068e-011 7.071068e-011 7.071068e-011
6642042042.042 0.28990507 0.11310594 -0.0018633395 0.0093186833 7.071068e-011 7.071068e-011 7.071068e-011 7.071068e-011
6650450450.4505 0.039085403 -0.25204477 -0.010722634 -0.0041002859 7.071068e-011 7.071068e-011 7.071068e-011 7.071068e-011
6658858858.8589 -0.14837192 0.13441256 0.0059859036 -0.011490802 7.071068e-011 7.071068e-011 7.071068e-011 7.071068e-011
6667267267.2673 0.2285032 0.10121978 0.012194852 0.0091799591 7.071068e-011 7.071068e-011 7.071068e-011 7.071068e-011
6675675675.6757 0.042857617 -0.15108398 -0.01154983 0.013815347 7.071068e-011 7.071068e-011 7.071068e-011 7.071068e-011
6684084084.0841 -0.044377316 0.084171936 -0.014588062 -0.013364454 7.071068e-011 7.071068e-011 7.071068e-011 7.071068e-011
6692492492.4925 0.10580605 0.047474172 0.014834106 -0.014906173 7.071068e-011 7.071068e-011 7.071068e-011 7.071068e-011
6700900900.9009 0.085944287 0.018321248 0.014753168 0.015428199 7.071068e-011 7.071068e-011 7.071068e-011 7.071068e-011
6709309309.3093 0.077233784 -0.041853242 -0.015565102 0.013097613 7.071068e-011 7.071068e-011 7.071068e-011 7.071068e-011
6717717717.7177 -0.03116544 0.034341641 -0.010129524 -0.016489599 7.071068e-011 7.071068e-011 7.071068e-011 7.071068e-011
6726126126.1261 0.15503858 0.116292 0.016808577 -0.0070724525 7.071068e-011 7.071068e-011 7.071068e-011 7.071068e-011
6734534534.5345 0.12863699 -0.1406105 0.0035473686 0.01623526 7.071068e-011 7.071068e-011 7.071068e-011 7.071068e-011
6742942942.9429 -0.10785949 0.026597897 -0.015912367 -0.00028895083 7.071068e-011 7.071068e-011 7.071068e-011 7.071068e-011
6751351351.3514 0.17143375 0.1526009 0.0036277266 -0.015368407 7.071068e-011 7.071068e-011 7.071068e-011 7.071068e-011
6759759759.7598 0.15072036 -0.17149115 0.013178203 0.0070765563 7.071068e-011 7.071068e-011 7.071068e-011 7.071068e-011
6768168168.1682 -0.14688148 -0.0055708517 -0.010864535 0.010400734 7.071068e-011 7.071068e-011 7.071068e-011 7.071068e-011
6776576576.5766 0.13394856 0.17893678 -0.0079940557 -0.013476603 7.071068e-011 7.071068e-011 7.071068e-011 7.071068e-011
6784984984.985 0.15124826 -0.14610951 0.014561174 -0.0040062619 7.071068e-011 7.071068e-011 7.071068e-011 7.071068e-011
6793393393.3934 -0.14737447 -0.0066728941 -0.00036112653 0.015522839 7.071068e-011 7.071068e-011 7.071068e-011 7.071068e-011
6801801801.8018 0.10142235 0.20267603 -0.015714712 -0.0043064025 7.071068e-011 7.071068e-011 7.071068e-011 7.071068e-011
6810210210.2102 0.17248274 -0.094826013 0.0086876573 -0.014424981 7.071068e-011 7.071068e-011 7.071068e-011 7.071068e-011
6818618618.6186 -0.10527235 -0.010425922 0.012130973 0.013244858 7.071068e-011 7.071068e-011 7.071068e-011 7.071068e-011
6827027027.027 0.087731533 0.18545049 -0.015964705 0.0091966456 7.071068e-011 7.071068e-011 7.071068e-011 7.071068e-011
6835435435.4354 0.18148831 -0.048683822 -0.0044641616 -0.01789795 7.071068e-011 7.071068e-011 7.071068e-011 7.071068e-011
6843843843.8438 -0.045380399 -0.028093655 0.020169696 0.00026559262 7.071068e-011 7.071068e-011 7.071068e-011 7.071068e-011
6852252252.2523 0.074670315 0.12924473 -0.0045981472 0.020296572 7.071068e-011 7.071068e-011 7.071068e-011 7.071068e-011
6860660660.6607 0.14511164 -0.020215413 -0.01859677 -0.0096229846 7.071068e-011 7.071068e-011 7.071068e-011 7.071068e-011
6869069069.0691 0.0041965423 -0.027063128 0.014531724 -0.016076697 7.071068e-011 7.071068e-011 7.071068e-011 7.071068e-011
6877477477.4775 0.053995658 0.072531924 0.012665709 0.018099554 7.071068e-011 7.071068e-011 7.071068e-011 7.071068e-011
6885885885.8859 0.090362906 0.0069296295 -0.020454241 0.0076884483 7.071068e-011 7.071068e-011 7.071068e-011 7.071068e-011
6894294294.2943 0.047261305 -0.0010110799 -0.0022893338 -0.02201453 7.071068e-011 7.071068e-011 7.071068e-011 7.071068e-011
6902702702.7027 0.038227983 0.019368067 0.021984568 0.0032588292 7.071068e-011 7.071068e-011 7.071068e-011 7.071068e-011
6911111111.1111 0.030987801 0.03765041 -0.0087927729 0.020202205 7.071068e-011 7.071068e-011 7.071068e-011 7.071068e-011
6919519519.5195 0.078269795 0.049945414 -0.016931323 -0.013632756 7.071068e-011 7.071068e-011 7.071068e-011 7.071068e-011
6927927927.9279 0.050769344 -0.012390926 0.017250275 -0.012763945 7.071068e-011 7.071068e-011 7.071068e-011 7.071068e-011
6936336336.3363 -0.0021779512 0.062182713 0.0072552757 0.019479491 7.071068e-011 7.071068e-011 7.071068e-011 7.071068e-011
6944744744.7447 0.11241417 0.089371853 -0.020835297 0.0011315356 7.071068e-011 7.071068e-011 7.071068e-011 7.071068e-011
6953153153.1532 0.084321454 -0.04553229 0.0044968026 -0.019988518 7.071068e-011 7.071068e-011 7.071068e-011 7.071068e-011
6961561561.5616 -0.028332688 0.054429945 0.017325411 0.0099610547 7.071068e-011 7.071068e-011 7.071068e-011 7.071068e-011
6969969969.97 0.12463769 0.1058952 -0.014517583 0.013535472 7.071068e-011 7.071068e-011 7.071068e-011 7.071068e-011
6978378378.3784 0.10169353 -0.070792161 -0.0083738016 -0.017370451 7.071068e-011 7.071068e-011 7.071068e-011 7.071068e-011
6986786786.7868 -0.064072415 0.032744136 0.018729014 -0.0022681667 7.071068e-011 7.071068e-011 7.071068e-011 7.071068e-011
6995195195.1952 0.10298222 0.13389523 -0.0035628364 0.018911615 7.071068e-011 7.071068e-011 7.071068e-011 7.071068e-011
7003603603.6036 0.10889187 -0.05790076 -0.01659566 -0.0089105731 7.071068e-011 7.071068e-011 7.071068e-011 7.071068e-011
7012012012.012 -0.072679691 0.032501787 0.014124829 -0.012461001 7.071068e-011 7.071068e-011 7.071068e-011 7.071068e-011
7020420420.4204 0.088049978 0.16141081 0.0077832867 0.017327407 7.071068e-011 7.071068e-011 7.071068e-011 7.071068e-011
7028828828.8288 0.13259551 -0.029031774 -0.018524541 0.0018199172 7.071068e-011 7.071068e-011 7.071068e-011 7.071068e-011
7037237237.2372 -0.05397819 0.030714784 0.0044287038 -0.018638454 7.071068e-011 7.071068e-011 7.071068e-011 7.071068e-011
7045645645.6456 0.090059765 0.17087542 0.016439334 0.0098052574 7.071068e-011 7.071068e-011 7.071068e-011 7.071068e-011
7054054054.0541 0.16755711 -0.0031046895 -0.014678845 0.012035591 7.071068e-011 7.071068e-011 7.071068e-011 7.071068e-011
7062462462.4625 -0.0081306901 -0.0039673019 -0.0068263258 -0.018473901 7.071068e-011 7.071068e-011 7.071068e-011 7.071068e-011
7070870870.8709 0.078294262 0.14038269 0.019770611 -0.0011867767 7.071068e-011 7.071068e-011 7.071068e-011 7.071068e-011
7079279279.2793 0.16831759 0.0073381988 -0.0055557797 0.018789589 7.071068e-011 7.071068e-011 7.071068e-011 7.071068e-011
7087687687.6877 0.032507215 -0.026945876 -0.016637236 -0.011492152 7.071068e-011 7.071068e-011 7.071068e-011 7.071068e-011
7096096096.0961 0.05953576 0.089261785 0.01594542 -0.012472925 7.071068e-011 7.071068e-011 7.071068e-011 7.071068e-011
7104504504.5045 0.14775816 0.010370621 0.0065261773 0.019138565 7.071068e-011 7.071068e-011 7.071068e-011 7.071068e-011
7112912912.9129 0.050844681 -0.044636521 -0.020641085 -0.00013633443 7.071068e-011 7.071068e-011 7.071068e-011 7.071068e-011
7121321321.3213 0.034401678 0.03190263 0.0063140681 -0.019838624 7.071068e-011 7.071068e-011 7.071068e-011 7.071068e-011
7129729729.7297 0.08928974 0.014467521 0.016440775 0.012083531 7.071068e-011 7.071068e-011 7.071068e-011 7.071068e-011
7138138138.1381 0.043408111 -0.037793048 -0.017189842 0.011690048 7.071068e-011 7.071068e-011 7.071068e-011 7.071068e-011
7146546546.5465 -0.00051989255 0.013630412 -0.0058409777 -0.020122001 7.071068e-011 7.071068e-011 7.071068e-011 7.071068e-011
7154954954.955 0.030654918 0.041313723 0.020802431 0.0008619508 7.071068e-011 7.071068e-011 7.071068e-011 7.071068e-011
7163363363.3634 0.044946969 0.015751677 -0.0076675443 0.019095283 7.071068e-011 7.071068e-011 7.071068e-011 7.071068e-011
7171771771.7718 0.0011920555 0.020260653 -0.015741773 -0.013484995 7.071068e-011 7.071068e-011 7.071068e-011 7.071068e-011
7180180180.1802 0.018450869 0.072536595 0.017624818 -0.010387272 7.071068e-011 7.071068e-011 7.071068e-011 7.071068e-011
7188588588.5886 0.067767881 0.056155995 0.0038721801 0.020449031 7.071068e-011 7.071068e-011 7.071068e-011 7.071068e-011
7196996996.997 0.039877784 0.01012131 -0.020605782 -0.0027508761 7.071068e-011 7.071068e-011 7.071068e-011 7.071068e-011
7205405405.4054 0.012288592 0.067123026 0.0095496727 -0.017993903 7.071068e-011 7.071068e-011 7.071068e-011 7.071068e-011
7213813813.8138 0.083201952 0.067233831 0.013835916 0.01519468 7.071068e-011 7.071068e-011 7.071068e-011 7.071068e-011
7222222222.2222 0.066218726 -0.005475366 -0.018992323 0.0082129827 7.071068e-011 7.071068e-011 7.071068e-011 7.071068e-011
7230630630.6306 -0.0013079871 0.03511183 -0.0014322229 -0.020494919 7.071068e-011 7.071068e-011 7.071068e-011 7.071068e-011
7239039039.039 0.071504891 0.075597867 0.019948959 0.0058592181 7.071068e-011 7.071068e-011 7.071068e-011 7.071068e-011
7247447447.4474 0.075263664 -0.014795347 -0.01202115 0.016974226 7.071068e-011 7.071068e-011 7.071068e-011 7.071068e-011
7255855855.8559 -0.016596507 0.0073250113 -0.01159033 -0.017019529 7.071068e-011 7.071068e-011 7.071068e-011 7.071068e-011
7264264264.2643 0.034848321 0.084063888 0.020124037 -0.0053392961 7.071068e-011 7.071068e-011 7.071068e-011 7.071068e-011
7272672672.6727 0.074391566 0.00067449367 -0.0015278253 0.020537063 7.071068e-011 7.071068e-011 7.071068e-011 7.071068e-011
7281081081.0811 -0.029840775 0.00078613684 -0.01872256 -0.0084573356 7.071068e-011 7.071068e-011 7.071068e-011 7.071068e-011
7289489489.4895 -4.8090802e-005 0.10758165 0.014704834 -0.014610589 7.071068e-011 7.071068e-011 7.071068e-011 7.071068e-011
7297897897.8979 0.08496955 0.050694454 0.0087950109 0.018830409 7.071068e-011 7.071068e-011 7.071068e-011 7.071068e-011
7306306306.3063 0.0011020236 0.0088485917 -0.02057815 0.001572705 7.071068e-011 7.071068e-011 7.071068e-011 7.071068e-011
7314714714.7147 0.0040694391 0.11277857 0.0054060677 -0.020290328 7.071068e-011 7.071068e-011 7.071068e-011 7.071068e-011
7323123123.1231 0.11266574 0.075392917 0.017001787 0.011739613 7.071068e-011 7.071068e-011 7.071068e-011 7.071068e-011
7331531531.5315 0.051251821 -0.011830701 -0.017332088 0.011708293 7.071068e-011 7.071068e-011 7.071068e-011 7.071068e-011
7339939939.9399 0.0079059359 0.068624176 -0.0053129769 -0.020554982 7.071068e-011 7.071068e-011 7.071068e-011 7.071068e-011
7348348348.3483 0.10545682 0.063693322 0.020920847 0.0019353437 7.071068e-011 7.071068e-011 7.071068e-011 7.071068e-011
7356756756.7568 0.066184588 -0.036971994 -0.0092045628 0.018787902 7.071068e-011 7.071068e-011 7.071068e-011 7.071068e-011
7365165165.1652 -0.010236537 0.02083849 -0.014736058 -0.015200285 7.071068e-011 7.071068e-011 7.071068e-011 7.071068e-011
7373573573.5736 0.061515193 0.049853247 0.01901594 -0.0085604526 7.071068e-011 7.071068e-011 7.071068e-011 7.071068e-011
7381981981.982 0.043981977 -0.035359599 0.0010673731 0.021120571 7.071068e-011 7.071068e-011 7.071068e-011 7.071068e-011
7390390390.3904 -0.043088421 0.0096443156 -0.020331981 -0.0061661256 7.071068e-011 7.071068e-011 7.071068e-011 7.071068e-011
7398798798.7988 0.012952819 0.07122542 0.012896207 -0.016695613 7.071068e-011 7.071068e-011 7.071068e-011 7.071068e-011
7407207207.2072 0.027940024 0.0098568108 0.011186255 0.017984817 7.071068e-011 7.071068e-011 7.071068e-011 7.071068e-011
7415615615.6156 -0.040924277 0.035330735 -0.020874104 0.0043851933 7.071068e-011 7.071068e-011 7.071068e-011 7.071068e-011
7424024024.024 0.0067274813 0.10500613 0.0030632836 -0.021035345 7.071068e-011 7.071068e-011 7.071068e-011 7.071068e-011
7432432432.4324 0.054720946 0.054164935 0.018674584 0.010419347 7.071068e-011 7.071068e-011 7.071068e-011 7.071068e-011
7440840840.8408 0.0098192487 0.042320814 -0.016140182 0.014052454 7.071068e-011 7.071068e-011 7.071068e-011 7.071068e-011
7449249249.2492 0.030225661 0.08709798 -0.007321809 -0.019872028 7.071068e-011 7.071068e-011 7.071068e-011 7.071068e-011
7457657657.6577 0.077950746 0.049008872 0.021256527 0.00017102681 7.071068e-011 7.071068e-011 7.071068e-011 7.071068e-011
7466066066.0661 0.041775193 0.014063276 -0.0075228694 0.019934343 7.071068e-011 7.071068e-011 7.071068e-011 7.071068e-011
7474474474.4745 0.030491825 0.039293338 -0.015933732 -0.013835796 7.071068e-011 7.071068e-011 7.071068e-011 7.071068e-011
7482882882.8829 0.059847206 0.029129682 0.018630622 -0.0097998679 7.071068e-011 7.071068e-011 7.071068e-011 7.071068e-011
7491291291.2913 0.038943216 -0.013367945 0.0026377223 0.02092725 7.071068e-011 7.071068e-011 7.071068e-011 7.071068e-011
7499699699.6997 -0.0033342338 0.0023731648 -0.020358209 -0.0049300464 7.071068e-011 7.071068e-011 7.071068e-011 7.071068e-011
7508108108.1081 0.003260029 0.031944901 0.011750398 -0.017314449 7.071068e-011 7.071068e-011 7.071068e-011 7.071068e-011
7516516516.5165 0.019399287 0.011970878 0.011984426 0.016994406 7.071068e-011 7.071068e-011 7.071068e-011 7.071068e-011
7524924924.9249 -0.026372928 0.0065713972 -0.020027017 0.0050663175 7.071068e-011 7.071068e-011 7.071068e-011 7.071068e-011
7533333333.3333 -0.029844284 0.065958194 0.0025461609 -0.02049477 7.071068e-011 7.071068e-011 7.071068e-011 7.071068e-011
7541741741.7417 0.02781941 0.068912186 0.018244574 0.0094958534 7.071068e-011 7.071068e-011 7.071068e-011 7.071068e-011
7550150150.1502 0.013064629 0.020586815 -0.01521879 0.013210351 7.071068e-011 7.071068e-011 7.071068e-011 7.071068e-011
7558558558.5586 -0.015363135 0.068401039 -0.0068402439 -0.019039193 7.071068e-011 7.071068e-011 7.071068e-011 7.071068e-011
7566966966.967 0.055579204 0.078143813 0.019995037 0.00050017133 7.071068e-011 7.071068e-011 7.071068e-011 7.071068e-011
7575375375.3754 0.053622652 0.00097682397 -0.0079267155 0.018448651 7.071068e-011 7.071068e-011 7.071068e-011 7.071068e-011
7583783783.7838 -0.011878695 0.023958946 -0.014384015 -0.014088226 7.071068e-011 7.071068e-011 7.071068e-011 7.071068e-011
7592192192.1922 0.045425966 0.060651101 0.018007638 -0.0082967766 7.071068e-011 7.071068e-011 7.071068e-011 7.071068e-011
7600600600.6006 0.051821891 -0.024292631 0.00084963406 0.019478543 7.071068e-011 7.071068e-011 7.071068e-011 7.071068e-011
7609009009.009 -0.037951387 -0.01086075 -0.018869491 -0.0065528383 7.071068e-011 7.071068e-011 7.071068e-011 7.071068e-011
7617417417.4174 -0.0052523934 0.058131944 0.012635221 -0.015303963 7.071068e-011 7.071068e-011 7.071068e-011 7.071068e-011
7625825825.8258 0.02644828 -0.0040208912 0.0094018858 0.017406739 7.071068e-011 7.071068e-011 7.071068e-011 7.071068e-011
7634234234.2342 -0.060595281 0.0038959945 -0.01954468 0.0024302199 7.071068e-011 7.071068e-011 7.071068e-011 7.071068e-011
7642642642.6426 -0.026688566 0.091632374 0.0050069606 -0.018890629 7.071068e-011 7.071068e-011 7.071068e-011 7.071068e-011
7651051051.0511 0.037558943 0.04256767 0.015732614 0.011720865 7.071068e-011 7.071068e-011 7.071068e-011 7.071068e-011
7659459459.4595 -0.029748658 0.018067461 -0.016783133 0.010643341 7.071068e-011 7.071068e-011 7.071068e-011 7.071068e-011
7667867867.8679 -0.011645242 0.10239346 -0.0038718458 -0.019118052 7.071068e-011 7.071068e-011 7.071068e-011 7.071068e-011
7676276276.2763 0.073822282 0.059105862 0.019083068 0.003982651 7.071068e-011 7.071068e-011 7.071068e-011 7.071068e-011
7684684684.6847 0.021506669 -0.0039447597 -0.010787452 0.016601138 7.071068e-011 7.071068e-011 7.071068e-011 7.071068e-011
7693093093.0931 0.00059641054 0.054304142 -0.011460592 -0.015972925 7.071068e-011 7.071068e-011 7.071068e-011 7.071068e-011
7701501501.5015 0.071023308 0.032672007 0.019025639 -0.0048106532 7.071068e-011 7.071068e-011 7.071068e-011 7.071068e-011
7709909909.9099 0.02343839 -0.042503111 -0.0026278102 0.019506965 7.071068e-011 7.071068e-011 7.071068e-011 7.071068e-011
7718318318.3183 -0.033216167 0.010767024 -0.017202994 -0.0096082631 7.071068e-011 7.071068e-011 7.071068e-011 7.071068e-011
7726726726.7267 0.024346367 0.027865507 0.015458635 -0.012220781 7.071068e-011 7.071068e-011 7.071068e-011 7.071068e-011
7735135135.1351 0.0029371839 -0.04124026 0.0059203412 0.018960794 7.071068e-011 7.071068e-011 7.071068e-011 7.071068e-011
7743543543.5435 -0.074978121 -0.00033816329 -0.019529233 -0.0014747996 7.071068e-011 7.071068e-011 7.071068e-011 7.071068e-011
7751951951.952 -0.030513315 0.064331852 0.0087433569 -0.017678775 7.071068e-011 7.071068e-011 7.071068e-011 7.071068e-011
7760360360.3604 -0.0025636053 0.017540069 0.013239544 0.014670772 7.071068e-011 7.071068e-011 7.071068e-011 7.071068e-011
7768768768.7688 -0.058264773 0.028326521 -0.018591221 0.0068552359 7.071068e-011 7.071068e-011 7.071068e-011 7.071068e-011
7777177177.1772 -0.027369775 0.095538229 0.00060721062 -0.019719345 7.071068e-011 7.071068e-011 7.071068e-011 7.071068e-011
7785585585.5856 0.033874087 0.058111485 0.018121153 0.0078312801 7.071068e-011 7.071068e-011 7.071068e-011 7.071068e-011
7793993993.994 -0.0055004284 0.027734131 -0.013915769 0.013680213 7.071068e-011 7.071068e-011 7.071068e-011 7.071068e-011
7802402402.4024 -0.00053406163 0.074843578 -0.0075600343 -0.018379511 7.071068e-011 7.071068e-011 7.071068e-011 7.071068e-011
7810810810.8108 0.057967376 0.049010668 0.019775324 -0.00043715833 7.071068e-011 7.071068e-011 7.071068e-011 7.071068e-011
7819219219.2192 0.026135309 -0.0064411201 -0.0071556927 0.018329762 7.071068e-011 7.071068e-011 7.071068e-011 7.071068e-011
7827627627.6276 -0.0036928989 0.026743025 -0.014396217 -0.013471609 7.071068e-011 7.071068e-011 7.071068e-011 7.071068e-011
7836036036.036 0.037452035 0.025846811 0.017850153 -0.0083318008 7.071068e-011 7.071068e-011 7.071068e-011 7.071068e-011
7844444444.4444 0.016622944 -0.023766542 0.0011023524 0.019719716 7.071068e-011 7.071068e-011 7.071068e-011 7.071068e-011
7852852852.8529 -0.028294051 0.002922381 -0.018788919 -0.0063688075 7.071068e-011 7.071068e-011 7.071068e-011 7.071068e-011
7861261261.2613 0.0016331968 0.029538771 0.012780483 -0.015037824 7.071068e-011 7.071068e-011 7.071068e-011 7.071068e-011
7869669669.6697 0.0055310125 -0.0091892881 0.0090000164 0.017564135 7.071068e-011 7.071068e-011 7.071068e-011 7.071068e-011
7878078078.0781 -0.040350493 0.0033238654 -0.019809548 0.0019468684 7.071068e-011 7.071068e-011 7.071068e-011 7.071068e-011
7886486486.4865 -0.02450349 0.04689832 0.0053990381 -0.019013911 7.071068e-011 7.071068e-011 7.071068e-011 7.071068e-011
7894894894.8949 0.010923908 0.030365111 0.015397717 0.011999411 7.071068e-011 7.071068e-011 7.071068e-011 7.071068e-011
7903303303.3033 -0.013444397 0.011052444 -0.017097974 0.0096791079 7.071068e-011 7.071068e-011 7.071068e-011 7.071068e-011
7911711711.7117 -0.017888339 0.043886773 -0.0027480519 -0.019487372 7.071068e-011 7.071068e-011 7.071068e-011 7.071068e-011
7920120120.1201 0.023055222 0.044936221 0.018892178 0.0047392012 7.071068e-011 7.071068e-011 7.071068e-011 7.071068e-011
7928528528.5285 0.023678169 0.0019786234 -0.011468757 0.015715567 7.071068e-011 7.071068e-011 7.071068e-011 7.071068e-011
7936936936.9369 -0.0099459449 0.011090584 -0.010141009 -0.016394885 7.071068e-011 7.071068e-011 7.071068e-011 7.071068e-011
