!Keysight Technologies,N5235B,MY61252044,A.15.00.15
!Date: Friday, January 20, 2023 21:13:17
!Correction: S11(Off) 
!S21(Off) 
!S12(Off) 
!S22(Off) 
!S2P File: Measurements: S11, S21, S12, S22:
# Hz S  RI   R 50
6600000000 0.017051607 -0.17475636 0.01549008 -0.0030629106 7.071068e-011 7.071068e-011 7.071068e-011 7.071068e-011
6608408408.4084 -0.1232843 0.16711833 0.0053289854 0.010857517 7.071068e-011 7.071068e-011 7.071068e-011 7.071068e-011
6616816816.8168 0.30696902 0.090785518 -0.0089239972 0.0037055612 7.071068e-011 7.071068e-011 7.071068e-011 7.071068e-011
6625225225.2252 0.022367001 -0.27298954 -0.0018101037 -0.0093113808 7.071068e-011 7.071068e-011 7.071068e-011 7.071068e-011
6633633633.6336 -0.16455962 0.16342928 0.0093431547 -0.00040439583 7.071068e-011 7.071068e-011 7.071068e-011 7.071068e-011
6642042042.042 0.29114625 0.11137681 -0.0018415201 0.009325996 7.071068e-011 7.071068e-011 7.071068e-011 7.071068e-011
6650450450.4505 0.037049834 -0.25229856 -0.010736331 -0.0040734587 7.071068e-011 7.071068e-011 7.071068e-011 7.071068e-011
6658858858.8589 -0.14757851 0.1361651 0.0059645735 -0.011507209 7.071068e-011 7.071068e-011 7.071068e-011 7.071068e-011
6667267267.2673 0.22957121 0.09997467 0.012219205 0.0091537228 7.071068e-011 7.071068e-011 7.071068e-011 7.071068e-011
6675675675.6757 0.041527264 -0.15133002 -0.011524473 0.013848472 7.071068e-011 7.071068e-011 7.071068e-011 7.071068e-011
6684084084.0841 -0.044084325 0.085121319 -0.014612182 -0.013346053 7.071068e-011 7.071068e-011 7.071068e-011 7.071068e-011
6692492492.4925 0.10628914 0.047151029 0.014817128 -0.014944483 7.071068e-011 7.071068e-011 7.071068e-011 7.071068e-011
6700900900.9009 0.085817851 0.017990071 0.014796657 0.015408731 7.071068e-011 7.071068e-011 7.071068e-011 7.071068e-011
6709309309.3093 0.076704584 -0.041820452 -0.015551702 0.013151631 7.071068e-011 7.071068e-011 7.071068e-011 7.071068e-011
6717717717.7177 -0.030920954 0.035141215 -0.010181794 -0.016486308 7.071068e-011 7.071068e-011 7.071068e-011 7.071068e-011
6726126126.1261 0.1558979 0.11563264 0.016808748 -0.007120064 7.071068e-011 7.071068e-011 7.071068e-011 7.071068e-011
6734534534.5345 0.12750965 -0.14116393 0.003593846 0.016242975 7.071068e-011 7.071068e-011 7.071068e-011 7.071068e-011
6742942942.9429 -0.10775181 0.028051609 -0.015933298 -0.00024023824 7.071068e-011 7.071068e-011 7.071068e-011 7.071068e-011
6751351351.3514 0.1728119 0.15187934 0.0035829956 -0.01540346 7.071068e-011 7.071068e-011 7.071068e-011 7.071068e-011
6759759759.7598 0.14945193 -0.1724223 0.013209733 0.00704297 7.071068e-011 7.071068e-011 7.071068e-011 7.071068e-011
6768168168.1682 -0.14707856 -0.0039195009 -0.010850233 0.010444687 7.071068e-011 7.071068e-011 7.071068e-011 7.071068e-011
6776576576.5766 0.13554747 0.17838973 -0.0080461456 -0.013457207 7.071068e-011 7.071068e-011 7.071068e-011 7.071068e-011
6784984984.985 0.15006541 -0.14721765 0.014565695 -0.0040571494 7.071068e-011 7.071068e-011 7.071068e-011 7.071068e-011
6793393393.3934 -0.14777887 -0.0051329248 -0.00030662058 0.015539644 7.071068e-011 7.071068e-011 7.071068e-011 7.071068e-011
6801801801.8018 0.10296655 0.20241584 -0.015739625 -0.004257462 7.071068e-011 7.071068e-011 7.071068e-011 7.071068e-011
6810210210.2102 0.17156571 -0.096028164 0.0086551439 -0.014462983 7.071068e-011 7.071068e-011 7.071068e-011 7.071068e-011
6818618618.6186 -0.10583877 -0.0091047846 0.012187484 0.01321106 7.071068e-011 7.071068e-011 7.071068e-011 7.071068e-011
6827027027.027 0.089021988 0.18545011 -0.015954401 0.0092483768 7.071068e-011 7.071068e-011 7.071068e-011 7.071068e-011
6835435435.4354 0.18097709 -0.049754485 -0.0045294492 -0.017899025 7.071068e-011 7.071068e-011 7.071068e-011 7.071068e-011
6843843843.8438 -0.045986786 -0.027183698 0.020188237 0.00020385061 7.071068e-011 7.071068e-011 7.071068e-011 7.071068e-011
6852252252.2523 0.075584106 0.12936369 -0.0045380522 0.020328946 7.071068e-011 7.071068e-011 7.071068e-011 7.071068e-011
6860660660.6607 0.14488034 -0.020933786 -0.018640816 -0.0095709292 7.071068e-011 7.071068e-011 7.071068e-011 7.071068e-011
6869069069.0691 0.0037241837 -0.026583359 0.014490704 -0.016136719 7.071068e-011 7.071068e-011 7.071068e-011 7.071068e-011
6877477477.4775 0.054462116 0.072734468 0.012735614 0.018077701 7.071068e-011 7.071068e-011 7.071068e-011 7.071068e-011
6885885885.8859 0.09037181 0.0066078026 -0.020446276 0.00775606 7.071068e-011 7.071068e-011 7.071068e-011 7.071068e-011
6894294294.2943 0.047058299 -0.00097363413 -0.0023733191 -0.022028545 7.071068e-011 7.071068e-011 7.071068e-011 7.071068e-011
6902702702.7027 0.038222086 0.019523738 0.022018598 0.003190527 7.071068e-011 7.071068e-011 7.071068e-011 7.071068e-011
6911111111.1111 0.031142266 0.037754901 -0.0087385094 0.020246672 7.071068e-011 7.071068e-011 7.071068e-011 7.071068e-011
6919519519.5195 0.078376852 0.049658258 -0.017007047 -0.013590908 7.071068e-011 7.071068e-011 7.071068e-011 7.071068e-011
6927927927.9279 0.050339568 -0.01238719 0.017228739 -0.012841749 7.071068e-011 7.071068e-011 7.071068e-011 7.071068e-011
6936336336.3363 -0.0019724779 0.062654749 0.0073242695 0.019478694 7.071068e-011 7.071068e-011 7.071068e-011 7.071068e-011
6944744744.7447 0.1128528 0.088941075 -0.02085619 0.0012076596 7.071068e-011 7.071068e-011 7.071068e-011 7.071068e-011
6953153153.1532 0.083640471 -0.045741428 0.0044345609 -0.020029821 7.071068e-011 7.071068e-011 7.071068e-011 7.071068e-011
6961561561.5616 -0.028191116 0.055226911 0.017384119 0.0099025406 7.071068e-011 7.071068e-011 7.071068e-011 7.071068e-011
6969969969.97 0.12534232 0.10540416 -0.014492782 0.013601041 7.071068e-011 7.071068e-011 7.071068e-011 7.071068e-011
6978378378.3784 0.10089131 -0.071218587 -0.0084396405 -0.01736059 7.071068e-011 7.071068e-011 7.071068e-011 7.071068e-011
6986786786.7868 -0.064091094 0.033735201 0.018748384 -0.0023332213 7.071068e-011 7.071068e-011 7.071068e-011 7.071068e-011
6995195195.1952 0.10389671 0.13350722 -0.0034981437 0.018941948 7.071068e-011 7.071068e-011 7.071068e-011 7.071068e-011
7003603603.6036 0.10811742 -0.05851559 -0.016633455 -0.008862555 7.071068e-011 7.071068e-011 7.071068e-011 7.071068e-011
7012012012.012 -0.072878115 0.033535831 0.014092209 -0.012523894 7.071068e-011 7.071068e-011 7.071068e-011 7.071068e-011
7020420420.4204 0.089045003 0.16118397 0.0078537995 0.017321244 7.071068e-011 7.071068e-011 7.071068e-011 7.071068e-011
7028828828.8288 0.13193025 -0.029792462 -0.018544465 0.0018852882 7.071068e-011 7.071068e-011 7.071068e-011 7.071068e-011
7037237237.2372 -0.05435694 0.031719688 0.0043595587 -0.018685002 7.071068e-011 7.071068e-011 7.071068e-011 7.071068e-011
7045645645.6456 0.091039948 0.17084958 0.016477553 0.0097588524 7.071068e-011 7.071068e-011 7.071068e-011 7.071068e-011
7054054054.0541 0.16714047 -0.0039141704 -0.014653914 0.012102372 7.071068e-011 7.071068e-011 7.071068e-011 7.071068e-011
7062462462.4625 -0.0086919582 -0.0031908359 -0.0068964972 -0.018470066 7.071068e-011 7.071068e-011 7.071068e-011 7.071068e-011
7070870870.8709 0.079169959 0.14056502 0.019774068 -0.00124803 7.071068e-011 7.071068e-011 7.071068e-011 7.071068e-011
7079279279.2793 0.16816436 0.0066097216 -0.0054964484 0.018825816 7.071068e-011 7.071068e-011 7.071068e-011 7.071068e-011
7087687687.6877 0.031939685 -0.026470911 -0.016689919 -0.011451392 7.071068e-011 7.071068e-011 7.071068e-011 7.071068e-011
7096096096.0961 0.060138237 0.089599438 0.01591523 -0.012543678 7.071068e-011 7.071068e-011 7.071068e-011 7.071068e-011
7104504504.5045 0.1478488 0.0097961547 0.0066058622 0.019137407 7.071068e-011 7.071068e-011 7.071068e-011 7.071068e-011
7112912912.9129 0.050363928 -0.044433229 -0.020661546 -6.2348983e-005 7.071068e-011 7.071068e-011 7.071068e-011 7.071068e-011
7121321321.3213 0.034711909 0.032258943 0.0062628179 -0.019871725 7.071068e-011 7.071068e-011 7.071068e-011 7.071068e-011
7129729729.7297 0.089516856 0.014132226 0.016501483 0.012045463 7.071068e-011 7.071068e-011 7.071068e-011 7.071068e-011
7138138138.1381 0.043068726 -0.037871022 -0.017163552 0.011758815 7.071068e-011 7.071068e-011 7.071068e-011 7.071068e-011
7146546546.5465 -0.00049259228 0.013942366 -0.0059132734 -0.020117514 7.071068e-011 7.071068e-011 7.071068e-011 7.071068e-011
7154954954.955 0.030925363 0.041217655 0.020822706 0.00079436012 7.071068e-011 7.071068e-011 7.071068e-011 7.071068e-011
7163363363.3634 0.04480638 0.01549443 -0.0076073017 0.019133858 7.071068e-011 7.071068e-011 7.071068e-011 7.071068e-011
7171771771.7718 0.00099201524 0.020483589 -0.015803192 -0.013439712 7.071068e-011 7.071068e-011 7.071068e-011 7.071068e-011
7180180180.1802 0.018705944 0.072667256 0.017601978 -0.010448958 7.071068e-011 7.071068e-011 7.071068e-011 7.071068e-011
7188588588.5886 0.067838505 0.055859335 0.0039556893 0.020444704 7.071068e-011 7.071068e-011 7.071068e-011 7.071068e-011
7196996996.997 0.039499782 0.010170142 -0.020633761 -0.0026721661 7.071068e-011 7.071068e-011 7.071068e-011 7.071068e-011
7205405405.4054 0.012473207 0.067481242 0.0094947899 -0.018043414 7.071068e-011 7.071068e-011 7.071068e-011 7.071068e-011
7213813813.8138 0.083467759 0.06696035 0.013909374 0.015166661 7.071068e-011 7.071068e-011 7.071068e-011 7.071068e-011
7222222222.2222 0.06581381 -0.0056333188 -0.018974753 0.0082920417 7.071068e-011 7.071068e-011 7.071068e-011 7.071068e-011
7230630630.6306 -0.0012955989 0.035607491 -0.0015047585 -0.020509532 7.071068e-011 7.071068e-011 7.071068e-011 7.071068e-011
7239039039.039 0.071934536 0.075400278 0.01998353 0.0057884664 7.071068e-011 7.071068e-011 7.071068e-011 7.071068e-011
7247447447.4474 0.074914068 -0.01512171 -0.011972752 0.017033728 7.071068e-011 7.071068e-011 7.071068e-011 7.071068e-011
7255855855.8559 -0.016768873 0.0078098597 -0.011656066 -0.016995234 7.071068e-011 7.071068e-011 7.071068e-011 7.071068e-011
7264264264.2643 0.035400521 0.084046029 0.020122545 -0.0054109977 7.071068e-011 7.071068e-011 7.071068e-011 7.071068e-011
7272672672.6727 0.074140549 0.00017451499 -0.001452174 0.020559987 7.071068e-011 7.071068e-011 7.071068e-011 7.071068e-011
7281081081.0811 -0.030220401 0.0012063558 -0.018757045 -0.0083908476 7.071068e-011 7.071068e-011 7.071068e-011 7.071068e-011
7289489489.4895 0.00050012476 0.10779679 0.014657373 -0.014676309 7.071068e-011 7.071068e-011 7.071068e-011 7.071068e-011
7297897897.8979 0.084948227 0.050089147 0.0088740895 0.018814467 7.071068e-011 7.071068e-011 7.071068e-011 7.071068e-011
7306306306.3063 0.00055514107 0.0091104088 -0.020585867 0.0016347175 7.071068e-011 7.071068e-011 7.071068e-011 7.071068e-011
7314714714.7147 0.0045033805 0.11317094 0.0053289654 -0.020321414 7.071068e-011 7.071068e-011 7.071068e-011 7.071068e-011
7323123123.1231 0.11286444 0.07487981 0.017065188 0.011689528 7.071068e-011 7.071068e-011 7.071068e-011 7.071068e-011
7331531531.5315 0.050664071 -0.011775343 -0.017302228 0.011778813 7.071068e-011 7.071068e-011 7.071068e-011 7.071068e-011
7339939939.9399 0.0081742611 0.069167688 -0.0054072868 -0.020552957 7.071068e-011 7.071068e-011 7.071068e-011 7.071068e-011
7348348348.3483 0.1058391 0.06331069 0.020950763 0.0018394829 7.071068e-011 7.071068e-011 7.071068e-011 7.071068e-011
7356756756.7568 0.06568037 -0.037103284 -0.0091487681 0.018836891 7.071068e-011 7.071068e-011 7.071068e-011 7.071068e-011
7365165165.1652 -0.010142052 0.021388795 -0.014816497 -0.015156657 7.071068e-011 7.071068e-011 7.071068e-011 7.071068e-011
7373573573.5736 0.061980944 0.049581319 0.018999537 -0.0086354529 7.071068e-011 7.071068e-011 7.071068e-011 7.071068e-011
7381981981.982 0.043603133 -0.035641748 0.0011399265 0.021129066 7.071068e-011 7.071068e-011 7.071068e-011 7.071068e-011
7390390390.3904 -0.043183804 0.010104978 -0.020376293 -0.0060979924 7.071068e-011 7.071068e-011 7.071068e-011 7.071068e-011
7398798798.7988 0.013411757 0.071133308 0.012841495 -0.016759196 7.071068e-011 7.071068e-011 7.071068e-011 7.071068e-011
7407207207.2072 0.02767255 0.0094949165 0.011270405 0.017955892 7.071068e-011 7.071068e-011 7.071068e-011 7.071068e-011
7415615615.6156 -0.041152623 0.035697274 -0.020884354 0.0044610435 7.071068e-011 7.071068e-011 7.071068e-011 7.071068e-011
7424024024.024 0.0071130702 0.10506509 0.00299339 -0.021065386 7.071068e-011 7.071068e-011 7.071068e-011 7.071068e-011
7432432432.4324 0.054604996 0.05382365 0.018734861 0.010355593 7.071068e-011 7.071068e-011 7.071068e-011 7.071068e-011
7440840840.8408 0.0095474739 0.042545035 -0.016094744 0.014123691 7.071068e-011 7.071068e-011 7.071068e-011 7.071068e-011
7449249249.2492 0.030478081 0.087279476 -0.0074080811 -0.019861754 7.071068e-011 7.071068e-011 7.071068e-011 7.071068e-011
7457657657.6577 0.07797429 0.04875613 0.021277109 8.9302841e-005 7.071068e-011 7.071068e-011 7.071068e-011 7.071068e-011
7466066066.0661 0.041520953 0.014154454 -0.0074506933 0.019984545 7.071068e-011 7.071068e-011 7.071068e-011 7.071068e-011
7474474474.4745 0.030629296 0.039544925 -0.016006157 -0.013787576 7.071068e-011 7.071068e-011 7.071068e-011 7.071068e-011
7482882882.8829 0.060028676 0.028957514 0.018605754 -0.0098814489 7.071068e-011 7.071068e-011 7.071068e-011 7.071068e-011
7491291291.2913 0.03875868 -0.013460163 0.0027144852 0.020927774 7.071068e-011 7.071068e-011 7.071068e-011 7.071068e-011
7499699699.6997 -0.0033729794 0.0025921159 -0.020393385 -0.0048477133 7.071068e-011 7.071068e-011 7.071068e-011 7.071068e-011
7508108108.1081 0.0035072409 0.031949356 0.011692551 -0.017375348 7.071068e-011 7.071068e-011 7.071068e-011 7.071068e-011
7516516516.5165 0.019349117 0.011724351 0.012061818 0.01696202 7.071068e-011 7.071068e-011 7.071068e-011 7.071068e-011
7524924924.9249 -0.02663279 0.0067133354 -0.02002145 0.0051502115 7.071068e-011 7.071068e-011 7.071068e-011 7.071068e-011
7533333333.3333 -0.029615562 0.066158578 0.0024652581 -0.020513652 7.071068e-011 7.071068e-011 7.071068e-011 7.071068e-011
7541741741.7417 0.027944215 0.068641216 0.018315591 0.0094380388 7.071068e-011 7.071068e-011 7.071068e-011 7.071068e-011
7550150150.1502 0.01268745 0.020556049 -0.015180847 0.013292301 7.071068e-011 7.071068e-011 7.071068e-011 7.071068e-011
7558558558.5586 -0.015244997 0.068766534 -0.0069125253 -0.019028379 7.071068e-011 7.071068e-011 7.071068e-011 7.071068e-011
7566966966.967 0.055861786 0.077912264 0.020008408 0.00041626891 7.071068e-011 7.071068e-011 7.071068e-011 7.071068e-011
7575375375.3754 0.053259537 0.00081852643 -0.0078662001 0.018492183 7.071068e-011 7.071068e-011 7.071068e-011 7.071068e-011
7583783783.7838 -0.011921242 0.024417987 -0.014440749 -0.014044304 7.071068e-011 7.071068e-011 7.071068e-011 7.071068e-011
7592192192.1922 0.045878176 0.060530737 0.017985597 -0.0083757909 7.071068e-011 7.071068e-011 7.071068e-011 7.071068e-011
7600600600.6006 0.05152766 -0.024606761 0.00091355509 0.019495863 7.071068e-011 7.071068e-011 7.071068e-011 7.071068e-011
7609009009.009 -0.038119946 -0.010425683 -0.018907096 -0.0064918092 7.071068e-011 7.071068e-011 7.071068e-011 7.071068e-011
7617417417.4174 -0.0047520837 0.058129076 0.01257732 -0.01536357 7.071068e-011 7.071068e-011 7.071068e-011 7.071068e-011
7625825825.8258 0.026228953 -0.0044706371 0.0094845463 0.017373029 7.071068e-011 7.071068e-011 7.071068e-011 7.071068e-011
7634234234.2342 -0.06090961 0.0042936215 -0.019548835 0.0025215927 7.071068e-011 7.071068e-011 7.071068e-011 7.071068e-011
7642642642.6426 -0.026208643 0.091771133 0.0049329242 -0.018934531 7.071068e-011 7.071068e-011 7.071068e-011 7.071068e-011
7651051051.0511 0.037482835 0.042079303 0.01579353 0.01167104 7.071068e-011 7.071068e-011 7.071068e-011 7.071068e-011
7659459459.4595 -0.030203015 0.018337222 -0.016753618 0.010718127 7.071068e-011 7.071068e-011 7.071068e-011 7.071068e-011
7667867867.8679 -0.011239301 0.10268401 -0.0039438787 -0.019112 7.071068e-011 7.071068e-011 7.071068e-011 7.071068e-011
7676276276.2763 0.073917769 0.05864574 0.019112119 0.0039021987 7.071068e-011 7.071068e-011 7.071068e-011 7.071068e-011
7684684684.6847 0.021022329 -0.0038219991 -0.010730333 0.016652206 7.071068e-011 7.071068e-011 7.071068e-011 7.071068e-011
7693093093.0931 0.00084320072 0.05471921 -0.011527536 -0.01595182 7.071068e-011 7.071068e-011 7.071068e-011 7.071068e-011
7701501501.5015 0.071284272 0.032313049 0.01901434 -0.0048943912 7.071068e-011 7.071068e-011 7.071068e-011 7.071068e-011
7709909909.9099 0.023006102 -0.04254397 -0.0025460091 0.019534336 7.071068e-011 7.071068e-011 7.071068e-011 7.071068e-011
7718318318.3183 -0.03308443 0.011239621 -0.017250763 -0.0095521044 7.071068e-011 7.071068e-011 7.071068e-011 7.071068e-011
7726726726.7267 0.024733122 0.027619801 0.015427947 -0.01229901 7.071068e-011 7.071068e-011 7.071068e-011 7.071068e-011
7735135135.1351 0.0025877659 -0.041503906 0.0059925653 0.01896299 7.071068e-011 7.071068e-011 7.071068e-011 7.071068e-011
7743543543.5435 -0.075081266 0.00010704532 -0.019555321 -0.0014073658 7.071068e-011 7.071068e-011 7.071068e-011 7.071068e-011
7751951951.952 -0.030085694 0.064267404 0.0086643798 -0.017736003 7.071068e-011 7.071068e-011 7.071068e-011 7.071068e-011
7760360360.3604 -0.0027651165 0.017170552 0.013313181 0.01462259 7.071068e-011 7.071068e-011 7.071068e-011 7.071068e-011
7768768768.7688 -0.058543816 0.028617499 -0.018586757 0.0069292351 7.071068e-011 7.071068e-011 7.071068e-011 7.071068e-011
7777177177.1772 -0.027019013 0.095680378 0.00054006453 -0.019746993 7.071068e-011 7.071068e-011 7.071068e-011 7.071068e-011
7785585585.5856 0.033834107 0.057760913 0.018162826 0.0077618132 7.071068e-011 7.071068e-011 7.071068e-011 7.071068e-011
7793993993.994 -0.0058490671 0.027911251 -0.013869176 0.013746302 7.071068e-011 7.071068e-011 7.071068e-011 7.071068e-011
7802402402.4024 -0.00030911705 0.075123496 -0.0076476978 -0.018361274 7.071068e-011 7.071068e-011 7.071068e-011 7.071068e-011
7810810810.8108 0.058105834 0.048714947 0.019789267 -0.00052762841 7.071068e-011 7.071068e-011 7.071068e-011 7.071068e-011
7819219219.2192 0.025792243 -0.0064026336 -0.0070820781 0.018373225 7.071068e-011 7.071068e-011 7.071068e-011 7.071068e-011
7827627627.6276 -0.003567979 0.02708859 -0.014469641 -0.013421829 7.071068e-011 7.071068e-011 7.071068e-011 7.071068e-011
7836036036.036 0.037696123 0.025671719 0.017829971 -0.0084139341 7.071068e-011 7.071068e-011 7.071068e-011 7.071068e-011
7844444444.4444 0.016373627 -0.023885356 0.0012004788 0.019734005 7.071068e-011 7.071068e-011 7.071068e-011 7.071068e-011
7852852852.8529 -0.028285481 0.0032271792 -0.01882313 -0.0062927068 7.071068e-011 7.071068e-011 7.071068e-011 7.071068e-011
7861261261.2613 0.0019202287 0.029452141 0.012716643 -0.015110728 7.071068e-011 7.071068e-011 7.071068e-011 7.071068e-011
7869669669.6697 0.0053686071 -0.0094227148 0.009092466 0.017551083 7.071068e-011 7.071068e-011 7.071068e-011 7.071068e-011
7878078078.0781 -0.040526357 0.0035571563 -0.019811291 0.0020319028 7.071068e-011 7.071068e-011 7.071068e-011 7.071068e-011
7886486486.4865 -0.024258776 0.046999913 0.0053343363 -0.019065581 7.071068e-011 7.071068e-011 7.071068e-011 7.071068e-011
7894894894.8949 0.010928869 0.030110436 0.015455241 0.011952052 7.071068e-011 7.071068e-011 7.071068e-011 7.071068e-011
7903303303.3033 -0.013708467 0.011123524 -0.017072696 0.0097607486 7.071068e-011 7.071068e-011 7.071068e-011 7.071068e-011
7911711711.7117 -0.0178011 0.044129118 -0.0028330595 -0.019489415 7.071068e-011 7.071068e-011 7.071068e-011 7.071068e-011
7920120120.1201 0.023217272 0.044790406 0.018931858 0.0046676588 7.071068e-011 7.071068e-011 7.071068e-011 7.071068e-011
7928528528.5285 0.023444153 0.0018794819 -0.011418479 0.015788024 7.071068e-011 7.071068e-011 7.071068e-011 7.071068e-011
7936936936.9369 -0.009988619 0.011401699 -0.010232258 -0.016360205 7.071068e-011 7.071068e-011 7.071068e-011 7.071068e-011
7945345345.3453 0.018041259 0.032118976 0.019025197 -0.0031622967 7.071068e-011 7.071068e-011 7.071068e-011 7.071068e-011
