!Keysight Technologies,N5235B,MY61252044,A.15.00.15
!Date: Friday, January 20, 2023 23:24:15
!Correction: S11(Off) 
!S21(Off) 
!S12(Off) 
!S22(Off) 
!S2P File: Measurements: S11, S21, S12, S22:
# Hz S  RI   R 50
6600000000 0.018577123 -0.17528579 0.015473056 -0.0030462008 7.071068e-011 7.071068e-011 7.071068e-011 7.071068e-011
6608408408.4084 -0.12456779 0.16558209 0.0053094435 0.010847459 7.071068e-011 7.071068e-011 7.071068e-011 7.071068e-011
6616816816.8168 0.30595559 0.092705503 -0.0089198779 0.0036906886 7.071068e-011 7.071068e-011 7.071068e-011 7.071068e-011
6625225225.2252 0.024664637 -0.27293101 -0.0017792248 -0.0093157385 7.071068e-011 7.071068e-011 7.071068e-011 7.071068e-011
6633633633.6336 -0.16572241 0.16133907 0.0093467692 -0.00038582989 7.071068e-011 7.071068e-011 7.071068e-011 7.071068e-011
6642042042.042 0.28985757 0.11323157 -0.0018587472 0.009328803 7.071068e-011 7.071068e-011 7.071068e-011 7.071068e-011
6650450450.4505 0.03921403 -0.25208744 -0.010732487 -0.0040998152 7.071068e-011 7.071068e-011 7.071068e-011 7.071068e-011
6658858858.8589 -0.14845444 0.1343663 0.0059880796 -0.011501844 7.071068e-011 7.071068e-011 7.071068e-011 7.071068e-011
6667267267.2673 0.22851515 0.10126601 0.012208614 0.0091801286 7.071068e-011 7.071068e-011 7.071068e-011 7.071068e-011
6675675675.6757 0.042875711 -0.15107228 -0.011557404 0.013829364 7.071068e-011 7.071068e-011 7.071068e-011 7.071068e-011
6684084084.0841 -0.044333793 0.084119976 -0.014607131 -0.013375425 7.071068e-011 7.071068e-011 7.071068e-011 7.071068e-011
6692492492.4925 0.10571659 0.047507152 0.01484153 -0.014932024 7.071068e-011 7.071068e-011 7.071068e-011 7.071068e-011
6700900900.9009 0.086038522 0.018320341 0.014776035 0.015434516 7.071068e-011 7.071068e-011 7.071068e-011 7.071068e-011
6709309309.3093 0.077187926 -0.041844074 -0.015570823 0.013114891 7.071068e-011 7.071068e-011 7.071068e-011 7.071068e-011
6717717717.7177 -0.031107543 0.034296561 -0.01014474 -0.016497387 7.071068e-011 7.071068e-011 7.071068e-011 7.071068e-011
6726126126.1261 0.15495071 0.11633215 0.016819594 -0.0070846127 7.071068e-011 7.071068e-011 7.071068e-011 7.071068e-011
6734534534.5345 0.1287615 -0.14058754 0.0035533984 0.016248967 7.071068e-011 7.071068e-011 7.071068e-011 7.071068e-011
6742942942.9429 -0.10792891 0.026505701 -0.015927199 -0.00028500392 7.071068e-011 7.071068e-011 7.071068e-011 7.071068e-011
6751351351.3514 0.17143476 0.15269381 0.0036254728 -0.015383045 7.071068e-011 7.071068e-011 7.071068e-011 7.071068e-011
6759759759.7598 0.15077649 -0.17152488 0.013194145 0.007078243 7.071068e-011 7.071068e-011 7.071068e-011 7.071068e-011
6768168168.1682 -0.14688133 -0.0055940375 -0.010869574 0.010416191 7.071068e-011 7.071068e-011 7.071068e-011 7.071068e-011
6776576576.5766 0.13389727 0.17893234 -0.0080062896 -0.01348582 7.071068e-011 7.071068e-011 7.071068e-011 7.071068e-011
6784984984.985 0.15130962 -0.14603433 0.014571427 -0.0040175202 7.071068e-011 7.071068e-011 7.071068e-011 7.071068e-011
6793393393.3934 -0.14734256 -0.0067935158 -0.00035356494 0.015534356 7.071068e-011 7.071068e-011 7.071068e-011 7.071068e-011
6801801801.8018 0.10131819 0.20275021 -0.015729662 -0.0043058959 7.071068e-011 7.071068e-011 7.071068e-011 7.071068e-011
6810210210.2102 0.17260508 -0.094812922 0.0086852089 -0.014442406 7.071068e-011 7.071068e-011 7.071068e-011 7.071068e-011
6818618618.6186 -0.10531997 -0.010478818 0.012147262 0.013254391 7.071068e-011 7.071068e-011 7.071068e-011 7.071068e-011
6827027027.027 0.087744743 0.18548176 -0.015977768 0.0092115412 7.071068e-011 7.071068e-011 7.071068e-011 7.071068e-011
6835435435.4354 0.18147296 -0.048672624 -0.0044797743 -0.017912714 7.071068e-011 7.071068e-011 7.071068e-011 7.071068e-011
6843843843.8438 -0.045301139 -0.028090531 0.020188933 0.00025832135 7.071068e-011 7.071068e-011 7.071068e-011 7.071068e-011
6852252252.2523 0.074587665 0.12918045 -0.0045909151 0.020315459 7.071068e-011 7.071068e-011 7.071068e-011 7.071068e-011
6860660660.6607 0.14516166 -0.020104032 -0.018616797 -0.0096187042 7.071068e-011 7.071068e-011 7.071068e-011 7.071068e-011
6869069069.0691 0.004206764 -0.027172666 0.014536919 -0.016093541 7.071068e-011 7.071068e-011 7.071068e-011 7.071068e-011
6877477477.4775 0.05397483 0.072617501 0.012684744 0.018109627 7.071068e-011 7.071068e-011 7.071068e-011 7.071068e-011
6885885885.8859 0.090395197 0.0068647726 -0.020468391 0.0077034119 7.071068e-011 7.071068e-011 7.071068e-011 7.071068e-011
6894294294.2943 0.047226887 -0.00094598532 -0.0022994934 -0.022034142 7.071068e-011 7.071068e-011 7.071068e-011 7.071068e-011
6902702702.7027 0.038298149 0.019306874 0.022006597 0.0032504878 7.071068e-011 7.071068e-011 7.071068e-011 7.071068e-011
6911111111.1111 0.030899383 0.037680376 -0.0087896725 0.020227734 7.071068e-011 7.071068e-011 7.071068e-011 7.071068e-011
6919519519.5195 0.078355759 0.049949847 -0.016953385 -0.013635572 7.071068e-011 7.071068e-011 7.071068e-011 7.071068e-011
6927927927.9279 0.050703421 -0.012405135 0.017256811 -0.012783595 7.071068e-011 7.071068e-011 7.071068e-011 7.071068e-011
6936336336.3363 -0.0021082489 0.062189434 0.0072743925 0.019488808 7.071068e-011 7.071068e-011 7.071068e-011 7.071068e-011
6944744744.7447 0.11233904 0.08934699 -0.020850698 0.0011398225 7.071068e-011 7.071068e-011 7.071068e-011 7.071068e-011
6953153153.1532 0.084395081 -0.045461424 0.0044939448 -0.020007441 7.071068e-011 7.071068e-011 7.071068e-011 7.071068e-011
6961561561.5616 -0.028358424 0.054318216 0.017346868 0.0099592833 7.071068e-011 7.071068e-011 7.071068e-011 7.071068e-011
6969969969.97 0.12460463 0.10599688 -0.014527465 0.013554177 7.071068e-011 7.071068e-011 7.071068e-011 7.071068e-011
6978378378.3784 0.1017675 -0.070852436 -0.0083894283 -0.017383153 7.071068e-011 7.071068e-011 7.071068e-011 7.071068e-011
6986786786.7868 -0.064122498 0.032759342 0.018742584 -0.0022851769 7.071068e-011 7.071068e-011 7.071068e-011 7.071068e-011
6995195195.1952 0.10300937 0.13387819 -0.0035568739 0.018928748 7.071068e-011 7.071068e-011 7.071068e-011 7.071068e-011
7003603603.6036 0.108863 -0.057856984 -0.016612798 -0.0089090774 7.071068e-011 7.071068e-011 7.071068e-011 7.071068e-011
7012012012.012 -0.072598964 0.032458045 0.01412875 -0.012477468 7.071068e-011 7.071068e-011 7.071068e-011 7.071068e-011
7020420420.4204 0.087944001 0.16140218 0.0077959592 0.017338874 7.071068e-011 7.071068e-011 7.071068e-011 7.071068e-011
7028828828.8288 0.13268901 -0.028948983 -0.018541301 0.0018278332 7.071068e-011 7.071068e-011 7.071068e-011 7.071068e-011
7037237237.2372 -0.053999856 0.030604575 0.0044230656 -0.018658794 7.071068e-011 7.071068e-011 7.071068e-011 7.071068e-011
7045645645.6456 0.090032533 0.17095572 0.01646132 0.0098089231 7.071068e-011 7.071068e-011 7.071068e-011 7.071068e-011
7054054054.0541 0.16760196 -0.0031400479 -0.014684586 0.012058284 7.071068e-011 7.071068e-011 7.071068e-011 7.071068e-011
7062462462.4625 -0.0081469938 -0.0039443304 -0.0068423008 -0.018487019 7.071068e-011 7.071068e-011 7.071068e-011 7.071068e-011
7070870870.8709 0.078319684 0.14033087 0.019784948 -0.001197855 7.071068e-011 7.071068e-011 7.071068e-011 7.071068e-011
7079279279.2793 0.16826265 0.0073894807 -0.005544404 0.018812772 7.071068e-011 7.071068e-011 7.071068e-011 7.071068e-011
7087687687.6877 0.03262309 -0.026968898 -0.016655821 -0.011498059 7.071068e-011 7.071068e-011 7.071068e-011 7.071068e-011
7096096096.0961 0.059428181 0.08923009 0.015955968 -0.012489696 7.071068e-011 7.071068e-011 7.071068e-011 7.071068e-011
7104504504.5045 0.14783075 0.010444268 0.0065456983 0.019152064 7.071068e-011 7.071068e-011 7.071068e-011 7.071068e-011
7112912912.9129 0.050825823 -0.044711001 -0.020659011 -0.00012821915 7.071068e-011 7.071068e-011 7.071068e-011 7.071068e-011
7121321321.3213 0.034406371 0.031962454 0.0063130837 -0.019858804 7.071068e-011 7.071068e-011 7.071068e-011 7.071068e-011
7129729729.7297 0.089290656 0.014406475 0.01646414 0.012082629 7.071068e-011 7.071068e-011 7.071068e-011 7.071068e-011
7138138138.1381 0.043389983 -0.037717346 -0.017198468 0.011711419 7.071068e-011 7.071068e-011 7.071068e-011 7.071068e-011
7146546546.5465 -0.0004594558 0.013558279 -0.0058545931 -0.020135902 7.071068e-011 7.071068e-011 7.071068e-011 7.071068e-011
7154954954.955 0.030560112 0.041353151 0.020821726 0.00084768329 7.071068e-011 7.071068e-011 7.071068e-011 7.071068e-011
7163363363.3634 0.045043804 0.01575244 -0.0076606413 0.019114569 7.071068e-011 7.071068e-011 7.071068e-011 7.071068e-011
7171771771.7718 0.0011127413 0.020229366 -0.015759313 -0.013490612 7.071068e-011 7.071068e-011 7.071068e-011 7.071068e-011
7180180180.1802 0.018515838 0.072571941 0.017635806 -0.010404456 7.071068e-011 7.071068e-011 7.071068e-011 7.071068e-011
7188588588.5886 0.067711323 0.056101426 0.0038884941 0.020468635 7.071068e-011 7.071068e-011 7.071068e-011 7.071068e-011
7196996996.997 0.039924011 0.010196412 -0.020628113 -0.0027431694 7.071068e-011 7.071068e-011 7.071068e-011 7.071068e-011
7205405405.4054 0.012283855 0.067020968 0.0095498683 -0.018018054 7.071068e-011 7.071068e-011 7.071068e-011 7.071068e-011
7213813813.8138 0.083156668 0.067323618 0.013863906 0.015198151 7.071068e-011 7.071068e-011 7.071068e-011 7.071068e-011
7222222222.2222 0.066297881 -0.0055310652 -0.019001801 0.0082324436 7.071068e-011 7.071068e-011 7.071068e-011 7.071068e-011
7230630630.6306 -0.0013886176 0.03512796 -0.0014436678 -0.020507861 7.071068e-011 7.071068e-011 7.071068e-011 7.071068e-011
7239039039.039 0.071576819 0.075592175 0.019969046 0.0058504804 7.071068e-011 7.071068e-011 7.071068e-011 7.071068e-011
7247447447.4474 0.075191528 -0.014802032 -0.012022593 0.016993836 7.071068e-011 7.071068e-011 7.071068e-011 7.071068e-011
7255855855.8559 -0.016510382 0.0073472913 -0.011607944 -0.01703319 7.071068e-011 7.071068e-011 7.071068e-011 7.071068e-011
7264264264.2643 0.034772508 0.083990127 0.020141073 -0.0053559388 7.071068e-011 7.071068e-011 7.071068e-011 7.071068e-011
7272672672.6727 0.074429631 0.00077709276 -0.0015111096 0.0205594 7.071068e-011 7.071068e-011 7.071068e-011 7.071068e-011
7281081081.0811 -0.029817037 0.00067708397 -0.018746585 -0.0084547596 7.071068e-011 7.071068e-011 7.071068e-011 7.071068e-011
7289489489.4895 -0.00010830571 0.1076555 0.014707456 -0.014632199 7.071068e-011 7.071068e-011 7.071068e-011 7.071068e-011
7297897897.8979 0.085040018 0.050660763 0.0088201407 0.018834731 7.071068e-011 7.071068e-011 7.071068e-011 7.071068e-011
7306306306.3063 0.0010454785 0.0088693602 -0.020590367 0.0015887026 7.071068e-011 7.071068e-011 7.071068e-011 7.071068e-011
7314714714.7147 0.004142093 0.11275707 0.0054040058 -0.020304374 7.071068e-011 7.071068e-011 7.071068e-011 7.071068e-011
7323123123.1231 0.11257483 0.075389452 0.017022051 0.011738526 7.071068e-011 7.071068e-011 7.071068e-011 7.071068e-011
7331531531.5315 0.051350985 -0.011776159 -0.017340614 0.011727953 7.071068e-011 7.071068e-011 7.071068e-011 7.071068e-011
7339939939.9399 0.0078499494 0.068521589 -0.0053214426 -0.020574151 7.071068e-011 7.071068e-011 7.071068e-011 7.071068e-011
7348348348.3483 0.10546199 0.06380403 0.020944834 0.0019156969 7.071068e-011 7.071068e-011 7.071068e-011 7.071068e-011
7356756756.7568 0.066229172 -0.037056696 -0.0091951136 0.018814381 7.071068e-011 7.071068e-011 7.071068e-011 7.071068e-011
7365165165.1652 -0.010285901 0.020890469 -0.014753496 -0.01520796 7.071068e-011 7.071068e-011 7.071068e-011 7.071068e-011
7373573573.5736 0.061567098 0.049812403 0.019023146 -0.0085845739 7.071068e-011 7.071068e-011 7.071068e-011 7.071068e-011
7381981981.982 0.043918937 -0.035326459 0.0010862128 0.021134598 7.071068e-011 7.071068e-011 7.071068e-011 7.071068e-011
7390390390.3904 -0.04299248 0.0096304016 -0.020348577 -0.006168372 7.071068e-011 7.071068e-011 7.071068e-011 7.071068e-011
7398798798.7988 0.012847437 0.071187302 0.012899143 -0.016717097 7.071068e-011 7.071068e-011 7.071068e-011 7.071068e-011
7407207207.2072 0.02801948 0.0099438615 0.011214294 0.017991958 7.071068e-011 7.071068e-011 7.071068e-011 7.071068e-011
7415615615.6156 -0.040950611 0.035226736 -0.020895764 0.0043958589 7.071068e-011 7.071068e-011 7.071068e-011 7.071068e-011
7424024024.024 0.0067156502 0.10509735 0.0030518204 -0.021060059 7.071068e-011 7.071068e-011 7.071068e-011 7.071068e-011
7432432432.4324 0.054760765 0.054096941 0.018702902 0.010406117 7.071068e-011 7.071068e-011 7.071068e-011 7.071068e-011
7440840840.8408 0.009772812 0.04238103 -0.016145634 0.014072003 7.071068e-011 7.071068e-011 7.071068e-011 7.071068e-011
7449249249.2492 0.030298702 0.087051496 -0.00734057 -0.019883333 7.071068e-011 7.071068e-011 7.071068e-011 7.071068e-011
7457657657.6577 0.077859409 0.049028192 0.021271681 0.00015069731 7.071068e-011 7.071068e-011 7.071068e-011 7.071068e-011
7466066066.0661 0.041879207 0.014086661 -0.0075203218 0.019951414 7.071068e-011 7.071068e-011 7.071068e-011 7.071068e-011
7474474474.4745 0.030409237 0.039223239 -0.015952835 -0.013839157 7.071068e-011 7.071068e-011 7.071068e-011 7.071068e-011
7482882882.8829 0.059895217 0.02921921 0.018639477 -0.0098203188 7.071068e-011 7.071068e-011 7.071068e-011 7.071068e-011
7491291291.2913 0.038932845 -0.01345618 0.0026501489 0.020945029 7.071068e-011 7.071068e-011 7.071068e-011 7.071068e-011
7499699699.6997 -0.0033419169 0.0024534243 -0.020380966 -0.0049176505 7.071068e-011 7.071068e-011 7.071068e-011 7.071068e-011
7508108108.1081 0.0032963217 0.03186886 0.011748824 -0.017338799 7.071068e-011 7.071068e-011 7.071068e-011 7.071068e-011
7516516516.5165 0.019331239 0.012032776 0.012006743 0.017000083 7.071068e-011 7.071068e-011 7.071068e-011 7.071068e-011
7524924924.9249 -0.026272418 0.006546142 -0.020040179 0.0050864108 7.071068e-011 7.071068e-011 7.071068e-011 7.071068e-011
7533333333.3333 -0.029945122 0.065934196 0.0025325904 -0.020513076 7.071068e-011 7.071068e-011 7.071068e-011 7.071068e-011
7541741741.7417 0.027894562 0.068972908 0.018262653 0.0094907722 7.071068e-011 7.071068e-011 7.071068e-011 7.071068e-011
7550150150.1502 0.013023002 0.020512905 -0.015225135 0.013228508 7.071068e-011 7.071068e-011 7.071068e-011 7.071068e-011
7558558558.5586 -0.015337081 0.068474829 -0.0068565053 -0.019050492 7.071068e-011 7.071068e-011 7.071068e-011 7.071068e-011
7566966966.967 0.055570766 0.078066014 0.020013629 0.00048801876 7.071068e-011 7.071068e-011 7.071068e-011 7.071068e-011
7575375375.3754 0.05360458 0.0010692546 -0.0079224072 0.018471051 7.071068e-011 7.071068e-011 7.071068e-011 7.071068e-011
7583783783.7838 -0.011810962 0.023878517 -0.014408591 -0.01409039 7.071068e-011 7.071068e-011 7.071068e-011 7.071068e-011
7592192192.1922 0.045329075 0.060689118 0.018020181 -0.0083212554 7.071068e-011 7.071068e-011 7.071068e-011 7.071068e-011
7600600600.6006 0.051926274 -0.024270544 0.00086825911 0.019496994 7.071068e-011 7.071068e-011 7.071068e-011 7.071068e-011
7609009009.009 -0.038021304 -0.010923247 -0.018887943 -0.0065445527 7.071068e-011 7.071068e-011 7.071068e-011 7.071068e-011
7617417417.4174 -0.0052119279 0.058201887 0.012629865 -0.015325701 7.071068e-011 7.071068e-011 7.071068e-011 7.071068e-011
7625825825.8258 0.026430728 -0.0040878253 0.0094181122 0.017411992 7.071068e-011 7.071068e-011 7.071068e-011 7.071068e-011
7634234234.2342 -0.06058564 0.0039710533 -0.019560799 0.0024369294 7.071068e-011 7.071068e-011 7.071068e-011 7.071068e-011
7642642642.6426 -0.026666921 0.091545254 0.0049944757 -0.018914158 7.071068e-011 7.071068e-011 7.071068e-011 7.071068e-011
7651051051.0511 0.037496306 0.042651929 0.015756102 0.011725818 7.071068e-011 7.071068e-011 7.071068e-011 7.071068e-011
7659459459.4595 -0.029640226 0.018019684 -0.016793987 0.010667892 7.071068e-011 7.071068e-011 7.071068e-011 7.071068e-011
7667867867.8679 -0.011752165 0.10238443 -0.0038999117 -0.019132437 7.071068e-011 7.071068e-011 7.071068e-011 7.071068e-011
7676276276.2763 0.073902816 0.059159093 0.019101832 0.0039717876 7.071068e-011 7.071068e-011 7.071068e-011 7.071068e-011
7684684684.6847 0.021468284 -0.0040147533 -0.010782551 0.016619312 7.071068e-011 7.071068e-011 7.071068e-011 7.071068e-011
7693093093.0931 0.0006208485 0.054371055 -0.011482467 -0.015975591 7.071068e-011 7.071068e-011 7.071068e-011 7.071068e-011
7701501501.5015 0.071017474 0.032598834 0.019039588 -0.0048247385 7.071068e-011 7.071068e-011 7.071068e-011 7.071068e-011
7709909909.9099 0.023422008 -0.04241433 -0.0026242684 0.019528462 7.071068e-011 7.071068e-011 7.071068e-011 7.071068e-011
7718318318.3183 -0.033146042 0.010680928 -0.017229762 -0.0096031781 7.071068e-011 7.071068e-011 7.071068e-011 7.071068e-011
7726726726.7267 0.024240071 0.027914137 0.015465539 -0.012248932 7.071068e-011 7.071068e-011 7.071068e-011 7.071068e-011
7735135135.1351 0.0030550559 -0.041228589 0.0059409593 0.018975822 7.071068e-011 7.071068e-011 7.071068e-011 7.071068e-011
7743543543.5435 -0.075060584 -0.00038771442 -0.019548243 -0.0014533846 7.071068e-011 7.071068e-011 7.071068e-011 7.071068e-011
7751951951.952 -0.030459346 0.064397551 0.0087321857 -0.017701382 7.071068e-011 7.071068e-011 7.071068e-011 7.071068e-011
7760360360.3604 -0.0025908493 0.017471867 0.013260995 0.014672583 7.071068e-011 7.071068e-011 7.071068e-011 7.071068e-011
7768768768.7688 -0.058250628 0.028407829 -0.018599588 0.006874877 7.071068e-011 7.071068e-011 7.071068e-011 7.071068e-011
7777177177.1772 -0.027344711 0.095448494 0.00059781788 -0.019738544 7.071068e-011 7.071068e-011 7.071068e-011 7.071068e-011
7785585585.5856 0.033812042 0.058194891 0.018145801 0.0078303386 7.071068e-011 7.071068e-011 7.071068e-011 7.071068e-011
7793993993.994 -0.0053920331 0.027689662 -0.013923587 0.013708641 7.071068e-011 7.071068e-011 7.071068e-011 7.071068e-011
7802402402.4024 -0.00064264983 0.074830174 -0.0075852596 -0.01839599 7.071068e-011 7.071068e-011 7.071068e-011 7.071068e-011
7810810810.8108 0.058058195 0.049061351 0.019796949 -0.00045819717 7.071068e-011 7.071068e-011 7.071068e-011 7.071068e-011
7819219219.2192 0.026078973 -0.0065085413 -0.0071411766 0.01835434 7.071068e-011 7.071068e-011 7.071068e-011 7.071068e-011
7827627627.6276 -0.0036555713 0.02681632 -0.014421035 -0.013465334 7.071068e-011 7.071068e-011 7.071068e-011 7.071068e-011
7836036036.036 0.037439995 0.025759272 0.017856618 -0.0083530974 7.071068e-011 7.071068e-011 7.071068e-011 7.071068e-011
7844444444.4444 0.01660116 -0.023673134 0.0011175756 0.01973439 7.071068e-011 7.071068e-011 7.071068e-011 7.071068e-011
7852852852.8529 -0.028223125 0.0028415907 -0.018810013 -0.0063608289 7.071068e-011 7.071068e-011 7.071068e-011 7.071068e-011
7861261261.2613 0.0015326644 0.029579399 0.012786936 -0.015063146 7.071068e-011 7.071068e-011 7.071068e-011 7.071068e-011
7869669669.6697 0.0056394581 -0.0091790929 0.0090247542 0.01757735 7.071068e-011 7.071068e-011 7.071068e-011 7.071068e-011
7878078078.0781 -0.040433135 0.0032758119 -0.01983179 0.0019688632 7.071068e-011 7.071068e-011 7.071068e-011 7.071068e-011
7886486486.4865 -0.024441957 0.04696447 0.0053850906 -0.019041622 7.071068e-011 7.071068e-011 7.071068e-011 7.071068e-011
7894894894.8949 0.010885665 0.030289864 0.015423903 0.011996051 7.071068e-011 7.071068e-011 7.071068e-011 7.071068e-011
7903303303.3033 -0.013432465 0.011149854 -0.017100722 0.009705334 7.071068e-011 7.071068e-011 7.071068e-011 7.071068e-011
7911711711.7117 -0.017855661 0.043788012 -0.0027668327 -0.019500483 7.071068e-011 7.071068e-011 7.071068e-011 7.071068e-011
7920120120.1201 0.022975663 0.045015503 0.01891165 0.0047292076 7.071068e-011 7.071068e-011 7.071068e-011 7.071068e-011
7928528528.5285 0.023783529 0.0019497524 -0.011468863 0.015738709 7.071068e-011 7.071068e-011 7.071068e-011 7.071068e-011
7936936936.9369 -0.010044251 0.011078143 -0.010162838 -0.016407348 7.071068e-011 7.071068e-011 7.071068e-011 7.071068e-011
7945345345.3453 0.017825719 0.032170787 0.01904344 -0.0030920517 7.071068e-011 7.071068e-011 7.071068e-011 7.071068e-011
