!Keysight Technologies,N5235B,MY61252044,A.15.00.15
!Date: Friday, January 20, 2023 20:14:36
!Correction: S11(Off) 
!S21(Off) 
!S12(Off) 
!S22(Off) 
!S2P File: Measurements: S11, S21, S12, S22:
# Hz S  RI   R 50
6600000000 0.017101027 -0.1745366 0.014847029 -0.0053962311 7.071068e-011 7.071068e-011 7.071068e-011 7.071068e-011
6601680336.0672 -0.060329929 -0.15832701 0.0031914813 -0.014846005 7.071068e-011 7.071068e-011 7.071068e-011 7.071068e-011
6603360672.1344 -0.12829337 -0.10458507 -0.010407061 -0.010211208 7.071068e-011 7.071068e-011 7.071068e-011 7.071068e-011
6605041008.2016 -0.16817054 -0.020973368 -0.013499432 0.0031172575 7.071068e-011 7.071068e-011 7.071068e-011 7.071068e-011
6606721344.2689 -0.16755578 0.076258607 -0.0045247204 0.012164441 7.071068e-011 7.071068e-011 7.071068e-011 7.071068e-011
6608401680.3361 -0.12369412 0.16671161 0.0068977769 0.0099305371 7.071068e-011 7.071068e-011 7.071068e-011 7.071068e-011
6610082016.4033 -0.04394171 0.23146455 0.011359028 0.00026407966 7.071068e-011 7.071068e-011 7.071068e-011 7.071068e-011
6611762352.4705 0.05694912 0.25753713 0.0066936025 -0.0085246367 7.071068e-011 7.071068e-011 7.071068e-011 7.071068e-011
6613442688.5377 0.16069911 0.23983005 -0.0027140977 -0.01009194 7.071068e-011 7.071068e-011 7.071068e-011 7.071068e-011
6615123024.6049 0.24910556 0.18122025 -0.0093601588 -0.0037241483 7.071068e-011 7.071068e-011 7.071068e-011 7.071068e-011
6616803360.6721 0.30707175 0.091500998 -0.008279698 0.0049740034 7.071068e-011 7.071068e-011 7.071068e-011 7.071068e-011
6618483696.7393 0.32478842 -0.01469785 -0.0011845416 0.0092221294 7.071068e-011 7.071068e-011 7.071068e-011 7.071068e-011
6620164032.8066 0.29873869 -0.12024238 0.0062654978 0.0066065229 7.071068e-011 7.071068e-011 7.071068e-011 7.071068e-011
6621844368.8738 0.23219599 -0.20775746 0.0091151381 -0.000690546 7.071068e-011 7.071068e-011 7.071068e-011 7.071068e-011
6623524704.941 0.13514949 -0.26209819 0.0051981597 -0.0077472371 7.071068e-011 7.071068e-011 7.071068e-011 7.071068e-011
6625205041.0082 0.023217687 -0.27301344 -0.0031128041 -0.0089678876 7.071068e-011 7.071068e-011 7.071068e-011 7.071068e-011
6626885377.0754 -0.084576458 -0.23742183 -0.0090544354 -0.0028431059 7.071068e-011 7.071068e-011 7.071068e-011 7.071068e-011
6628565713.1426 -0.16912583 -0.16050789 -0.0076345284 0.0054126568 7.071068e-011 7.071068e-011 7.071068e-011 7.071068e-011
6630246049.2098 -0.21485774 -0.055400264 -0.00045258366 0.0092377067 7.071068e-011 7.071068e-011 7.071068e-011 7.071068e-011
6631926385.2771 -0.21338461 0.058958147 0.0069566756 0.0061118524 7.071068e-011 7.071068e-011 7.071068e-011 7.071068e-011
6633606721.3443 -0.16543487 0.16193649 0.0091955047 -0.0017207018 7.071068e-011 7.071068e-011 7.071068e-011 7.071068e-011
6635287057.4115 -0.080480255 0.23553799 0.0042765513 -0.0083825542 7.071068e-011 7.071068e-011 7.071068e-011 7.071068e-011
6636967393.4787 0.025695242 0.26785842 -0.0039849696 -0.0084712636 7.071068e-011 7.071068e-011 7.071068e-011 7.071068e-011
6638647729.5459 0.13439953 0.25476038 -0.0090101035 -0.0021703679 7.071068e-011 7.071068e-011 7.071068e-011 7.071068e-011
6640328065.6131 0.227543 0.19989847 -0.0074282936 0.0055454001 7.071068e-011 7.071068e-011 7.071068e-011 7.071068e-011
6642008401.6803 0.29047152 0.1133758 -0.00053991127 0.0094741713 7.071068e-011 7.071068e-011 7.071068e-011 7.071068e-011
6643688737.7475 0.31370017 0.0096793333 0.0072821951 0.006711937 7.071068e-011 7.071068e-011 7.071068e-011 7.071068e-011
6645369073.8148 0.2938078 -0.09438429 0.010282313 -0.0016383695 7.071068e-011 7.071068e-011 7.071068e-011 7.071068e-011
6647049409.882 0.23401088 -0.18177095 0.0051534669 -0.0095565915 7.071068e-011 7.071068e-011 7.071068e-011 7.071068e-011
6648729745.9492 0.14406042 -0.2377609 -0.004617712 -0.010184259 7.071068e-011 7.071068e-011 7.071068e-011 7.071068e-011
6650410082.0164 0.03908978 -0.25255436 -0.011171309 -0.0026210223 7.071068e-011 7.071068e-011 7.071068e-011 7.071068e-011
6652090418.0836 -0.062667534 -0.22326289 -0.009179581 0.0074498379 7.071068e-011 7.071068e-011 7.071068e-011 7.071068e-011
6653770754.1508 -0.1429884 -0.15505396 0.00035058794 0.012214406 7.071068e-011 7.071068e-011 7.071068e-011 7.071068e-011
6655451090.218 -0.18749988 -0.060747046 0.010255833 0.0072770962 7.071068e-011 7.071068e-011 7.071068e-011 7.071068e-011
6657131426.2853 -0.18894844 0.041853517 0.012203633 -0.0038777513 7.071068e-011 7.071068e-011 7.071068e-011 7.071068e-011
6658811762.3525 -0.1486887 0.13380565 0.0044139111 -0.012192618 7.071068e-011 7.071068e-011 7.071068e-011 7.071068e-011
6660492098.4197 -0.076022819 0.19900745 -0.0069656079 -0.011182218 7.071068e-011 7.071068e-011 7.071068e-011 7.071068e-011
6662172434.4869 0.014043013 0.2274581 -0.013441592 -0.001528167 7.071068e-011 7.071068e-011 7.071068e-011 7.071068e-011
6663852770.5541 0.10443384 0.21681413 -0.0098690633 0.0099808956 7.071068e-011 7.071068e-011 7.071068e-011 7.071068e-011
6665533106.6213 0.17964636 0.17196958 0.0019475585 0.014497519 7.071068e-011 7.071068e-011 7.071068e-011 7.071068e-011
6667213442.6885 0.22820778 0.10305044 0.013238302 0.0075155436 7.071068e-011 7.071068e-011 7.071068e-011 7.071068e-011
6668893778.7558 0.24390508 0.023281461 0.014509249 -0.0062617026 7.071068e-011 7.071068e-011 7.071068e-011 7.071068e-011
6670574114.823 0.22624972 -0.053280655 0.003840355 -0.015924497 7.071068e-011 7.071068e-011 7.071068e-011 7.071068e-011
6672254450.8902 0.18015619 -0.11383218 -0.010848396 -0.013050133 7.071068e-011 7.071068e-011 7.071068e-011 7.071068e-011
6673934786.9574 0.11513225 -0.14864679 -0.0174978 0.0010142653 7.071068e-011 7.071068e-011 7.071068e-011 7.071068e-011
6675615123.0246 0.043876003 -0.15279742 -0.0097836414 0.015099145 7.071068e-011 7.071068e-011 7.071068e-011 7.071068e-011
6677295459.0918 -0.020028299 -0.1273492 0.0064888918 0.017170483 7.071068e-011 7.071068e-011 7.071068e-011 7.071068e-011
6678975795.159 -0.06505657 -0.07917086 0.017976521 0.0051139914 7.071068e-011 7.071068e-011 7.071068e-011 7.071068e-011
6680656131.2262 -0.084066078 -0.01931249 0.015132956 -0.011575419 7.071068e-011 7.071068e-011 7.071068e-011 7.071068e-011
6682336467.2935 -0.075692534 0.03925769 -0.00026724392 -0.019451246 7.071068e-011 7.071068e-011 7.071068e-011 7.071068e-011
6684016803.3607 -0.044914495 0.084698945 -0.016126448 -0.011562137 7.071068e-011 7.071068e-011 7.071068e-011 7.071068e-011
6685697139.4279 -0.001548283 0.10951903 -0.019168846 0.0062460122 7.071068e-011 7.071068e-011 7.071068e-011 7.071068e-011
6687377475.4951 0.042894386 0.11223646 -0.0064154449 0.01937123 7.071068e-011 7.071068e-011 7.071068e-011 7.071068e-011
6689057811.5623 0.07836321 0.097159073 0.011873432 0.01684643 7.071068e-011 7.071068e-011 7.071068e-011 7.071068e-011
6690738147.6295 0.099151723 0.072731957 0.020810207 0.00051454158 7.071068e-011 7.071068e-011 7.071068e-011 7.071068e-011
6692418483.6967 0.10534169 0.048038512 0.012953215 -0.016573872 7.071068e-011 7.071068e-011 7.071068e-011 7.071068e-011
6694098819.764 0.10139795 0.029316144 -0.005694475 -0.020481143 7.071068e-011 7.071068e-011 7.071068e-011 7.071068e-011
6695779155.8312 0.093132943 0.018940188 -0.020040063 -0.0076080929 7.071068e-011 7.071068e-011 7.071068e-011 7.071068e-011
6697459491.8984 0.085958555 0.016028427 -0.018033234 0.011718097 7.071068e-011 7.071068e-011 7.071068e-011 7.071068e-011
6699139827.9656 0.083467737 0.01705404 -0.0012272077 0.021423392 7.071068e-011 7.071068e-011 7.071068e-011 7.071068e-011
6700820164.0328 0.086130045 0.017445158 0.016385837 0.013652949 7.071068e-011 7.071068e-011 7.071068e-011 7.071068e-011
6702500500.1 0.091722921 0.013855358 0.020612838 -0.0049201781 7.071068e-011 7.071068e-011 7.071068e-011 7.071068e-011
6704180836.1672 0.096960157 0.0048804092 0.0083845248 -0.0193542 7.071068e-011 7.071068e-011 7.071068e-011 7.071068e-011
6705861172.2344 0.098220386 -0.0090893935 -0.010434178 -0.018194087 7.071068e-011 7.071068e-011 7.071068e-011 7.071068e-011
6707541508.3017 0.092293508 -0.025555691 -0.020613443 -0.0024666283 7.071068e-011 7.071068e-011 7.071068e-011 7.071068e-011
6709221844.3689 0.077796236 -0.04043344 -0.014098954 0.014754483 7.071068e-011 7.071068e-011 7.071068e-011 7.071068e-011
6710902180.4361 0.05543888 -0.049422719 0.0031084623 0.019750215 7.071068e-011 7.071068e-011 7.071068e-011 7.071068e-011
6712582516.5033 0.02763834 -0.04844344 0.017209092 0.0095131947 7.071068e-011 7.071068e-011 7.071068e-011 7.071068e-011
6714262852.5705 -0.00080579118 -0.034152154 0.017941417 -0.0076144114 7.071068e-011 7.071068e-011 7.071068e-011 7.071068e-011
6715943188.6377 -0.022876013 -0.0059571923 0.0049795676 -0.01880868 7.071068e-011 7.071068e-011 7.071068e-011 7.071068e-011
6717623524.7049 -0.031591471 0.032592274 -0.011895631 -0.015339387 7.071068e-011 7.071068e-011 7.071068e-011 7.071068e-011
6719303860.7722 -0.022354007 0.074674293 -0.019220946 0.00020683027 7.071068e-011 7.071068e-011 7.071068e-011 7.071068e-011
6720984196.8394 0.0058936612 0.11167029 -0.011318523 0.015118077 7.071068e-011 7.071068e-011 7.071068e-011 7.071068e-011
6722664532.9066 0.049967732 0.13479285 0.0048624161 0.017892916 7.071068e-011 7.071068e-011 7.071068e-011 7.071068e-011
6724344868.9738 0.10250062 0.13749067 0.016864507 0.0071778074 7.071068e-011 7.071068e-011 7.071068e-011 7.071068e-011
6726025205.041 0.1538437 0.11735755 0.015973695 -0.0088059297 7.071068e-011 7.071068e-011 7.071068e-011 7.071068e-011
6727705541.1082 0.19420935 0.076268382 0.0027470218 -0.0179183 7.071068e-011 7.071068e-011 7.071068e-011 7.071068e-011
6729385877.1754 0.21513285 0.020094778 -0.012356351 -0.012857541 7.071068e-011 7.071068e-011 7.071068e-011 7.071068e-011
6731066213.2426 0.21119621 -0.041777775 -0.017266713 0.0018102269 7.071068e-011 7.071068e-011 7.071068e-011 7.071068e-011
6732746549.3099 0.18166848 -0.098215327 -0.0091344276 0.014234127 7.071068e-011 7.071068e-011 7.071068e-011 7.071068e-011
6734426885.3771 0.13067397 -0.13891019 0.0051821326 0.015807187 7.071068e-011 7.071068e-011 7.071068e-011 7.071068e-011
6736107221.4443 0.066141769 -0.15594891 0.015456825 0.005908607 7.071068e-011 7.071068e-011 7.071068e-011 7.071068e-011
6737787557.5115 -0.0011766999 -0.1451239 0.014227386 -0.0083807688 7.071068e-011 7.071068e-011 7.071068e-011 7.071068e-011
6739467893.5787 -0.059261393 -0.10709409 0.0022217738 -0.016241496 7.071068e-011 7.071068e-011 7.071068e-011 7.071068e-011
6741148229.6459 -0.097288519 -0.047756582 -0.011158865 -0.011689443 7.071068e-011 7.071068e-011 7.071068e-011 7.071068e-011
6742828565.7131 -0.10782582 0.022907251 -0.015898798 0.0012886673 7.071068e-011 7.071068e-011 7.071068e-011 7.071068e-011
6744508901.7804 -0.088182896 0.092498451 -0.0090362197 0.013067937 7.071068e-011 7.071068e-011 7.071068e-011 7.071068e-011
6746189237.8476 -0.041199714 0.14840204 0.0044952049 0.015336266 7.071068e-011 7.071068e-011 7.071068e-011 7.071068e-011
6747869573.9148 0.025012592 0.1803894 0.014927075 0.006030363 7.071068e-011 7.071068e-011 7.071068e-011 7.071068e-011
6749549909.982 0.098963596 0.18280891 0.013890972 -0.0080731707 7.071068e-011 7.071068e-011 7.071068e-011 7.071068e-011
6751230246.0492 0.16824287 0.15510006 0.0021581859 -0.015684996 7.071068e-011 7.071068e-011 7.071068e-011 7.071068e-011
6752910582.1164 0.22159934 0.10166604 -0.010673739 -0.011256011 7.071068e-011 7.071068e-011 7.071068e-011 7.071068e-011
6754590918.1836 0.24920091 0.030582141 -0.015241768 0.0011374844 7.071068e-011 7.071068e-011 7.071068e-011 7.071068e-011
6756271254.2508 0.24647997 -0.046396311 -0.0087073026 0.01242976 7.071068e-011 7.071068e-011 7.071068e-011 7.071068e-011
6757951590.3181 0.21344239 -0.11689817 0.0041546449 0.014532496 7.071068e-011 7.071068e-011 7.071068e-011 7.071068e-011
6759631926.3853 0.15480986 -0.16948599 0.013803094 0.0058501191 7.071068e-011 7.071068e-011 7.071068e-011 7.071068e-011
6761312262.4525 0.079447396 -0.19522539 0.013103955 -0.0069085364 7.071068e-011 7.071068e-011 7.071068e-011 7.071068e-011
6762992598.5197 -0.00073399273 -0.18934567 0.0030265683 -0.014349448 7.071068e-011 7.071068e-011 7.071068e-011 7.071068e-011
6764672934.5869 -0.072745062 -0.15216139 -0.0090376567 -0.011543506 7.071068e-011 7.071068e-011 7.071068e-011 7.071068e-011
6766353270.6541 -0.12456108 -0.089181095 -0.014808819 -0.00046423238 7.071068e-011 7.071068e-011 7.071068e-011 7.071068e-011
6768033606.7213 -0.1471097 -0.010439873 -0.0098995604 0.011343084 7.071068e-011 7.071068e-011 7.071068e-011 7.071068e-011
6769713942.7886 -0.13611142 0.070785597 0.002658922 0.015032427 7.071068e-011 7.071068e-011 7.071068e-011 7.071068e-011
6771394278.8558 -0.093279265 0.14034995 0.013521244 0.0073783533 7.071068e-011 7.071068e-011 7.071068e-011 7.071068e-011
6773074614.923 -0.026290908 0.18615602 0.014304402 -0.005966885 7.071068e-011 7.071068e-011 7.071068e-011 7.071068e-011
6774754950.9902 0.052883513 0.20045581 0.0043016681 -0.015000654 7.071068e-011 7.071068e-011 7.071068e-011 7.071068e-011
6776435287.0574 0.13017441 0.18131001 -0.0091310143 -0.012759678 7.071068e-011 7.071068e-011 7.071068e-011 7.071068e-011
6778115623.1246 0.19225395 0.13278514 -0.015645755 -0.00072173623 7.071068e-011 7.071068e-011 7.071068e-011 7.071068e-011
6779795959.1918 0.22894396 0.063809454 -0.010183066 0.011672682 7.071068e-011 7.071068e-011 7.071068e-011 7.071068e-011
6781476295.2591 0.2345587 -0.013717594 0.00260103 0.015031815 7.071068e-011 7.071068e-011 7.071068e-011 7.071068e-011
6783156631.3263 0.20847309 -0.086770065 0.013096674 0.0075237039 7.071068e-011 7.071068e-011 7.071068e-011 7.071068e-011
6784836967.3935 0.1552553 -0.14316344 0.01417447 -0.0052260035 7.071068e-011 7.071068e-011 7.071068e-011 7.071068e-011
6786517303.4607 0.08390025 -0.17366534 0.0050629824 -0.014372264 7.071068e-011 7.071068e-011 7.071068e-011 7.071068e-011
6788197639.5279 0.0061470205 -0.17345421 -0.0080132643 -0.013118336 7.071068e-011 7.071068e-011 7.071068e-011 7.071068e-011
6789877975.5951 -0.065464854 -0.14255948 -0.015292396 -0.0020541062 7.071068e-011 7.071068e-011 7.071068e-011 7.071068e-011
6791558311.6623 -0.11932397 -0.085909046 -0.01129598 0.010525077 7.071068e-011 7.071068e-011 7.071068e-011 7.071068e-011
6793238647.7295 -0.14676228 -0.012693862 0.00089128577 0.015492001 7.071068e-011 7.071068e-011 7.071068e-011 7.071068e-011
6794918983.7968 -0.14351125 0.065314919 0.012681949 0.0093326457 7.071068e-011 7.071068e-011 7.071068e-011 7.071068e-011
6796599319.864 -0.11020573 0.13571462 0.015552453 -0.0040333532 7.071068e-011 7.071068e-011 7.071068e-011 7.071068e-011
6798279655.9312 -0.052231997 0.1872173 0.0066265985 -0.014920766 7.071068e-011 7.071068e-011 7.071068e-011 7.071068e-011
6799959991.9984 0.020778619 0.21150711 -0.0076338206 -0.014509588 7.071068e-011 7.071068e-011 7.071068e-011 7.071068e-011
6801640328.0656 0.09656892 0.20502144 -0.016018309 -0.0031115988 7.071068e-011 7.071068e-011 7.071068e-011 7.071068e-011
6803320664.1328 0.16275966 0.16947892 -0.012526419 0.010376127 7.071068e-011 7.071068e-011 7.071068e-011 7.071068e-011
6805001000.2 0.20875466 0.11117503 5.8182814e-006 0.016356807 7.071068e-011 7.071068e-011 7.071068e-011 7.071068e-011
6806681336.2673 0.22716987 0.040094759 0.012823846 0.01050819 7.071068e-011 7.071068e-011 7.071068e-011 7.071068e-011
6808361672.3345 0.21530397 -0.031472418 0.016427871 -0.0034395012 7.071068e-011 7.071068e-011 7.071068e-011 7.071068e-011
6810042008.4017 0.17581145 -0.091278374 0.0076306392 -0.015037599 7.071068e-011 7.071068e-011 7.071068e-011 7.071068e-011
6811722344.4689 0.1160051 -0.12936115 -0.0068502491 -0.015387077 7.071068e-011 7.071068e-011 7.071068e-011 7.071068e-011
6813402680.5361 0.046540882 -0.13956517 -0.016253205 -0.004557244 7.071068e-011 7.071068e-011 7.071068e-011 7.071068e-011
6815083016.6033 -0.0202925 -0.12064715 -0.014085295 0.0096944273 7.071068e-011 7.071068e-011 7.071068e-011 7.071068e-011
6816763352.6705 -0.072948448 -0.076788865 -0.0014926422 0.017433472 7.071068e-011 7.071068e-011 7.071068e-011 7.071068e-011
6818443688.7377 -0.10317542 -0.016394841 0.012985329 0.012361168 7.071068e-011 7.071068e-011 7.071068e-011 7.071068e-011
6820124024.805 -0.10701238 0.050195314 0.018032478 -0.0026160171 7.071068e-011 7.071068e-011 7.071068e-011 7.071068e-011
6821804360.8722 -0.084597409 0.11226093 0.009132497 -0.015872382 7.071068e-011 7.071068e-011 7.071068e-011 7.071068e-011
6823484696.9394 -0.040164985 0.15998988 -0.0067136609 -0.017027831 7.071068e-011 7.071068e-011 7.071068e-011 7.071068e-011
6825165033.0066 0.018500211 0.18624823 -0.017482653 -0.0054807705 7.071068e-011 7.071068e-011 7.071068e-011 7.071068e-011
6826845369.0738 0.081759289 0.1877556 -0.015329323 0.010197693 7.071068e-011 7.071068e-011 7.071068e-011 7.071068e-011
6828525705.141 0.13980395 0.16507298 -0.0016585749 0.018426878 7.071068e-011 7.071068e-011 7.071068e-011 7.071068e-011
6830206041.2082 0.18381505 0.12238571 0.013339125 0.012827161 7.071068e-011 7.071068e-011 7.071068e-011 7.071068e-011
6831886377.2755 0.20736818 0.06698481 0.01828124 -0.0022603164 7.071068e-011 7.071068e-011 7.071068e-011 7.071068e-011
6833566713.3427 0.20755553 0.007878392 0.0098738512 -0.015485075 7.071068e-011 7.071068e-011 7.071068e-011 7.071068e-011
6835247049.4099 0.18496263 -0.045719896 -0.0055726636 -0.017600501 7.071068e-011 7.071068e-011 7.071068e-011 7.071068e-011
6836927385.4771 0.14351819 -0.085348569 -0.017366597 -0.0071001574 7.071068e-011 7.071068e-011 7.071068e-011 7.071068e-011
6838607721.5443 0.090407923 -0.10446955 -0.016883228 0.0091279158 7.071068e-011 7.071068e-011 7.071068e-011 7.071068e-011
6840288057.6115 0.035254221 -0.10015874 -0.0035470384 0.019301243 7.071068e-011 7.071068e-011 7.071068e-011 7.071068e-011
6841968393.6787 -0.012012809 -0.074049324 0.013119157 0.015049953 7.071068e-011 7.071068e-011 7.071068e-011 7.071068e-011
6843648729.7459 -0.043310948 -0.031793568 0.020188665 -0.00092398224 7.071068e-011 7.071068e-011 7.071068e-011 7.071068e-011
6845329065.8132 -0.053811975 0.0181846 0.011979166 -0.016537933 7.071068e-011 7.071068e-011 7.071068e-011 7.071068e-011
6847009401.8804 -0.042862415 0.066332191 -0.0055463882 -0.019864218 7.071068e-011 7.071068e-011 7.071068e-011 7.071068e-011
6848689737.9476 -0.014092264 0.10420188 -0.019162163 -0.0080444049 7.071068e-011 7.071068e-011 7.071068e-011 7.071068e-011
6850370074.0148 0.026045309 0.12616 -0.018265029 0.010085537 7.071068e-011 7.071068e-011 7.071068e-011 7.071068e-011
6852050410.082 0.069899313 0.12986968 -0.0034548074 0.020557962 7.071068e-011 7.071068e-011 7.071068e-011 7.071068e-011
6853730746.1492 0.10991424 0.11631674 0.013839576 0.015505907 7.071068e-011 7.071068e-011 7.071068e-011 7.071068e-011
6855411082.2164 0.14006314 0.089335062 0.020725839 -0.0010080681 7.071068e-011 7.071068e-011 7.071068e-011 7.071068e-011
6857091418.2837 0.15687078 0.054380447 0.012293587 -0.016744819 7.071068e-011 7.071068e-011 7.071068e-011 7.071068e-011
6858771754.3509 0.15920345 0.017016867 -0.0052723135 -0.02017162 7.071068e-011 7.071068e-011 7.071068e-011 7.071068e-011
6860452090.4181 0.1476927 -0.017471949 -0.019071287 -0.0086335707 7.071068e-011 7.071068e-011 7.071068e-011 7.071068e-011
6862132426.4853 0.12458304 -0.044394474 -0.018788636 0.0094212461 7.071068e-011 7.071068e-011 7.071068e-011 7.071068e-011
6863812762.5525 0.093641654 -0.060079273 -0.0045493059 0.020624284 7.071068e-011 7.071068e-011 7.071068e-011 7.071068e-011
6865493098.6197 0.059796944 -0.062392466 0.013228201 0.016647732 7.071068e-011 7.071068e-011 7.071068e-011 7.071068e-011
6867173434.6869 0.028696081 -0.051270895 0.021460706 0.00020034114 7.071068e-011 7.071068e-011 7.071068e-011 7.071068e-011
6868853770.7542 0.0057350686 -0.029229201 0.013741426 -0.016762327 7.071068e-011 7.071068e-011 7.071068e-011 7.071068e-011
