!Keysight Technologies,N5235B,MY61252044,A.15.00.15
!Date: Friday, January 20, 2023 22:09:21
!Correction: S11(Off) 
!S21(Off) 
!S12(Off) 
!S22(Off) 
!S2P File: Measurements: S11, S21, S12, S22:
# Hz S  RI   R 50
6600000000 0.017730154 -0.1748583 0.015477067 -0.0030449741 7.071068e-011 7.071068e-011 7.071068e-011 7.071068e-011
6608408408.4084 -0.12379895 0.16634859 0.0053201835 0.010841852 7.071068e-011 7.071068e-011 7.071068e-011 7.071068e-011
6616816816.8168 0.30638924 0.091602273 -0.0089133419 0.0037030764 7.071068e-011 7.071068e-011 7.071068e-011 7.071068e-011
6625225225.2252 0.023366727 -0.27287191 -0.0017942685 -0.0093082096 7.071068e-011 7.071068e-011 7.071068e-011 7.071068e-011
6633633633.6336 -0.16501215 0.1624763 0.0093387235 -0.00040204026 7.071068e-011 7.071068e-011 7.071068e-011 7.071068e-011
6642042042.042 0.29049581 0.11211818 -0.0018463302 0.0093220286 7.071068e-011 7.071068e-011 7.071068e-011 7.071068e-011
6650450450.4505 0.037973568 -0.2521258 -0.010729316 -0.0040799915 7.071068e-011 7.071068e-011 7.071068e-011 7.071068e-011
6658858858.8589 -0.14792778 0.13533825 0.0059640296 -0.01149966 7.071068e-011 7.071068e-011 7.071068e-011 7.071068e-011
6667267267.2673 0.22903724 0.10051333 0.012209386 0.0091581559 7.071068e-011 7.071068e-011 7.071068e-011 7.071068e-011
6675675675.6757 0.04213715 -0.15122941 -0.011526696 0.013833622 7.071068e-011 7.071068e-011 7.071068e-011 7.071068e-011
6684084084.0841 -0.044230409 0.084697537 -0.01460821 -0.013341484 7.071068e-011 7.071068e-011 7.071068e-011 7.071068e-011
6692492492.4925 0.10611076 0.047287378 0.014816253 -0.014931729 7.071068e-011 7.071068e-011 7.071068e-011 7.071068e-011
6700900900.9009 0.085859746 0.018086914 0.014784756 0.015412787 7.071068e-011 7.071068e-011 7.071068e-011 7.071068e-011
6709309309.3093 0.076926641 -0.041804086 -0.015551261 0.013131345 7.071068e-011 7.071068e-011 7.071068e-011 7.071068e-011
6717717717.7177 -0.03099688 0.034753576 -0.010166856 -0.016480921 7.071068e-011 7.071068e-011 7.071068e-011 7.071068e-011
6726126126.1261 0.15545951 0.11587775 0.016804015 -0.0071114758 7.071068e-011 7.071068e-011 7.071068e-011 7.071068e-011
6734534534.5345 0.12798703 -0.14087325 0.0035807611 0.016238378 7.071068e-011 7.071068e-011 7.071068e-011 7.071068e-011
6742942942.9429 -0.10777169 0.027384143 -0.015922075 -0.00025531658 7.071068e-011 7.071068e-011 7.071068e-011 7.071068e-011
6751351351.3514 0.17212917 0.15214296 0.0035936921 -0.015384408 7.071068e-011 7.071068e-011 7.071068e-011 7.071068e-011
6759759759.7598 0.14999011 -0.1719512 0.013198885 0.0070529939 7.071068e-011 7.071068e-011 7.071068e-011 7.071068e-011
6768168168.1682 -0.14696062 -0.0046741171 -0.01084538 0.010431739 7.071068e-011 7.071068e-011 7.071068e-011 7.071068e-011
6776576576.5766 0.13479564 0.17858315 -0.0080307536 -0.013463408 7.071068e-011 7.071068e-011 7.071068e-011 7.071068e-011
6784984984.985 0.15056911 -0.14669943 0.01455787 -0.004040435 7.071068e-011 7.071068e-011 7.071068e-011 7.071068e-011
6793393393.3934 -0.14756773 -0.0058256835 -0.00032254393 0.015527981 7.071068e-011 7.071068e-011 7.071068e-011 7.071068e-011
6801801801.8018 0.10225117 0.20247631 -0.015728243 -0.0042719743 7.071068e-011 7.071068e-011 7.071068e-011 7.071068e-011
6810210210.2102 0.17196 -0.095469065 0.0086544827 -0.014448759 7.071068e-011 7.071068e-011 7.071068e-011 7.071068e-011
6818618618.6186 -0.10556524 -0.0097162453 0.01216811 0.013220594 7.071068e-011 7.071068e-011 7.071068e-011 7.071068e-011
6827027027.027 0.088435233 0.18540221 -0.015947662 0.0092352321 7.071068e-011 7.071068e-011 7.071068e-011 7.071068e-011
6835435435.4354 0.18117891 -0.049259253 -0.0045046895 -0.017891617 7.071068e-011 7.071068e-011 7.071068e-011 7.071068e-011
6843843843.8438 -0.045708295 -0.027602617 0.020174682 0.00021795979 7.071068e-011 7.071068e-011 7.071068e-011 7.071068e-011
6852252252.2523 0.075174026 0.12928367 -0.0045497785 0.020309219 7.071068e-011 7.071068e-011 7.071068e-011 7.071068e-011
6860660660.6607 0.14497375 -0.020617198 -0.018620396 -0.0095844194 7.071068e-011 7.071068e-011 7.071068e-011 7.071068e-011
6869069069.0691 0.0039322274 -0.026817327 0.014495409 -0.016115136 7.071068e-011 7.071068e-011 7.071068e-011 7.071068e-011
6877477477.4775 0.054260913 0.072631888 0.012711823 0.018073451 7.071068e-011 7.071068e-011 7.071068e-011 7.071068e-011
6885885885.8859 0.090369925 0.0067322222 -0.020442912 0.0077347206 7.071068e-011 7.071068e-011 7.071068e-011 7.071068e-011
6894294294.2943 0.047133766 -0.0010042815 -0.0023446276 -0.022015905 7.071068e-011 7.071068e-011 7.071068e-011 7.071068e-011
6902702702.7027 0.038224619 0.019457107 0.021997232 0.003208854 7.071068e-011 7.071068e-011 7.071068e-011 7.071068e-011
6911111111.1111 0.031093342 0.037690371 -0.0087493425 0.020229135 7.071068e-011 7.071068e-011 7.071068e-011 7.071068e-011
6919519519.5195 0.078317918 0.049770642 -0.016972091 -0.013594989 7.071068e-011 7.071068e-011 7.071068e-011 7.071068e-011
6927927927.9279 0.050541289 -0.012378322 0.017224619 -0.012808624 7.071068e-011 7.071068e-011 7.071068e-011 7.071068e-011
6936336336.3363 -0.0020456803 0.062428314 0.0073056393 0.019465027 7.071068e-011 7.071068e-011 7.071068e-011 7.071068e-011
6944744744.7447 0.11262894 0.08909858 -0.020839289 0.0011835176 7.071068e-011 7.071068e-011 7.071068e-011 7.071068e-011
6953153153.1532 0.083941631 -0.045633662 0.0044514849 -0.020007607 7.071068e-011 7.071068e-011 7.071068e-011 7.071068e-011
6961561561.5616 -0.028233455 0.05485196 0.017358363 0.0099203065 7.071068e-011 7.071068e-011 7.071068e-011 7.071068e-011
6969969969.97 0.12500037 0.10559536 -0.014489776 0.013577395 7.071068e-011 7.071068e-011 7.071068e-011 7.071068e-011
6978378378.3784 0.10124766 -0.071014978 -0.0084175589 -0.017356299 7.071068e-011 7.071068e-011 7.071068e-011 7.071068e-011
6986786786.7868 -0.064057142 0.033273943 0.018728781 -0.0023186493 7.071068e-011 7.071068e-011 7.071068e-011 7.071068e-011
6995195195.1952 0.10345814 0.13363549 -0.0035165858 0.018926952 7.071068e-011 7.071068e-011 7.071068e-011 7.071068e-011
7003603603.6036 0.10844632 -0.058225323 -0.016624339 -0.0088724839 7.071068e-011 7.071068e-011 7.071068e-011 7.071068e-011
7012012012.012 -0.072761379 0.033056952 0.014096559 -0.012503262 7.071068e-011 7.071068e-011 7.071068e-011 7.071068e-011
7020420420.4204 0.088591263 0.16124003 0.0078307129 0.017314205 7.071068e-011 7.071068e-011 7.071068e-011 7.071068e-011
7028828828.8288 0.13221487 -0.029454352 -0.018526109 0.0018691561 7.071068e-011 7.071068e-011 7.071068e-011 7.071068e-011
7037237237.2372 -0.054166585 0.03124862 0.0043787956 -0.018654564 7.071068e-011 7.071068e-011 7.071068e-011 7.071068e-011
7045645645.6456 0.090592384 0.17081252 0.016467713 0.0097655887 7.071068e-011 7.071068e-011 7.071068e-011 7.071068e-011
7054054054.0541 0.16731222 -0.0035580385 -0.014652242 0.012075691 7.071068e-011 7.071068e-011 7.071068e-011 7.071068e-011
7062462462.4625 -0.0084180022 -0.0035514212 -0.0068775625 -0.018459637 7.071068e-011 7.071068e-011 7.071068e-011 7.071068e-011
7070870870.8709 0.078760959 0.14044289 0.019771069 -0.0012384265 7.071068e-011 7.071068e-011 7.071068e-011 7.071068e-011
7079279279.2793 0.16821614 0.0069130529 -0.0055109863 0.018809665 7.071068e-011 7.071068e-011 7.071068e-011 7.071068e-011
7087687687.6877 0.032191981 -0.026695117 -0.016674342 -0.011452687 7.071068e-011 7.071068e-011 7.071068e-011 7.071068e-011
7096096096.0961 0.059866413 0.089421295 0.015918715 -0.012517027 7.071068e-011 7.071068e-011 7.071068e-011 7.071068e-011
7104504504.5045 0.14777583 0.010030872 0.00657462 0.019130327 7.071068e-011 7.071068e-011 7.071068e-011 7.071068e-011
7112912912.9129 0.050561592 -0.044527955 -0.020647809 -8.0026977e-005 7.071068e-011 7.071068e-011 7.071068e-011 7.071068e-011
7121321321.3213 0.034575596 0.032092188 0.0062648687 -0.019858757 7.071068e-011 7.071068e-011 7.071068e-011 7.071068e-011
7129729729.7297 0.089407682 0.014270311 0.016475024 0.012046649 7.071068e-011 7.071068e-011 7.071068e-011 7.071068e-011
7138138138.1381 0.043206241 -0.037833247 -0.017161338 0.011742525 7.071068e-011 7.071068e-011 7.071068e-011 7.071068e-011
7146546546.5465 -0.00049610145 0.013807463 -0.0058935503 -0.020110874 7.071068e-011 7.071068e-011 7.071068e-011 7.071068e-011
7154954954.955 0.030813234 0.041258212 0.020809537 0.0008094493 7.071068e-011 7.071068e-011 7.071068e-011 7.071068e-011
7163363363.3634 0.044860393 0.015604973 -0.007615597 0.019121952 7.071068e-011 7.071068e-011 7.071068e-011 7.071068e-011
7171771771.7718 0.0010877408 0.020386308 -0.015781006 -0.013447322 7.071068e-011 7.071068e-011 7.071068e-011 7.071068e-011
7180180180.1802 0.018606449 0.072592795 0.017602142 -0.010433519 7.071068e-011 7.071068e-011 7.071068e-011 7.071068e-011
7188588588.5886 0.067796849 0.055977315 0.0039315787 0.020444818 7.071068e-011 7.071068e-011 7.071068e-011 7.071068e-011
7196996996.997 0.039681308 0.010142936 -0.020618087 -0.0026969702 7.071068e-011 7.071068e-011 7.071068e-011 7.071068e-011
7205405405.4054 0.012398803 0.067301571 0.0095078144 -0.018024217 7.071068e-011 7.071068e-011 7.071068e-011 7.071068e-011
7213813813.8138 0.083342627 0.067058809 0.013885415 0.01516233 7.071068e-011 7.071068e-011 7.071068e-011 7.071068e-011
7222222222.2222 0.065994002 -0.0055594211 -0.018975152 0.0082649719 7.071068e-011 7.071068e-011 7.071068e-011 7.071068e-011
7230630630.6306 -0.0012924123 0.035366941 -0.0014849367 -0.020494666 7.071068e-011 7.071068e-011 7.071068e-011 7.071068e-011
7239039039.039 0.071745954 0.075470142 0.019970102 0.0058044582 7.071068e-011 7.071068e-011 7.071068e-011 7.071068e-011
7247447447.4474 0.075059809 -0.014964912 -0.011978007 0.017010236 7.071068e-011 7.071068e-011 7.071068e-011 7.071068e-011
7255855855.8559 -0.016678534 0.0075904215 -0.011638096 -0.016995534 7.071068e-011 7.071068e-011 7.071068e-011 7.071068e-011
7264264264.2643 0.035151035 0.084031291 0.020114806 -0.0053986213 7.071068e-011 7.071068e-011 7.071068e-011 7.071068e-011
7272672672.6727 0.074248783 0.00039516875 -0.0014700331 0.020545961 7.071068e-011 7.071068e-011 7.071068e-011 7.071068e-011
7281081081.0811 -0.030039905 0.0010282894 -0.018748229 -0.0084111486 7.071068e-011 7.071068e-011 7.071068e-011 7.071068e-011
7289489489.4895 0.0002648278 0.10767974 0.014667416 -0.014656422 7.071068e-011 7.071068e-011 7.071068e-011 7.071068e-011
7297897897.8979 0.08494693 0.050363589 0.0088502085 0.018811902 7.071068e-011 7.071068e-011 7.071068e-011 7.071068e-011
7306306306.3063 0.0008164749 0.0089973686 -0.020578958 0.0016271124 7.071068e-011 7.071068e-011 7.071068e-011 7.071068e-011
7314714714.7147 0.0043199663 0.11297258 0.0053492631 -0.02030969 7.071068e-011 7.071068e-011 7.071068e-011 7.071068e-011
7323123123.1231 0.1127544 0.075089335 0.017037837 0.011698771 7.071068e-011 7.071068e-011 7.071068e-011 7.071068e-011
7331531531.5315 0.050935056 -0.011803812 -0.017304633 0.011759094 7.071068e-011 7.071068e-011 7.071068e-011 7.071068e-011
7339939939.9399 0.0080645476 0.068904161 -0.0053720996 -0.02054451 7.071068e-011 7.071068e-011 7.071068e-011 7.071068e-011
7348348348.3483 0.10564417 0.063439459 0.020930463 0.0018796213 7.071068e-011 7.071068e-011 7.071068e-011 7.071068e-011
7356756756.7568 0.065885939 -0.037043065 -0.0091588525 0.018816514 7.071068e-011 7.071068e-011 7.071068e-011 7.071068e-011
7365165165.1652 -0.010180538 0.021139013 -0.014785251 -0.015162459 7.071068e-011 7.071068e-011 7.071068e-011 7.071068e-011
7373573573.5736 0.061757542 0.049688917 0.018997924 -0.0086112088 7.071068e-011 7.071068e-011 7.071068e-011 7.071068e-011
7381981981.982 0.043756083 -0.035514865 0.0011233513 0.021123482 7.071068e-011 7.071068e-011 7.071068e-011 7.071068e-011
7390390390.3904 -0.043131098 0.0099003725 -0.0203555 -0.0061095729 7.071068e-011 7.071068e-011 7.071068e-011 7.071068e-011
7398798798.7988 0.013204845 0.071163207 0.012856591 -0.016734956 7.071068e-011 7.071068e-011 7.071068e-011 7.071068e-011
7407207207.2072 0.027795825 0.009657912 0.011239869 0.017957749 7.071068e-011 7.071068e-011 7.071068e-011 7.071068e-011
7415615615.6156 -0.041033681 0.03553085 -0.020869272 0.0044435975 7.071068e-011 7.071068e-011 7.071068e-011 7.071068e-011
7424024024.024 0.0069528678 0.1050192 0.0030091698 -0.021051601 7.071068e-011 7.071068e-011 7.071068e-011 7.071068e-011
7432432432.4324 0.054657772 0.053965017 0.018710624 0.010369618 7.071068e-011 7.071068e-011 7.071068e-011 7.071068e-011
7440840840.8408 0.0096783955 0.042436916 -0.016105279 0.014099629 7.071068e-011 7.071068e-011 7.071068e-011 7.071068e-011
7449249249.2492 0.030378282 0.087176614 -0.0073787617 -0.019856729 7.071068e-011 7.071068e-011 7.071068e-011 7.071068e-011
7457657657.6577 0.07796336 0.048846029 0.021262163 0.00011245735 7.071068e-011 7.071068e-011 7.071068e-011 7.071068e-011
7466066066.0661 0.041630831 0.01409681 -0.0074674254 0.019959735 7.071068e-011 7.071068e-011 7.071068e-011 7.071068e-011
7474474474.4745 0.03056425 0.039415654 -0.015976302 -0.013795561 7.071068e-011 7.071068e-011 7.071068e-011 7.071068e-011
7482882882.8829 0.05994232 0.029027302 0.018606516 -0.0098518413 7.071068e-011 7.071068e-011 7.071068e-011 7.071068e-011
7491291291.2913 0.038824566 -0.013419314 0.0026967081 0.020925423 7.071068e-011 7.071068e-011 7.071068e-011 7.071068e-011
7499699699.6997 -0.0033505028 0.0024955915 -0.020376243 -0.0048744027 7.071068e-011 7.071068e-011 7.071068e-011 7.071068e-011
7508108108.1081 0.0033950626 0.031943612 0.011704682 -0.017353142 7.071068e-011 7.071068e-011 7.071068e-011 7.071068e-011
7516516516.5165 0.019365443 0.011831759 0.012033711 0.016967248 7.071068e-011 7.071068e-011 7.071068e-011 7.071068e-011
7524924924.9249 -0.026497185 0.0066567962 -0.020020653 0.0051249163 7.071068e-011 7.071068e-011 7.071068e-011 7.071068e-011
7533333333.3333 -0.029710596 0.066054836 0.0024904821 -0.020508956 7.071068e-011 7.071068e-011 7.071068e-011 7.071068e-011
7541741741.7417 0.027885979 0.068743564 0.018275648 0.0094481278 7.071068e-011 7.071068e-011 7.071068e-011 7.071068e-011
7550150150.1502 0.012863958 0.020582909 -0.015187713 0.013257119 7.071068e-011 7.071068e-011 7.071068e-011 7.071068e-011
7558558558.5586 -0.015281924 0.068591028 -0.0068926155 -0.019025918 7.071068e-011 7.071068e-011 7.071068e-011 7.071068e-011
7566966966.967 0.055730734 0.077994987 0.020001283 0.00044186882 7.071068e-011 7.071068e-011 7.071068e-011 7.071068e-011
7575375375.3754 0.053414993 0.00087886729 -0.0078761149 0.018475765 7.071068e-011 7.071068e-011 7.071068e-011 7.071068e-011
7583783783.7838 -0.011888627 0.02420314 -0.014425794 -0.014053557 7.071068e-011 7.071068e-011 7.071068e-011 7.071068e-011
7592192192.1922 0.045660205 0.06056026 0.017989129 -0.0083531728 7.071068e-011 7.071068e-011 7.071068e-011 7.071068e-011
7600600600.6006 0.051637009 -0.024466556 0.00090491434 0.019483602 7.071068e-011 7.071068e-011 7.071068e-011 7.071068e-011
7609009009.009 -0.038032603 -0.010612664 -0.018894793 -0.006503738 7.071068e-011 7.071068e-011 7.071068e-011 7.071068e-011
7617417417.4174 -0.0049783024 0.058121435 0.012595159 -0.015345981 7.071068e-011 7.071068e-011 7.071068e-011 7.071068e-011
7625825825.8258 0.026325101 -0.0042659426 0.0094555635 0.017386252 7.071068e-011 7.071068e-011 7.071068e-011 7.071068e-011
7634234234.2342 -0.060761519 0.0041233301 -0.01954525 0.002483564 7.071068e-011 7.071068e-011 7.071068e-011 7.071068e-011
7642642642.6426 -0.026415845 0.091704227 0.0049518929 -0.018912002 7.071068e-011 7.071068e-011 7.071068e-011 7.071068e-011
7651051051.0511 0.037523694 0.042290565 0.015772207 0.011676888 7.071068e-011 7.071068e-011 7.071068e-011 7.071068e-011
7659459459.4595 -0.029982524 0.018219948 -0.016757971 0.010693545 7.071068e-011 7.071068e-011 7.071068e-011 7.071068e-011
7667867867.8679 -0.011412449 0.10254788 -0.0039284783 -0.019112997 7.071068e-011 7.071068e-011 7.071068e-011 7.071068e-011
7676276276.2763 0.073877007 0.058837797 0.019102426 0.0039283265 7.071068e-011 7.071068e-011 7.071068e-011 7.071068e-011
7684684684.6847 0.021245955 -0.0038858745 -0.010742687 0.016637208 7.071068e-011 7.071068e-011 7.071068e-011 7.071068e-011
7693093093.0931 0.00074959069 0.054522451 -0.011510596 -0.015946263 7.071068e-011 7.071068e-011 7.071068e-011 7.071068e-011
7701501501.5015 0.071159117 0.03245566 0.019019792 -0.004869849 7.071068e-011 7.071068e-011 7.071068e-011 7.071068e-011
7709909909.9099 0.023188209 -0.04253142 -0.0025740382 0.019522419 7.071068e-011 7.071068e-011 7.071068e-011 7.071068e-011
7718318318.3183 -0.033145711 0.011019493 -0.017237423 -0.0095597655 7.071068e-011 7.071068e-011 7.071068e-011 7.071068e-011
7726726726.7267 0.024553686 0.027720362 0.015425037 -0.012273882 7.071068e-011 7.071068e-011 7.071068e-011 7.071068e-011
7735135135.1351 0.0027330678 -0.041372277 0.0059750765 0.018948907 7.071068e-011 7.071068e-011 7.071068e-011 7.071068e-011
7743543543.5435 -0.075025253 -8.5994681e-005 -0.019540986 -0.0014183351 7.071068e-011 7.071068e-011 7.071068e-011 7.071068e-011
7751951951.952 -0.030261524 0.06429103 0.0086922841 -0.017713577 7.071068e-011 7.071068e-011 7.071068e-011 7.071068e-011
7760360360.3604 -0.0026753407 0.017336391 0.013287596 0.014635832 7.071068e-011 7.071068e-011 7.071068e-011 7.071068e-011
7768768768.7688 -0.058403809 0.028497078 -0.018578494 0.0069119306 7.071068e-011 7.071068e-011 7.071068e-011 7.071068e-011
7777177177.1772 -0.027151007 0.095604308 0.00054966542 -0.019730385 7.071068e-011 7.071068e-011 7.071068e-011 7.071068e-011
7785585585.5856 0.033863451 0.057895038 0.018152395 0.0077784453 7.071068e-011 7.071068e-011 7.071068e-011 7.071068e-011
7793993993.994 -0.0056832936 0.027827449 -0.013882086 0.013728964 7.071068e-011 7.071068e-011 7.071068e-011 7.071068e-011
7802402402.4024 -0.00038366936 0.074981458 -0.0076198503 -0.018363139 7.071068e-011 7.071068e-011 7.071068e-011 7.071068e-011
7810810810.8108 0.058043242 0.048823826 0.019780662 -0.00049802789 7.071068e-011 7.071068e-011 7.071068e-011 7.071068e-011
7819219219.2192 0.025936907 -0.0064343647 -0.0071041295 0.018359639 7.071068e-011 7.071068e-011 7.071068e-011 7.071068e-011
7827627627.6276 -0.0036210809 0.026921354 -0.014444998 -0.013428139 7.071068e-011 7.071068e-011 7.071068e-011 7.071068e-011
7836036036.036 0.037583001 0.025727293 0.017831249 -0.0083889533 7.071068e-011 7.071068e-011 7.071068e-011 7.071068e-011
7844444444.4444 0.016467921 -0.023834208 0.0011617646 0.01972341 7.071068e-011 7.071068e-011 7.071068e-011 7.071068e-011
7852852852.8529 -0.028298857 0.0030993971 -0.018814009 -0.0063100029 7.071068e-011 7.071068e-011 7.071068e-011 7.071068e-011
7861261261.2613 0.0018001352 0.029490223 0.012739558 -0.015081911 7.071068e-011 7.071068e-011 7.071068e-011 7.071068e-011
7869669669.6697 0.0054342705 -0.0093191043 0.009055391 0.01754418 7.071068e-011 7.071068e-011 7.071068e-011 7.071068e-011
7878078078.0781 -0.04043708 0.0034612636 -0.019810701 0.0020092414 7.071068e-011 7.071068e-011 7.071068e-011 7.071068e-011
7886486486.4865 -0.02434811 0.04695005 0.0053420076 -0.01903777 7.071068e-011 7.071068e-011 7.071068e-011 7.071068e-011
7894894894.8949 0.010932253 0.030215628 0.01543959 0.011957776 7.071068e-011 7.071068e-011 7.071068e-011 7.071068e-011
7903303303.3033 -0.013584863 0.011094403 -0.01707359 0.0097381026 7.071068e-011 7.071068e-011 7.071068e-011 7.071068e-011
7911711711.7117 -0.017814459 0.044017781 -0.0028116808 -0.0194869 7.071068e-011 7.071068e-011 7.071068e-011 7.071068e-011
7920120120.1201 0.023157962 0.044837531 0.018915409 0.0046827863 7.071068e-011 7.071068e-011 7.071068e-011 7.071068e-011
7928528528.5285 0.023540538 0.0019178191 -0.011424934 0.015758812 7.071068e-011 7.071068e-011 7.071068e-011 7.071068e-011
7936936936.9369 -0.0099664582 0.011257364 -0.010199377 -0.016367927 7.071068e-011 7.071068e-011 7.071068e-011 7.071068e-011
7945345345.3453 0.01791288 0.032101423 0.019021844 -0.0031314925 7.071068e-011 7.071068e-011 7.071068e-011 7.071068e-011
