!Keysight Technologies,N5235B,MY61252044,A.15.00.15
!Date: Friday, January 20, 2023 18:26:57
!Correction: S11(Off) 
!S21(Off) 
!S12(Off) 
!S22(Off) 
!S2P File: Measurements: S11, S21, S12, S22:
# Hz S  RI   R 50
6600000000 0.016304696 -0.17418064 0.014918794 -0.005226722 7.071068e-011 7.071068e-011 7.071068e-011 7.071068e-011
6608400000 -0.1230171 0.16720119 0.0067965756 0.010011391 7.071068e-011 7.071068e-011 7.071068e-011 7.071068e-011
6616800000 0.30717987 0.090822272 -0.0083352029 0.0048831664 7.071068e-011 7.071068e-011 7.071068e-011 7.071068e-011
6625200000 0.022711975 -0.27296138 -0.0030036618 -0.0090001356 7.071068e-011 7.071068e-011 7.071068e-011 7.071068e-011
6633600000 -0.16530558 0.16233164 0.0092130285 -0.0015982128 7.071068e-011 7.071068e-011 7.071068e-011 7.071068e-011
6642000000 0.29078248 0.11316463 -0.00067306717 0.009460127 7.071068e-011 7.071068e-011 7.071068e-011 7.071068e-011
6650400000 0.038835976 -0.25282973 -0.01112506 -0.0027811502 7.071068e-011 7.071068e-011 7.071068e-011 7.071068e-011
6658800000 -0.14884323 0.13415056 0.0045991004 -0.012110818 7.071068e-011 7.071068e-011 7.071068e-011 7.071068e-011
6667200000 0.22846782 0.10293946 0.013099996 0.0077263508 7.071068e-011 7.071068e-011 7.071068e-011 7.071068e-011
6675600000 0.043903537 -0.15285136 -0.010031993 0.014908146 7.071068e-011 7.071068e-011 7.071068e-011 7.071068e-011
6684000000 -0.045300856 0.084525108 -0.015881078 -0.011846602 7.071068e-011 7.071068e-011 7.071068e-011 7.071068e-011
6692400000 0.10571138 0.048415128 0.013284185 -0.016290789 7.071068e-011 7.071068e-011 7.071068e-011 7.071068e-011
6700800000 0.086012535 0.016973035 0.01608832 0.014000247 7.071068e-011 7.071068e-011 7.071068e-011 7.071068e-011
6709200000 0.077633463 -0.039987095 -0.014419111 0.014451459 7.071068e-011 7.071068e-011 7.071068e-011 7.071068e-011
6717600000 -0.031217787 0.032128103 -0.011552223 -0.015603551 7.071068e-011 7.071068e-011 7.071068e-011 7.071068e-011
6726000000 0.15324932 0.11763117 0.016182417 -0.0084426049 7.071068e-011 7.071068e-011 7.071068e-011 7.071068e-011
6734400000 0.13129263 -0.13877238 0.0048132678 0.015939154 7.071068e-011 7.071068e-011 7.071068e-011 7.071068e-011
6742800000 -0.10803431 0.022388801 -0.015930254 0.00091248821 7.071068e-011 7.071068e-011 7.071068e-011 7.071068e-011
6751200000 0.16784677 0.15540235 0.0025418231 -0.015627205 7.071068e-011 7.071068e-011 7.071068e-011 7.071068e-011
6759600000 0.15533191 -0.16909143 0.013650619 0.0062002754 7.071068e-011 7.071068e-011 7.071068e-011 7.071068e-011
6768000000 -0.14689821 -0.011346282 -0.010195916 0.011060257 7.071068e-011 7.071068e-011 7.071068e-011 7.071068e-011
6776400000 0.12919192 0.18167299 -0.0087585524 -0.013008388 7.071068e-011 7.071068e-011 7.071068e-011 7.071068e-011
6784800000 0.15623935 -0.14254439 0.014315165 -0.0048116809 7.071068e-011 7.071068e-011 7.071068e-011 7.071068e-011
6793200000 -0.14672354 -0.013969934 0.00043850561 0.015510881 7.071068e-011 7.071068e-011 7.071068e-011 7.071068e-011
6801600000 0.095476195 0.20558764 -0.015923861 -0.0036016256 7.071068e-011 7.071068e-011 7.071068e-011 7.071068e-011
6810000000 0.17679869 -0.090758182 0.0081013739 -0.014795213 7.071068e-011 7.071068e-011 7.071068e-011 7.071068e-011
6818400000 -0.10316359 -0.017353225 0.012585082 0.012761726 7.071068e-011 7.071068e-011 7.071068e-011 7.071068e-011
6826800000 0.080842055 0.18789847 -0.01564387 0.009692709 7.071068e-011 7.071068e-011 7.071068e-011 7.071068e-011
6835200000 0.18546189 -0.044726461 -0.0049822452 -0.017761558 7.071068e-011 7.071068e-011 7.071068e-011 7.071068e-011
6843600000 -0.042775195 -0.032930113 0.020187333 -0.00020645862 7.071068e-011 7.071068e-011 7.071068e-011 7.071068e-011
6852000000 0.068794802 0.13016199 -0.0041948892 0.020407146 7.071068e-011 7.071068e-011 7.071068e-011 7.071068e-011
6860400000 0.14837338 -0.016802624 -0.018732246 -0.0093298806 7.071068e-011 7.071068e-011 7.071068e-011 7.071068e-011
6868800000 0.0058703008 -0.030068522 0.014374091 -0.016219392 7.071068e-011 7.071068e-011 7.071068e-011 7.071068e-011
6877200000 0.050907094 0.07259097 0.012792392 0.018056495 7.071068e-011 7.071068e-011 7.071068e-011 7.071068e-011
6885600000 0.091966234 0.0086388858 -0.020451982 0.0077818246 7.071068e-011 7.071068e-011 7.071068e-011 7.071068e-011
6894000000 0.047613852 -0.0018381312 -0.0022733745 -0.022051107 7.071068e-011 7.071068e-011 7.071068e-011 7.071068e-011
6902400000 0.038342483 0.019305313 0.022002347 0.0034052334 7.071068e-011 7.071068e-011 7.071068e-011 7.071068e-011
6910800000 0.030988887 0.036232512 -0.0090214945 0.020145053 7.071068e-011 7.071068e-011 7.071068e-011 7.071068e-011
6919200000 0.076595515 0.051394526 -0.016780863 -0.013874479 7.071068e-011 7.071068e-011 7.071068e-011 7.071068e-011
6927600000 0.053496622 -0.011701976 0.017509652 -0.012497691 7.071068e-011 7.071068e-011 7.071068e-011 7.071068e-011
6936000000 -0.0030625174 0.057871316 0.0068867318 0.019696917 7.071068e-011 7.071068e-011 7.071068e-011 7.071068e-011
6944400000 0.10819894 0.093047574 -0.020895412 0.00058728992 7.071068e-011 7.071068e-011 7.071068e-011 7.071068e-011
6952800000 0.089904353 -0.04344124 0.0051045297 -0.019896025 7.071068e-011 7.071068e-011 7.071068e-011 7.071068e-011
6961200000 -0.029055366 0.047840819 0.017020674 0.010554625 7.071068e-011 7.071068e-011 7.071068e-011 7.071068e-011
6969600000 0.11823231 0.110442 -0.015063062 0.013013552 7.071068e-011 7.071068e-011 7.071068e-011 7.071068e-011
6978000000 0.10966638 -0.066840567 -0.0077026132 -0.017744821 7.071068e-011 7.071068e-011 7.071068e-011 7.071068e-011
6986400000 -0.063938148 0.023623174 0.01884168 -0.0014722382 7.071068e-011 7.071068e-011 7.071068e-011 7.071068e-011
6994800000 0.094773151 0.13770759 -0.0045420807 0.018758841 7.071068e-011 7.071068e-011 7.071068e-011 7.071068e-011
7003200000 0.11696864 -0.051976606 -0.016167467 -0.0098381024 7.071068e-011 7.071068e-011 7.071068e-011 7.071068e-011
7011600000 -0.071454391 0.021660777 0.014797604 -0.01163942 7.071068e-011 7.071068e-011 7.071068e-011 7.071068e-011
7020000000 0.078387111 0.16474198 0.0067214128 0.017793385 7.071068e-011 7.071068e-011 7.071068e-011 7.071068e-011
7028400000 0.13950892 -0.021829648 -0.018639276 0.00064424024 7.071068e-011 7.071068e-011 7.071068e-011 7.071068e-011
7036800000 -0.051073398 0.020042043 0.0057390719 -0.01830804 7.071068e-011 7.071068e-011 7.071068e-011 7.071068e-011
7045200000 0.079186626 0.17307316 0.015723413 0.011028941 7.071068e-011 7.071068e-011 7.071068e-011 7.071068e-011
7053600000 0.172822 0.0056431247 -0.015567107 0.010889682 7.071068e-011 7.071068e-011 7.071068e-011 7.071068e-011
7062000000 -0.0029908628 -0.012408818 -0.0052714827 -0.018983297 7.071068e-011 7.071068e-011 7.071068e-011 7.071068e-011
7070400000 0.068601169 0.14031501 0.019857282 0.00053447735 7.071068e-011 7.071068e-011 7.071068e-011 7.071068e-011
7078800000 0.17130908 0.015816733 -0.0071858452 0.018213218 7.071068e-011 7.071068e-011 7.071068e-011 7.071068e-011
7087200000 0.038553722 -0.032273971 -0.01547219 -0.013040401 7.071068e-011 7.071068e-011 7.071068e-011 7.071068e-011
7095600000 0.052271832 0.087492742 0.017167524 -0.010881888 7.071068e-011 7.071068e-011 7.071068e-011 7.071068e-011
7104000000 0.14887752 0.017212616 0.0045495089 0.019755369 7.071068e-011 7.071068e-011 7.071068e-011 7.071068e-011
7112400000 0.056557287 -0.046457276 -0.020497285 -0.0023296119 7.071068e-011 7.071068e-011 7.071068e-011 7.071068e-011
7120800000 0.031038621 0.028531415 0.0085063772 -0.019031268 7.071068e-011 7.071068e-011 7.071068e-011 7.071068e-011
7129200000 0.089137957 0.018751685 0.014994533 0.013909101 7.071068e-011 7.071068e-011 7.071068e-011 7.071068e-011
7137600000 0.047362451 -0.038018242 -0.01850744 0.0095798122 7.071068e-011 7.071068e-011 7.071068e-011 7.071068e-011
7146000000 -0.00014152499 0.0097477445 -0.0033342009 -0.020745121 7.071068e-011 7.071068e-011 7.071068e-011 7.071068e-011
7154400000 0.02822341 0.041915614 0.020544125 0.0034958203 7.071068e-011 7.071068e-011 7.071068e-011 7.071068e-011
7162800000 0.046259776 0.01701986 -0.010095706 0.017933866 7.071068e-011 7.071068e-011 7.071068e-011 7.071068e-011
7171200000 0.0032727222 0.017921476 -0.01379802 -0.015538529 7.071068e-011 7.071068e-011 7.071068e-011 7.071068e-011
7179600000 0.014912252 0.070229724 0.018969318 -0.0079187229 7.071068e-011 7.071068e-011 7.071068e-011 7.071068e-011
7188000000 0.066403091 0.059719931 0.0009008635 0.020818593 7.071068e-011 7.071068e-011 7.071068e-011 7.071068e-011
7196400000 0.043732513 0.010299066 -0.020004639 -0.0057943384 7.071068e-011 7.071068e-011 7.071068e-011 7.071068e-011
7204800000 0.010130934 0.062672324 0.012139041 -0.0163495 7.071068e-011 7.071068e-011 7.071068e-011 7.071068e-011
7213200000 0.079170048 0.071466647 0.011347564 0.017168593 7.071068e-011 7.071068e-011 7.071068e-011 7.071068e-011
7221600000 0.071658671 -0.0027554913 -0.020118363 0.005125266 7.071068e-011 7.071068e-011 7.071068e-011 7.071068e-011
7230000000 -0.00081901997 0.02888215 0.0019055358 -0.020524258 7.071068e-011 7.071068e-011 7.071068e-011 7.071068e-011
7238400000 0.065104134 0.078615867 0.01867762 0.009132456 7.071068e-011 7.071068e-011 7.071068e-011 7.071068e-011
7246800000 0.080951259 -0.0095951539 -0.014808717 0.014668369 7.071068e-011 7.071068e-011 7.071068e-011 7.071068e-011
7255200000 -0.013013382 0.00027584174 -0.0084597142 -0.018778788 7.071068e-011 7.071068e-011 7.071068e-011 7.071068e-011
7263600000 0.027107175 0.084021099 0.020774648 -0.001668751 7.071068e-011 7.071068e-011 7.071068e-011 7.071068e-011
7272000000 0.078600124 0.0078377854 -0.0052356739 0.019978495 7.071068e-011 7.071068e-011 7.071068e-011 7.071068e-011
7280400000 -0.023744157 -0.0061761695 -0.016868092 -0.011850132 7.071068e-011 7.071068e-011 7.071068e-011 7.071068e-011
7288800000 -0.0087041454 0.1033485 0.017240057 -0.0115027 7.071068e-011 7.071068e-011 7.071068e-011 7.071068e-011
7297200000 0.08492858 0.059534915 0.0049375328 0.020198798 7.071068e-011 7.071068e-011 7.071068e-011 7.071068e-011
7305600000 0.0084430994 0.0045674145 -0.020477265 -0.0024981915 7.071068e-011 7.071068e-011 7.071068e-011 7.071068e-011
7314000000 -0.0037788218 0.10637598 0.0094273491 -0.018810734 7.071068e-011 7.071068e-011 7.071068e-011 7.071068e-011
7322400000 0.10875804 0.085414924 0.014277739 0.015015627 7.071068e-011 7.071068e-011 7.071068e-011 7.071068e-011
7330800000 0.060194228 -0.011680139 -0.019405562 0.0077427467 7.071068e-011 7.071068e-011 7.071068e-011 7.071068e-011
7339200000 0.0040694834 0.060918503 -0.00070966879 -0.021257058 7.071068e-011 7.071068e-011 7.071068e-011 7.071068e-011
7347600000 0.099365287 0.072108619 0.020031869 0.0064592478 7.071068e-011 7.071068e-011 7.071068e-011 7.071068e-011
7356000000 0.075869881 -0.033774246 -0.013102613 0.016253227 7.071068e-011 7.071068e-011 7.071068e-011 7.071068e-011
7364400000 -0.010159948 0.01267153 -0.010872529 -0.018179091 7.071068e-011 7.071068e-011 7.071068e-011 7.071068e-011
7372800000 0.054896962 0.054612506 0.020580471 -0.003982055 7.071068e-011 7.071068e-011 7.071068e-011 7.071068e-011
7381200000 0.052799791 -0.030992435 -0.0039283275 0.020776514 7.071068e-011 7.071068e-011 7.071068e-011 7.071068e-011
7389600000 -0.040864758 0.00068479887 -0.018266844 -0.010860904 7.071068e-011 7.071068e-011 7.071068e-011 7.071068e-011
7398000000 0.0055882726 0.071978703 0.016538462 -0.013043636 7.071068e-011 7.071068e-011 7.071068e-011 7.071068e-011
7406400000 0.033012979 0.014790685 0.0064007044 0.020206036 7.071068e-011 7.071068e-011 7.071068e-011 7.071068e-011
7414800000 -0.038180571 0.027302226 -0.021348082 -0.0010021338 7.071068e-011 7.071068e-011 7.071068e-011 7.071068e-011
7423200000 -0.0015724192 0.10372055 0.0083240401 -0.019594224 7.071068e-011 7.071068e-011 7.071068e-011 7.071068e-011
7431600000 0.055589382 0.060436115 0.015296216 0.014898875 7.071068e-011 7.071068e-011 7.071068e-011 7.071068e-011
7440000000 0.0131546 0.038505238 -0.019324819 0.0092817545 7.071068e-011 7.071068e-011 7.071068e-011 7.071068e-011
7448400000 0.024235927 0.085634768 -0.0017717507 -0.021130109 7.071068e-011 7.071068e-011 7.071068e-011 7.071068e-011
7456800000 0.077428237 0.055331651 0.020425005 0.0059071961 7.071068e-011 7.071068e-011 7.071068e-011 7.071068e-011
7465200000 0.046083681 0.013925866 -0.012727217 0.017099109 7.071068e-011 7.071068e-011 7.071068e-011 7.071068e-011
7473600000 0.028545443 0.037023321 -0.011455582 -0.017769957 7.071068e-011 7.071068e-011 7.071068e-011 7.071068e-011
7482000000 0.058483884 0.033264346 0.020647079 -0.004115684 7.071068e-011 7.071068e-011 7.071068e-011 7.071068e-011
7490400000 0.043567166 -0.010966444 -0.0034937421 0.020833852 7.071068e-011 7.071068e-011 7.071068e-011 7.071068e-011
7498800000 -0.000805941 -0.001382816 -0.018066742 -0.010606349 7.071068e-011 7.071068e-011 7.071068e-011 7.071068e-011
7507200000 0.0006282606 0.030886644 0.01634689 -0.013090334 7.071068e-011 7.071068e-011 7.071068e-011 7.071068e-011
7515600000 0.020609168 0.01532972 0.0063570063 0.019835493 7.071068e-011 7.071068e-011 7.071068e-011 7.071068e-011
7524000000 -0.021079097 0.0031327785 -0.020665333 -0.0012490014 7.071068e-011 7.071068e-011 7.071068e-011 7.071068e-011
7532400000 -0.034149233 0.060145188 0.0087065529 -0.018731302 7.071068e-011 7.071068e-011 7.071068e-011 7.071068e-011
7540800000 0.02288156 0.073194787 0.014418427 0.014703495 7.071068e-011 7.071068e-011 7.071068e-011 7.071068e-011
7549200000 0.019344432 0.022251397 -0.018559903 0.0078143589 7.071068e-011 7.071068e-011 7.071068e-011 7.071068e-011
7557600000 -0.018402394 0.06120082 -0.00039621492 -0.020252269 7.071068e-011 7.071068e-011 7.071068e-011 7.071068e-011
7566000000 0.048003156 0.083491474 0.018852083 0.0069310591 7.071068e-011 7.071068e-011 7.071068e-011 7.071068e-011
7574400000 0.060792249 0.0078033563 -0.013504492 0.014869146 7.071068e-011 7.071068e-011 7.071068e-011 7.071068e-011
7582800000 -0.0099304905 0.015502175 -0.0089021912 -0.018009404 7.071068e-011 7.071068e-011 7.071068e-011 7.071068e-011
7591200000 0.036801826 0.064400807 0.019755878 -0.0018159014 7.071068e-011 7.071068e-011 7.071068e-011 7.071068e-011
7599600000 0.059185583 -0.015211871 -0.0056972289 0.018674379 7.071068e-011 7.071068e-011 7.071068e-011 7.071068e-011
7608000000 -0.031137589 -0.020455377 -0.01548111 -0.012623725 7.071068e-011 7.071068e-011 7.071068e-011 7.071068e-011
7616400000 -0.014743455 0.05684771 0.01719738 -0.010036202 7.071068e-011 7.071068e-011 7.071068e-011 7.071068e-011
7624800000 0.031455684 0.0048290058 0.002718996 0.019554287 7.071068e-011 7.071068e-011 7.071068e-011 7.071068e-011
7633200000 -0.052831162 -0.006059486 -0.019137254 -0.0046418095 7.071068e-011 7.071068e-011 7.071068e-011 7.071068e-011
7641600000 -0.038132045 0.086901002 0.011391961 -0.015879778 7.071068e-011 7.071068e-011 7.071068e-011 7.071068e-011
7650000000 0.037742347 0.052979354 0.010492869 0.016590718 7.071068e-011 7.071068e-011 7.071068e-011 7.071068e-011
7658400000 -0.02105744 0.011724766 -0.019533234 0.0037745344 7.071068e-011 7.071068e-011 7.071068e-011 7.071068e-011
7666800000 -0.022735663 0.095992461 0.0034408914 -0.019272771 7.071068e-011 7.071068e-011 7.071068e-011 7.071068e-011
7675200000 0.06974148 0.071534149 0.016164124 0.010745322 7.071068e-011 7.071068e-011 7.071068e-011 7.071068e-011
7683600000 0.031745493 -0.0041403128 -0.01626109 0.011276886 7.071068e-011 7.071068e-011 7.071068e-011 7.071068e-011
7692000000 -0.0052005416 0.047166463 -0.0045765257 -0.019143516 7.071068e-011 7.071068e-011 7.071068e-011 7.071068e-011
7700400000 0.06590347 0.043673996 0.019456027 0.0028160184 7.071068e-011 7.071068e-011 7.071068e-011 7.071068e-011
7708800000 0.035481267 -0.039770138 -0.0099814394 0.016947426 7.071068e-011 7.071068e-011 7.071068e-011 7.071068e-011
7717200000 -0.033636764 0.00090497098 -0.012043221 -0.015630571 7.071068e-011 7.071068e-011 7.071068e-011 7.071068e-011
7725600000 0.017026542 0.033780999 0.018997062 -0.0051276442 7.071068e-011 7.071068e-011 7.071068e-011 7.071068e-011
7734000000 0.013989453 -0.035786584 -0.0021319687 0.019759459 7.071068e-011 7.071068e-011 7.071068e-011 7.071068e-011
7742400000 -0.070867866 -0.012126742 -0.017309668 -0.0091572227 7.071068e-011 7.071068e-011 7.071068e-011 7.071068e-011
7750800000 -0.04039982 0.062506571 0.015211213 -0.012568254 7.071068e-011 7.071068e-011 7.071068e-011 7.071068e-011
7759200000 0.0015046372 0.025084343 0.0060558189 0.018882386 7.071068e-011 7.071068e-011 7.071068e-011 7.071068e-011
7767600000 -0.053512264 0.019614214 -0.019776767 -0.0014570693 7.071068e-011 7.071068e-011 7.071068e-011 7.071068e-011
7776000000 -0.03764433 0.091032691 0.0087426677 -0.017629186 7.071068e-011 7.071068e-011 7.071068e-011 7.071068e-011
7784400000 0.031483445 0.067940623 0.013114228 0.01476271 7.071068e-011 7.071068e-011 7.071068e-011 7.071068e-011
7792800000 0.0011356721 0.024804499 -0.018461622 0.0065605608 7.071068e-011 7.071068e-011 7.071068e-011 7.071068e-011
7801200000 -0.0075956467 0.070375763 0.0010710519 -0.019854283 7.071068e-011 7.071068e-011 7.071068e-011 7.071068e-011
7809600000 0.053234339 0.058388893 0.018060707 0.0081990073 7.071068e-011 7.071068e-011 7.071068e-011 7.071068e-011
7818000000 0.03518476 -0.004361562 -0.01440409 0.013336166 7.071068e-011 7.071068e-011 7.071068e-011 7.071068e-011
7826400000 -0.0055487948 0.021012804 -0.0070062624 -0.018448018 7.071068e-011 7.071068e-011 7.071068e-011 7.071068e-011
7834800000 0.032700785 0.03154603 0.019724721 0.00042762852 7.071068e-011 7.071068e-011 7.071068e-011 7.071068e-011
7843200000 0.025190486 -0.019742573 -0.0078328513 0.018174084 7.071068e-011 7.071068e-011 7.071068e-011 7.071068e-011
7851600000 -0.026819123 -0.0045019919 -0.013878771 -0.014176236 7.071068e-011 7.071068e-011 7.071068e-011 7.071068e-011
7860000000 -0.0040245643 0.030783815 0.018261107 -0.0075863297 7.071068e-011 7.071068e-011 7.071068e-011 7.071068e-011
7868400000 0.010359402 -0.0036254756 -4.6164296e-005 0.019725598 7.071068e-011 7.071068e-011 7.071068e-011 7.071068e-011
7876800000 -0.036335722 -0.0037458981 -0.018483924 -0.0074587613 7.071068e-011 7.071068e-011 7.071068e-011 7.071068e-011
7885200000 -0.030465355 0.043556686 0.013654336 -0.014355123 7.071068e-011 7.071068e-011 7.071068e-011 7.071068e-011
7893600000 0.0088810949 0.036072802 0.0080054412 0.017853091 7.071068e-011 7.071068e-011 7.071068e-011 7.071068e-011
7902000000 -0.0084145926 0.0093135117 -0.019655289 0.00040851688 7.071068e-011 7.071068e-011 7.071068e-011 7.071068e-011
7910400000 -0.021370251 0.03916404 0.0069215945 -0.018508613 7.071068e-011 7.071068e-011 7.071068e-011 7.071068e-011
7918800000 0.017170541 0.048972718 0.014354754 0.013198975 7.071068e-011 7.071068e-011 7.071068e-011 7.071068e-011
7927200000 0.028515885 0.007344061 -0.017648077 0.0082028667 7.071068e-011 7.071068e-011 7.071068e-011 7.071068e-011
7935600000 -0.00806503 0.0059219236 -0.00086336059 -0.019329015 7.071068e-011 7.071068e-011 7.071068e-011 7.071068e-011
7944000000 0.011087392 0.033246424 0.018151928 0.0066715074 7.071068e-011 7.071068e-011 7.071068e-011 7.071068e-011
7952400000 0.037510473 -0.005723062 -0.013107047 0.014229591 7.071068e-011 7.071068e-011 7.071068e-011 7.071068e-011
7960800000 -0.015155519 -0.0332979 -0.0082840445 -0.017449902 7.071068e-011 7.071068e-011 7.071068e-011 7.071068e-011
7969200000 -0.029087268 0.020929009 0.019003946 -0.00092477055 7.071068e-011 7.071068e-011 7.071068e-011 7.071068e-011
7977600000 0.020069672 0.0067020291 -0.00652827 0.017897185 7.071068e-011 7.071068e-011 7.071068e-011 7.071068e-011
7986000000 -0.024361808 -0.039740283 -0.014083032 -0.012821477 7.071068e-011 7.071068e-011 7.071068e-011 7.071068e-011
7994400000 -0.065324917 0.024960965 0.017130837 -0.0081422897 7.071068e-011 7.071068e-011 7.071068e-011 7.071068e-011
