!Keysight Technologies,N5235B,MY61252044,A.15.00.15
!Date: Friday, January 20, 2023 20:04:55
!Correction: S11(Off) 
!S21(Off) 
!S12(Off) 
!S22(Off) 
!S2P File: Measurements: S11, S21, S12, S22:
# Hz S  RI   R 50
6600000000 0.017184967 -0.17466749 0.014398339 -0.0064110658 7.071068e-011 7.071068e-011 7.071068e-011 7.071068e-011
6601680336.0672 -0.060381703 -0.15845054 0.0021327573 -0.014993351 7.071068e-011 7.071068e-011 7.071068e-011 7.071068e-011
6603360672.1344 -0.12841991 -0.10463308 -0.011069379 -0.0094310045 7.071068e-011 7.071068e-011 7.071068e-011 7.071068e-011
6605041008.2016 -0.16829784 -0.020932507 -0.01321402 0.0040489347 7.071068e-011 7.071068e-011 7.071068e-011 7.071068e-011
6606721344.2689 -0.16762789 0.076364979 -0.0036514022 0.012422993 7.071068e-011 7.071068e-011 7.071068e-011 7.071068e-011
6608401680.3361 -0.12370217 0.16682348 0.007562608 0.0093985396 7.071068e-011 7.071068e-011 7.071068e-011 7.071068e-011
6610082016.4033 -0.043913148 0.23158385 0.011319879 -0.00053142593 7.071068e-011 7.071068e-011 7.071068e-011 7.071068e-011
6611762352.4705 0.057045184 0.25767136 0.0060663363 -0.0089555616 7.071068e-011 7.071068e-011 7.071068e-011 7.071068e-011
6613442688.5377 0.16086778 0.23990795 -0.0034105326 -0.0098537002 7.071068e-011 7.071068e-011 7.071068e-011 7.071068e-011
6615123024.6049 0.24931087 0.18120614 -0.009575529 -0.0030509385 7.071068e-011 7.071068e-011 7.071068e-011 7.071068e-011
6616803360.6721 0.30727395 0.091377832 -0.0078865914 0.0055310782 7.071068e-011 7.071068e-011 7.071068e-011 7.071068e-011
6618483696.7393 0.32492524 -0.01491594 -0.00053515192 0.0092579667 7.071068e-011 7.071068e-011 7.071068e-011 7.071068e-011
6620164032.8066 0.29874566 -0.12051743 0.0067019113 0.006134389 7.071068e-011 7.071068e-011 7.071068e-011 7.071068e-011
6621844368.8738 0.23205815 -0.20799313 0.0090190182 -0.0013294194 7.071068e-011 7.071068e-011 7.071068e-011 7.071068e-011
6623524704.941 0.13490166 -0.26221481 0.0046224203 -0.0080731995 7.071068e-011 7.071068e-011 7.071068e-011 7.071068e-011
6625205041.0082 0.022959959 -0.27298623 -0.0037290729 -0.0087016588 7.071068e-011 7.071068e-011 7.071068e-011 7.071068e-011
6626885377.0754 -0.08479052 -0.23728158 -0.0092047555 -0.0021902348 7.071068e-011 7.071068e-011 7.071068e-011 7.071068e-011
6628565713.1426 -0.1692353 -0.16028953 -0.0072076824 0.0059220269 7.071068e-011 7.071068e-011 7.071068e-011 7.071068e-011
6630246049.2098 -0.21484888 -0.055177812 0.00020568937 0.0092149442 7.071068e-011 7.071068e-011 7.071068e-011 7.071068e-011
6631926385.2771 -0.21328409 0.059130143 0.0073499666 0.0055855843 7.071068e-011 7.071068e-011 7.071068e-011 7.071068e-011
6633606721.3443 -0.16529909 0.16202086 0.0090191392 -0.0023579921 7.071068e-011 7.071068e-011 7.071068e-011 7.071068e-011
6635287057.4115 -0.080346346 0.23557596 0.0036607455 -0.0086318338 7.071068e-011 7.071068e-011 7.071068e-011 7.071068e-011
6636967393.4787 0.025817348 0.26786 -0.0045531811 -0.0081385458 7.071068e-011 7.071068e-011 7.071068e-011 7.071068e-011
6638647729.5459 0.13451245 0.2547259 -0.0091014653 -0.0015220842 7.071068e-011 7.071068e-011 7.071068e-011 7.071068e-011
6640328065.6131 0.22764489 0.19982411 -0.0069924328 0.0060328511 7.071068e-011 7.071068e-011 7.071068e-011 7.071068e-011
6642008401.6803 0.2905741 0.11327519 0.00012298665 0.0094504608 7.071068e-011 7.071068e-011 7.071068e-011 7.071068e-011
6643688737.7475 0.31376302 0.0095207626 0.007704366 0.0061645913 7.071068e-011 7.071068e-011 7.071068e-011 7.071068e-011
6645369073.8148 0.29378572 -0.094580606 0.010107718 -0.0023457904 7.071068e-011 7.071068e-011 7.071068e-011 7.071068e-011
6647049409.882 0.2338583 -0.18192194 0.0044601453 -0.0098603638 7.071068e-011 7.071068e-011 7.071068e-011 7.071068e-011
6648729745.9492 0.14385241 -0.23782121 -0.0052986164 -0.0098082079 7.071068e-011 7.071068e-011 7.071068e-011 7.071068e-011
6650410082.0164 0.038875971 -0.25247219 -0.011287651 -0.0018283674 7.071068e-011 7.071068e-011 7.071068e-011 7.071068e-011
6652090418.0836 -0.062792115 -0.22306572 -0.0086070886 0.0080491696 7.071068e-011 7.071068e-011 7.071068e-011 7.071068e-011
6653770754.1508 -0.1429697 -0.15483209 0.0012023587 0.01212214 7.071068e-011 7.071068e-011 7.071068e-011 7.071068e-011
6655451090.218 -0.18734637 -0.0605864 0.010709088 0.0065164431 7.071068e-011 7.071068e-011 7.071068e-011 7.071068e-011
6657131426.2853 -0.18874721 0.041871294 0.011864664 -0.0047117234 7.071068e-011 7.071068e-011 7.071068e-011 7.071068e-011
6658811762.3525 -0.14853786 0.13367556 0.0035316432 -0.012427388 7.071068e-011 7.071068e-011 7.071068e-011 7.071068e-011
6660492098.4197 -0.076011099 0.19880643 -0.0077073537 -0.010625854 7.071068e-011 7.071068e-011 7.071068e-011 7.071068e-011
6662172434.4869 0.013890618 0.22730491 -0.013467801 -0.00057616172 7.071068e-011 7.071068e-011 7.071068e-011 7.071068e-011
6663852770.5541 0.10420391 0.21684438 -0.0091086123 0.010614682 7.071068e-011 7.071068e-011 7.071068e-011 7.071068e-011
6665533106.6213 0.17948882 0.17219272 0.0029456071 0.014271279 7.071068e-011 7.071068e-011 7.071068e-011 7.071068e-011
6667213442.6885 0.22826998 0.10338221 0.013680222 0.0065561128 7.071068e-011 7.071068e-011 7.071068e-011 7.071068e-011
6668893778.7558 0.24421509 0.023522945 0.013990927 -0.0072283158 7.071068e-011 7.071068e-011 7.071068e-011 7.071068e-011
6670574114.823 0.22669451 -0.053298965 0.00272018 -0.016102228 7.071068e-011 7.071068e-011 7.071068e-011 7.071068e-011
6672254450.8902 0.18052886 -0.11416359 -0.011693705 -0.012234625 7.071068e-011 7.071068e-011 7.071068e-011 7.071068e-011
6673934786.9574 0.11520385 -0.14917149 -0.017348113 0.0022201617 7.071068e-011 7.071068e-011 7.071068e-011 7.071068e-011
6675615123.0246 0.043600254 -0.15327486 -0.008694292 0.015714256 7.071068e-011 7.071068e-011 7.071068e-011 7.071068e-011
6677295459.0918 -0.02055647 -0.12756491 0.0076647825 0.016650582 7.071068e-011 7.071068e-011 7.071068e-011 7.071068e-011
6678975795.159 -0.065624841 -0.079004705 0.01826771 0.0038301486 7.071068e-011 7.071068e-011 7.071068e-011 7.071068e-011
6680656131.2262 -0.084389739 -0.018816298 0.014257845 -0.01260695 7.071068e-011 7.071068e-011 7.071068e-011 7.071068e-011
6682336467.2935 -0.075615004 0.039827425 -0.001654551 -0.019358478 7.071068e-011 7.071068e-011 7.071068e-011 7.071068e-011
6684016803.3607 -0.044500846 0.085061416 -0.016893616 -0.01035705 7.071068e-011 7.071068e-011 7.071068e-011 7.071068e-011
6685697139.4279 -0.0010323939 0.10951002 -0.018636107 0.0076040383 7.071068e-011 7.071068e-011 7.071068e-011 7.071068e-011
6687377475.4951 0.043220479 0.11190836 -0.0049737729 0.019738918 7.071068e-011 7.071068e-011 7.071068e-011 7.071068e-011
6689057811.5623 0.07834325 0.096762106 0.013029004 0.015888367 7.071068e-011 7.071068e-011 7.071068e-011 7.071068e-011
6690738147.6295 0.098878689 0.072527163 0.020714467 -0.00099782611 7.071068e-011 7.071068e-011 7.071068e-011 7.071068e-011
6692418483.6967 0.10507476 0.04810442 0.011672206 -0.017396355 7.071068e-011 7.071068e-011 7.071068e-011 7.071068e-011
6694098819.764 0.10131478 0.029525766 -0.0071141808 -0.019935295 7.071068e-011 7.071068e-011 7.071068e-011 7.071068e-011
6695779155.8312 0.09324301 0.019103169 -0.020441685 -0.0061281463 7.071068e-011 7.071068e-011 7.071068e-011 7.071068e-011
6697459491.8984 0.086150281 0.016035855 -0.017085088 0.012911082 7.071068e-011 7.071068e-011 7.071068e-011 7.071068e-011
6699139827.9656 0.083595142 0.016901033 0.0002896403 0.021370145 7.071068e-011 7.071068e-011 7.071068e-011 7.071068e-011
6700820164.0328 0.086076118 0.017237661 0.017239939 0.012416747 7.071068e-011 7.071068e-011 7.071068e-011 7.071068e-011
6702500500.1 0.091512032 0.013765748 0.020146811 -0.0063334662 7.071068e-011 7.071068e-011 7.071068e-011 7.071068e-011
6704180836.1672 0.096750543 0.0049779811 0.0069829645 -0.019832138 7.071068e-011 7.071068e-011 7.071068e-011 7.071068e-011
6705861172.2344 0.098150678 -0.008855137 -0.011659134 -0.017365469 7.071068e-011 7.071068e-011 7.071068e-011 7.071068e-011
6707541508.3017 0.092430927 -0.025317242 -0.020684805 -0.00099972589 7.071068e-011 7.071068e-011 7.071068e-011 7.071068e-011
6709221844.3689 0.078119755 -0.04036079 -0.012984174 0.015681664 7.071068e-011 7.071068e-011 7.071068e-011 7.071068e-011
6710902180.4361 0.055736486 -0.049644221 0.0044993316 0.019436121 7.071068e-011 7.071068e-011 7.071068e-011 7.071068e-011
6712582516.5033 0.027689049 -0.048843812 0.017806008 0.008229862 7.071068e-011 7.071068e-011 7.071068e-011 7.071068e-011
6714262852.5705 -0.0010662943 -0.034490395 0.017293153 -0.008868183 7.071068e-011 7.071068e-011 7.071068e-011 7.071068e-011
6715943188.6377 -0.023317862 -0.0060429885 0.0035888476 -0.01905611 7.071068e-011 7.071068e-011 7.071068e-011 7.071068e-011
6717623524.7049 -0.031998225 0.032827605 -0.01292569 -0.014382268 7.071068e-011 7.071068e-011 7.071068e-011 7.071068e-011
6719303860.7722 -0.022534894 0.075135067 -0.01907428 0.0015906638 7.071068e-011 7.071068e-011 7.071068e-011 7.071068e-011
6720984196.8394 0.0060529644 0.11215667 -0.010155205 0.015825374 7.071068e-011 7.071068e-011 7.071068e-011 7.071068e-011
6722664532.9066 0.050400093 0.13507669 0.0061075231 0.017417058 7.071068e-011 7.071068e-011 7.071068e-011 7.071068e-011
6724344868.9738 0.10302086 0.13746502 0.017248154 0.0059288549 7.071068e-011 7.071068e-011 7.071068e-011 7.071068e-011
6726025205.041 0.15424658 0.11703376 0.015233401 -0.0098750377 7.071068e-011 7.071068e-011 7.071068e-011 7.071068e-011
6727705541.1082 0.19435175 0.075780988 0.0014635888 -0.017980808 7.071068e-011 7.071068e-011 7.071068e-011 7.071068e-011
6729385877.1754 0.21496138 0.019614849 -0.013173624 -0.011897403 7.071068e-011 7.071068e-011 7.071068e-011 7.071068e-011
6731066213.2426 0.21077792 -0.042041596 -0.017026814 0.0030059139 7.071068e-011 7.071068e-011 7.071068e-011 7.071068e-011
6732746549.3099 0.18121368 -0.098204911 -0.0080806911 0.014781821 7.071068e-011 7.071068e-011 7.071068e-011 7.071068e-011
6734426885.3771 0.13034855 -0.13866591 0.0062551065 0.015353932 7.071068e-011 7.071068e-011 7.071068e-011 7.071068e-011
6736107221.4443 0.066026799 -0.15561436 0.01578024 0.0047891475 7.071068e-011 7.071068e-011 7.071068e-011 7.071068e-011
6737787557.5115 -0.0010810947 -0.14481631 0.013559656 -0.0093293535 7.071068e-011 7.071068e-011 7.071068e-011 7.071068e-011
6739467893.5787 -0.05903057 -0.10691185 0.0010694882 -0.016306128 7.071068e-011 7.071068e-011 7.071068e-011 7.071068e-011
6741148229.6459 -0.097043648 -0.047736071 -0.011926437 -0.010841947 7.071068e-011 7.071068e-011 7.071068e-011 7.071068e-011
6742828565.7131 -0.10763713 0.022794956 -0.015724184 0.0024045762 7.071068e-011 7.071068e-011 7.071068e-011 7.071068e-011
6744508901.7804 -0.088094808 0.09232647 -0.0080634458 0.013644118 7.071068e-011 7.071068e-011 7.071068e-011 7.071068e-011
6746189237.8476 -0.041221626 0.14823203 0.005559647 0.014941413 7.071068e-011 7.071068e-011 7.071068e-011 7.071068e-011
6747869573.9148 0.024897553 0.18028571 0.015280786 0.0049394905 7.071068e-011 7.071068e-011 7.071068e-011 7.071068e-011
6749549909.982 0.098840088 0.18280485 0.013246967 -0.0090227835 7.071068e-011 7.071068e-011 7.071068e-011 7.071068e-011
6751230246.0492 0.16816096 0.15516505 0.0010279755 -0.015757546 7.071068e-011 7.071068e-011 7.071068e-011 7.071068e-011
6752910582.1164 0.22157648 0.10174692 -0.011420871 -0.010431763 7.071068e-011 7.071068e-011 7.071068e-011 7.071068e-011
6754590918.1836 0.2492477 0.030649876 -0.015076993 0.0022242276 7.071068e-011 7.071068e-011 7.071068e-011 7.071068e-011
6756271254.2508 0.24656522 -0.046379261 -0.0077705947 0.012986203 7.071068e-011 7.071068e-011 7.071068e-011 7.071068e-011
6757951590.3181 0.21353427 -0.11693586 0.0051733032 0.014152052 7.071068e-011 7.071068e-011 7.071068e-011 7.071068e-011
6759631926.3853 0.15486747 -0.16957028 0.014149429 0.0048287096 7.071068e-011 7.071068e-011 7.071068e-011 7.071068e-011
6761312262.4525 0.0794608 -0.19532923 0.012534169 -0.0078149168 7.071068e-011 7.071068e-011 7.071068e-011 7.071068e-011
6762992598.5197 -0.00077603175 -0.18946032 0.0019792074 -0.014487325 7.071068e-011 7.071068e-011 7.071068e-011 7.071068e-011
6764672934.5869 -0.072846301 -0.15225969 -0.0098174755 -0.010830618 7.071068e-011 7.071068e-011 7.071068e-011 7.071068e-011
6766353270.6541 -0.12471892 -0.08921358 -0.014758717 0.00060508767 7.071068e-011 7.071068e-011 7.071068e-011 7.071068e-011
6768033606.7213 -0.14728324 -0.010376866 -0.0090281609 0.011994919 7.071068e-011 7.071068e-011 7.071068e-011 7.071068e-011
6769713942.7886 -0.13622251 0.070930429 0.003731156 0.014757079 7.071068e-011 7.071068e-011 7.071068e-011 7.071068e-011
6771394278.8558 -0.093310386 0.14053643 0.013973182 0.0063608023 7.071068e-011 7.071068e-011 7.071068e-011 7.071068e-011
6773074614.923 -0.026213292 0.18633886 0.013789013 -0.006970589 7.071068e-011 7.071068e-011 7.071068e-011 7.071068e-011
6774754950.9902 0.05304176 0.20059063 0.003189567 -0.015221492 7.071068e-011 7.071068e-011 7.071068e-011 7.071068e-011
6776435287.0574 0.13037355 0.18134163 -0.0099993264 -0.012021967 7.071068e-011 7.071068e-011 7.071068e-011 7.071068e-011
6778115623.1246 0.19245724 0.13271543 -0.015604589 0.00041675472 7.071068e-011 7.071068e-011 7.071068e-011 7.071068e-011
6779795959.1918 0.22911632 0.06364648 -0.0092714075 0.012339435 7.071068e-011 7.071068e-011 7.071068e-011 7.071068e-011
6781476295.2591 0.23464464 -0.01395479 0.003674703 0.014748092 7.071068e-011 7.071068e-011 7.071068e-011 7.071068e-011
6783156631.3263 0.2084178 -0.087022297 0.01355459 0.0065228469 7.071068e-011 7.071068e-011 7.071068e-011 7.071068e-011
6784836967.3935 0.15508588 -0.1433509 0.013702394 -0.0062172157 7.071068e-011 7.071068e-011 7.071068e-011 7.071068e-011
6786517303.4607 0.083677493 -0.17376724 0.003980617 -0.01464402 7.071068e-011 7.071068e-011 7.071068e-011 7.071068e-011
6788197639.5279 0.0059095533 -0.1734354 -0.0089101503 -0.012451764 7.071068e-011 7.071068e-011 7.071068e-011 7.071068e-011
6789877975.5951 -0.065663755 -0.14244348 -0.015332179 -0.0009361722 7.071068e-011 7.071068e-011 7.071068e-011 7.071068e-011
6791558311.6623 -0.1194516 -0.085732594 -0.010453615 0.011270871 7.071068e-011 7.071068e-011 7.071068e-011 7.071068e-011
6793238647.7295 -0.1468133 -0.012485181 0.0020038832 0.015317999 7.071068e-011 7.071068e-011 7.071068e-011 7.071068e-011
6794918983.7968 -0.14347498 0.065532878 0.013262674 0.0083500091 7.071068e-011 7.071068e-011 7.071068e-011 7.071068e-011
6796599319.864 -0.11006224 0.13591675 0.015151097 -0.0051220423 7.071068e-011 7.071068e-011 7.071068e-011 7.071068e-011
6798279655.9312 -0.051986814 0.18734662 0.0055093318 -0.015293268 7.071068e-011 7.071068e-011 7.071068e-011 7.071068e-011
6799959991.9984 0.021063987 0.21148689 -0.0086260205 -0.013859284 7.071068e-011 7.071068e-011 7.071068e-011 7.071068e-011
6801640328.0656 0.096819773 0.20484728 -0.016129198 -0.0019386306 7.071068e-011 7.071068e-011 7.071068e-011 7.071068e-011
6803320664.1328 0.16290589 0.16920274 -0.011691783 0.011203972 7.071068e-011 7.071068e-011 7.071068e-011 7.071068e-011
6805001000.2 0.20875026 0.11084759 0.0011757931 0.016244795 7.071068e-011 7.071068e-011 7.071068e-011 7.071068e-011
6806681336.2673 0.22698128 0.039806642 0.013493182 0.009514736 7.071068e-011 7.071068e-011 7.071068e-011 7.071068e-011
6808361672.3345 0.21499208 -0.031607199 0.016068557 -0.0045930217 7.071068e-011 7.071068e-011 7.071068e-011 7.071068e-011
6810042008.4017 0.17548388 -0.091208339 0.0064984821 -0.015490402 7.071068e-011 7.071068e-011 7.071068e-011 7.071068e-011
6811722344.4689 0.11579011 -0.12911594 -0.0079086013 -0.014795041 7.071068e-011 7.071068e-011 7.071068e-011 7.071068e-011
6813402680.5361 0.046513483 -0.13922216 -0.016471779 -0.0033553245 7.071068e-011 7.071068e-011 7.071068e-011 7.071068e-011
6815083016.6033 -0.02008258 -0.12035599 -0.013296547 0.0106399 7.071068e-011 7.071068e-011 7.071068e-011 7.071068e-011
6816763352.6705 -0.072591439 -0.076718196 -0.00022982246 0.017422844 7.071068e-011 7.071068e-011 7.071068e-011 7.071068e-011
6818443688.7377 -0.10287118 -0.016569197 0.013789902 0.011348079 7.071068e-011 7.071068e-011 7.071068e-011 7.071068e-011
6820124024.805 -0.10690115 0.049872059 0.017729605 -0.003897096 7.071068e-011 7.071068e-011 7.071068e-011 7.071068e-011
6821804360.8722 -0.084710956 0.11195167 0.0079334714 -0.016428718 7.071068e-011 7.071068e-011 7.071068e-011 7.071068e-011
6823484696.9394 -0.040449101 0.15981744 -0.0078930408 -0.016435506 7.071068e-011 7.071068e-011 7.071068e-011 7.071068e-011
6825165033.0066 0.018154137 0.18629801 -0.017765442 -0.0041934885 7.071068e-011 7.071068e-011 7.071068e-011 7.071068e-011
6826845369.0738 0.081502952 0.18801966 -0.014503676 0.011238339 7.071068e-011 7.071068e-011 7.071068e-011 7.071068e-011
6828525705.141 0.13976733 0.16546285 -0.00032439287 0.018437801 7.071068e-011 7.071068e-011 7.071068e-011 7.071068e-011
6830206041.2082 0.1840246 0.12273531 0.014184146 0.011793002 7.071068e-011 7.071068e-011 7.071068e-011 7.071068e-011
6831886377.2755 0.2077722 0.067157097 0.018010952 -0.0035673657 7.071068e-011 7.071068e-011 7.071068e-011 7.071068e-011
6833566713.3427 0.20799665 0.0077877701 0.0086995438 -0.016112605 7.071068e-011 7.071068e-011 7.071068e-011 7.071068e-011
6835247049.4099 0.1852778 -0.046071485 -0.006820933 -0.017095184 7.071068e-011 7.071068e-011 7.071068e-011 7.071068e-011
6836927385.4771 0.14355859 -0.085814379 -0.017783286 -0.0057989941 7.071068e-011 7.071068e-011 7.071068e-011 7.071068e-011
6838607721.5443 0.090169348 -0.10484497 -0.016117448 0.010304108 7.071068e-011 7.071068e-011 7.071068e-011 7.071068e-011
6840288057.6115 0.034874167 -0.10031512 -0.002112793 0.019444503 7.071068e-011 7.071068e-011 7.071068e-011 7.071068e-011
6841968393.6787 -0.012377106 -0.073974364 0.014140639 0.013994604 7.071068e-011 7.071068e-011 7.071068e-011 7.071068e-011
6843648729.7459 -0.043546855 -0.031553708 0.019992931 -0.002398401 7.071068e-011 7.071068e-011 7.071068e-011 7.071068e-011
6845329065.8132 -0.053854913 0.018480057 0.0106818 -0.017306004 7.071068e-011 7.071068e-011 7.071068e-011 7.071068e-011
6847009401.8804 -0.042768158 0.066563584 -0.0069635296 -0.019315952 7.071068e-011 7.071068e-011 7.071068e-011 7.071068e-011
6848689737.9476 -0.01393368 0.10433714 -0.019615876 -0.0065806075 7.071068e-011 7.071068e-011 7.071068e-011 7.071068e-011
6850370074.0148 0.026222782 0.12620983 -0.017386498 0.011352633 7.071068e-011 7.071068e-011 7.071068e-011 7.071068e-011
6852050410.082 0.07005024 0.12985775 -0.001922727 0.020655558 7.071068e-011 7.071068e-011 7.071068e-011 7.071068e-011
6853730746.1492 0.11003496 0.11626944 0.014867967 0.014376511 7.071068e-011 7.071068e-011 7.071068e-011 7.071068e-011
6855411082.2164 0.14017223 0.08928553 0.020494087 -0.0025145223 7.071068e-011 7.071068e-011 7.071068e-011 7.071068e-011
6857091418.2837 0.15699865 0.05429003 0.010979353 -0.017515875 7.071068e-011 7.071068e-011 7.071068e-011 7.071068e-011
6858771754.3509 0.15931961 0.016847936 -0.006698722 -0.019637015 7.071068e-011 7.071068e-011 7.071068e-011 7.071068e-011
6860452090.4181 0.14771792 -0.01773544 -0.01955468 -0.0071830684 7.071068e-011 7.071068e-011 7.071068e-011 7.071068e-011
6862132426.4853 0.12443835 -0.044670235 -0.017966922 0.010713486 7.071068e-011 7.071068e-011 7.071068e-011 7.071068e-011
6863812762.5525 0.09332937 -0.060239002 -0.0030169899 0.02080296 7.071068e-011 7.071068e-011 7.071068e-011 7.071068e-011
6865493098.6197 0.059409026 -0.062330641 0.014342929 0.015569647 7.071068e-011 7.071068e-011 7.071068e-011 7.071068e-011
6867173434.6869 0.028413005 -0.050957825 0.021322519 -0.0013634707 7.071068e-011 7.071068e-011 7.071068e-011 7.071068e-011
6868853770.7542 0.0057010781 -0.02878515 0.012422308 -0.017646641 7.071068e-011 7.071068e-011 7.071068e-011 7.071068e-011
