!Keysight Technologies,N5235B,MY61252044,A.15.00.15
!Date: Friday, January 20, 2023 22:59:05
!Correction: S11(Off) 
!S21(Off) 
!S12(Off) 
!S22(Off) 
!S2P File: Measurements: S11, S21, S12, S22:
# Hz S  RI   R 50
6600000000 0.018228408 -0.17509675 0.015467558 -0.0030400036 7.071068e-011 7.071068e-011 7.071068e-011 7.071068e-011
6608408408.4084 -0.12426966 0.16587561 0.0053067859 0.010842742 7.071068e-011 7.071068e-011 7.071068e-011 7.071068e-011
6616816816.8168 0.30614576 0.092274413 -0.0089145107 0.0036913576 7.071068e-011 7.071068e-011 7.071068e-011 7.071068e-011
6625225225.2252 0.02413472 -0.27294225 -0.0017826549 -0.0093074432 7.071068e-011 7.071068e-011 7.071068e-011 7.071068e-011
6633633633.6336 -0.16545257 0.16182743 0.0093383361 -0.00038882636 7.071068e-011 7.071068e-011 7.071068e-011 7.071068e-011
6642042042.042 0.29013115 0.11276453 -0.0018562834 0.0093194507 7.071068e-011 7.071068e-011 7.071068e-011 7.071068e-011
6650450450.4505 0.038698439 -0.25210169 -0.010725251 -0.0040929122 7.071068e-011 7.071068e-011 7.071068e-011 7.071068e-011
6658858858.8589 -0.14823356 0.13474858 0.0059805545 -0.011492822 7.071068e-011 7.071068e-011 7.071068e-011 7.071068e-011
6667267267.2673 0.22871093 0.10097831 0.012200985 0.0091704084 7.071068e-011 7.071068e-011 7.071068e-011 7.071068e-011
6675675675.6757 0.042605732 -0.15115204 -0.011541631 0.013821431 7.071068e-011 7.071068e-011 7.071068e-011 7.071068e-011
6684084084.0841 -0.044329856 0.084360674 -0.014593923 -0.013359032 7.071068e-011 7.071068e-011 7.071068e-011 7.071068e-011
6692492492.4925 0.10591523 0.047410801 0.014826243 -0.014916942 7.071068e-011 7.071068e-011 7.071068e-011 7.071068e-011
6700900900.9009 0.085921094 0.018240076 0.014762574 0.01542452 7.071068e-011 7.071068e-011 7.071068e-011 7.071068e-011
6709309309.3093 0.077127889 -0.041846141 -0.015559274 0.013108148 7.071068e-011 7.071068e-011 7.071068e-011 7.071068e-011
6717717717.7177 -0.031113354 0.034486298 -0.010142419 -0.016486598 7.071068e-011 7.071068e-011 7.071068e-011 7.071068e-011
6726126126.1261 0.15519767 0.11615357 0.016808033 -0.007081666 7.071068e-011 7.071068e-011 7.071068e-011 7.071068e-011
6734534534.5345 0.12841302 -0.14072201 0.0035629608 0.016236562 7.071068e-011 7.071068e-011 7.071068e-011 7.071068e-011
6742942942.9429 -0.10784098 0.026876394 -0.015914459 -0.00027954343 7.071068e-011 7.071068e-011 7.071068e-011 7.071068e-011
6751351351.3514 0.17169316 0.15244833 0.0036198031 -0.015372486 7.071068e-011 7.071068e-011 7.071068e-011 7.071068e-011
6759759759.7598 0.150471 -0.17167938 0.01318799 0.007064152 7.071068e-011 7.071068e-011 7.071068e-011 7.071068e-011
6768168168.1682 -0.14693068 -0.0052584624 -0.010861405 0.01040902 7.071068e-011 7.071068e-011 7.071068e-011 7.071068e-011
6776576576.5766 0.13425684 0.17882259 -0.0080061192 -0.013473285 7.071068e-011 7.071068e-011 7.071068e-011 7.071068e-011
6784984984.985 0.15101415 -0.14633553 0.01455864 -0.004019517 7.071068e-011 7.071068e-011 7.071068e-011 7.071068e-011
6793393393.3934 -0.14745615 -0.0063796928 -0.00035149162 0.015522876 7.071068e-011 7.071068e-011 7.071068e-011 7.071068e-011
6801801801.8018 0.10172472 0.20261776 -0.015718911 -0.0042940974 7.071068e-011 7.071068e-011 7.071068e-011 7.071068e-011
6810210210.2102 0.17230532 -0.095064625 0.0086737731 -0.014432678 7.071068e-011 7.071068e-011 7.071068e-011 7.071068e-011
6818618618.6186 -0.10538597 -0.010179193 0.012142841 0.013239013 7.071068e-011 7.071068e-011 7.071068e-011 7.071068e-011
6827027027.027 0.087986536 0.18544427 -0.015959324 0.0092104189 7.071068e-011 7.071068e-011 7.071068e-011 7.071068e-011
6835435435.4354 0.18139011 -0.048899394 -0.0044790921 -0.017894298 7.071068e-011 7.071068e-011 7.071068e-011 7.071068e-011
6843843843.8438 -0.045502502 -0.027926402 0.020169813 0.00025268397 7.071068e-011 7.071068e-011 7.071068e-011 7.071068e-011
6852252252.2523 0.074853301 0.12926416 -0.0045816102 0.020299189 7.071068e-011 7.071068e-011 7.071068e-011 7.071068e-011
6860660660.6607 0.14507252 -0.020359466 -0.018605459 -0.0096077574 7.071068e-011 7.071068e-011 7.071068e-011 7.071068e-011
6869069069.0691 0.0041012107 -0.026980348 0.014521853 -0.016087089 7.071068e-011 7.071068e-011 7.071068e-011 7.071068e-011
6877477477.4775 0.054093998 0.072570145 0.012680926 0.018092025 7.071068e-011 7.071068e-011 7.071068e-011 7.071068e-011
6885885885.8859 0.0903643 0.0068568559 -0.020449467 0.0077065188 7.071068e-011 7.071068e-011 7.071068e-011 7.071068e-011
6894294294.2943 0.047215663 -0.0010125759 -0.002305279 -0.022014448 7.071068e-011 7.071068e-011 7.071068e-011 7.071068e-011
6902702702.7027 0.0382271 0.019394925 0.021986209 0.0032415278 7.071068e-011 7.071068e-011 7.071068e-011 7.071068e-011
6911111111.1111 0.031022681 0.037664004 -0.0087748505 0.020210145 7.071068e-011 7.071068e-011 7.071068e-011 7.071068e-011
6919519519.5195 0.078291848 0.049883422 -0.016942762 -0.013621708 7.071068e-011 7.071068e-011 7.071068e-011 7.071068e-011
6927927927.9279 0.050686833 -0.012393397 0.017240869 -0.012776067 7.071068e-011 7.071068e-011 7.071068e-011 7.071068e-011
6936336336.3363 -0.0021339096 0.062269397 0.0072755232 0.019470856 7.071068e-011 7.071068e-011 7.071068e-011 7.071068e-011
6944744744.7447 0.11249705 0.089275412 -0.020834589 0.0011478349 7.071068e-011 7.071068e-011 7.071068e-011 7.071068e-011
6953153153.1532 0.084184334 -0.045574509 0.0044830455 -0.019994451 7.071068e-011 7.071068e-011 7.071068e-011 7.071068e-011
6961561561.5616 -0.028298952 0.054574788 0.017337795 0.0099420696 7.071068e-011 7.071068e-011 7.071068e-011 7.071068e-011
6969969969.97 0.1247677 0.10578216 -0.014509102 0.013546166 7.071068e-011 7.071068e-011 7.071068e-011 7.071068e-011
6978378378.3784 0.10153566 -0.070876315 -0.0083871102 -0.01736653 7.071068e-011 7.071068e-011 7.071068e-011 7.071068e-011
6986786786.7868 -0.064073972 0.032929834 0.018727392 -0.0022892037 7.071068e-011 7.071068e-011 7.071068e-011 7.071068e-011
6995195195.1952 0.10315562 0.13380495 -0.0035501295 0.018916769 7.071068e-011 7.071068e-011 7.071068e-011 7.071068e-011
7003603603.6036 0.10873474 -0.058018573 -0.016604777 -0.008897908 7.071068e-011 7.071068e-011 7.071068e-011 7.071068e-011
7012012012.012 -0.072710849 0.032694098 0.014112114 -0.012477685 7.071068e-011 7.071068e-011 7.071068e-011 7.071068e-011
7020420420.4204 0.088243432 0.16134864 0.0077969078 0.017323267 7.071068e-011 7.071068e-011 7.071068e-011 7.071068e-011
7028828828.8288 0.13246404 -0.029184604 -0.018524406 0.0018369724 7.071068e-011 7.071068e-011 7.071068e-011 7.071068e-011
7037237237.2372 -0.054048423 0.030901935 0.0044103982 -0.018644391 7.071068e-011 7.071068e-011 7.071068e-011 7.071068e-011
7045645645.6456 0.090257041 0.17086284 0.016449027 0.0097935861 7.071068e-011 7.071068e-011 7.071068e-011 7.071068e-011
7054054054.0541 0.16747938 -0.0032713381 -0.014671245 0.012051038 7.071068e-011 7.071068e-011 7.071068e-011 7.071068e-011
7062462462.4625 -0.0082346331 -0.0038246175 -0.0068426733 -0.018469265 7.071068e-011 7.071068e-011 7.071068e-011 7.071068e-011
7070870870.8709 0.078462288 0.14040805 0.01977038 -0.0012039667 7.071068e-011 7.071068e-011 7.071068e-011 7.071068e-011
7079279279.2793 0.16829064 0.0071830517 -0.0055408212 0.018797729 7.071068e-011 7.071068e-011 7.071068e-011 7.071068e-011
7087687687.6877 0.032401033 -0.026862388 -0.016650751 -0.011480277 7.071068e-011 7.071068e-011 7.071068e-011 7.071068e-011
7096096096.0961 0.059650745 0.089321613 0.015936183 -0.012488618 7.071068e-011 7.071068e-011 7.071068e-011 7.071068e-011
7104504504.5045 0.14777222 0.010250061 0.0065427776 0.019135129 7.071068e-011 7.071068e-011 7.071068e-011 7.071068e-011
7112912912.9129 0.050747894 -0.044601541 -0.020640694 -0.00011705262 7.071068e-011 7.071068e-011 7.071068e-011 7.071068e-011
7121321321.3213 0.034459889 0.031968061 0.0062979856 -0.019842537 7.071068e-011 7.071068e-011 7.071068e-011 7.071068e-011
7129729729.7297 0.08933866 0.014395365 0.016452814 0.012070284 7.071068e-011 7.071068e-011 7.071068e-011 7.071068e-011
7138138138.1381 0.043337893 -0.037811 -0.017179642 0.011707537 7.071068e-011 7.071068e-011 7.071068e-011 7.071068e-011
7146546546.5465 -0.00051166996 0.013685538 -0.0058566029 -0.020117581 7.071068e-011 7.071068e-011 7.071068e-011 7.071068e-011
7154954954.955 0.030711334 0.041296598 0.020804191 0.00084449229 7.071068e-011 7.071068e-011 7.071068e-011 7.071068e-011
7163363363.3634 0.044920206 0.015696838 -0.0076514967 0.019103689 7.071068e-011 7.071068e-011 7.071068e-011 7.071068e-011
7171771771.7718 0.0011578627 0.020302407 -0.015756009 -0.013471774 7.071068e-011 7.071068e-011 7.071068e-011 7.071068e-011
7180180180.1802 0.018503388 0.072558977 0.017618204 -0.010401659 7.071068e-011 7.071068e-011 7.071068e-011 7.071068e-011
7188588588.5886 0.067786932 0.056091927 0.0038922089 0.020447712 7.071068e-011 7.071068e-011 7.071068e-011 7.071068e-011
7196996996.997 0.039808806 0.010126417 -0.020609921 -0.0027296015 7.071068e-011 7.071068e-011 7.071068e-011 7.071068e-011
7205405405.4054 0.012332947 0.067183144 0.0095371539 -0.01800235 7.071068e-011 7.071068e-011 7.071068e-011 7.071068e-011
7213813813.8138 0.083250798 0.067171879 0.013853803 0.015183254 7.071068e-011 7.071068e-011 7.071068e-011 7.071068e-011
7222222222.2222 0.06613981 -0.0055110459 -0.018984413 0.008233129 7.071068e-011 7.071068e-011 7.071068e-011 7.071068e-011
7230630630.6306 -0.0013014101 0.035206478 -0.00144823 -0.020493675 7.071068e-011 7.071068e-011 7.071068e-011 7.071068e-011
7239039039.039 0.07159476 0.075555846 0.019957617 0.005838511 7.071068e-011 7.071068e-011 7.071068e-011 7.071068e-011
7247447447.4474 0.075199082 -0.014856748 -0.012004025 0.016987983 7.071068e-011 7.071068e-011 7.071068e-011 7.071068e-011
7255855855.8559 -0.016630173 0.007417223 -0.011606275 -0.017012749 7.071068e-011 7.071068e-011 7.071068e-011 7.071068e-011
7264264264.2643 0.034960393 0.08405558 0.020117896 -0.0053595812 7.071068e-011 7.071068e-011 7.071068e-011 7.071068e-011
7272672672.6727 0.074343883 0.00057437574 -0.001505768 0.020539846 7.071068e-011 7.071068e-011 7.071068e-011 7.071068e-011
7281081081.0811 -0.029909499 0.00086792884 -0.018731561 -0.0084438492 7.071068e-011 7.071068e-011 7.071068e-011 7.071068e-011
7289489489.4895 6.0093258e-005 0.107625 0.014692144 -0.014629046 7.071068e-011 7.071068e-011 7.071068e-011 7.071068e-011
7297897897.8979 0.084967777 0.05057694 0.0088161854 0.018824067 7.071068e-011 7.071068e-011 7.071068e-011 7.071068e-011
7306306306.3063 0.00099959923 0.0088978875 -0.020577731 0.0015909469 7.071068e-011 7.071068e-011 7.071068e-011 7.071068e-011
7314714714.7147 0.0041583944 0.11284328 0.0053832424 -0.02029678 7.071068e-011 7.071068e-011 7.071068e-011 7.071068e-011
7323123123.1231 0.11270104 0.075286508 0.017014496 0.011724888 7.071068e-011 7.071068e-011 7.071068e-011 7.071068e-011
7331531531.5315 0.051140405 -0.011826626 -0.017322233 0.011725851 7.071068e-011 7.071068e-011 7.071068e-011 7.071068e-011
7339939939.9399 0.0079648755 0.06872388 -0.0053346036 -0.020549463 7.071068e-011 7.071068e-011 7.071068e-011 7.071068e-011
7348348348.3483 0.10552887 0.063605927 0.020924205 0.0019153913 7.071068e-011 7.071068e-011 7.071068e-011 7.071068e-011
7356756756.7568 0.066086642 -0.037002414 -0.0091874879 0.018796407 7.071068e-011 7.071068e-011 7.071068e-011 7.071068e-011
7365165165.1652 -0.010217112 0.020944305 -0.014754646 -0.015183864 7.071068e-011 7.071068e-011 7.071068e-011 7.071068e-011
7373573573.5736 0.061605368 0.049796041 0.0190103 -0.008577574 7.071068e-011 7.071068e-011 7.071068e-011 7.071068e-011
7381981981.982 0.043905791 -0.035421159 0.0010863814 0.021120595 7.071068e-011 7.071068e-011 7.071068e-011 7.071068e-011
7390390390.3904 -0.043103095 0.0097348485 -0.020340202 -0.0061442675 7.071068e-011 7.071068e-011 7.071068e-011 7.071068e-011
7398798798.7988 0.013043539 0.071207739 0.012882886 -0.016709672 7.071068e-011 7.071068e-011 7.071068e-011 7.071068e-011
7407207207.2072 0.027893221 0.0097874338 0.011206392 0.017974053 7.071068e-011 7.071068e-011 7.071068e-011 7.071068e-011
7415615615.6156 -0.040962715 0.035402212 -0.020872075 0.0044074696 7.071068e-011 7.071068e-011 7.071068e-011 7.071068e-011
7424024024.024 0.0068100165 0.10501623 0.0030422078 -0.021040769 7.071068e-011 7.071068e-011 7.071068e-011 7.071068e-011
7432432432.4324 0.054702204 0.054091673 0.018685799 0.010400278 7.071068e-011 7.071068e-011 7.071068e-011 7.071068e-011
7440840840.8408 0.0097709559 0.042360224 -0.016125595 0.014069117 7.071068e-011 7.071068e-011 7.071068e-011 7.071068e-011
7449249249.2492 0.030281093 0.087126844 -0.0073453314 -0.019863166 7.071068e-011 7.071068e-011 7.071068e-011 7.071068e-011
7457657657.6577 0.077958196 0.048950043 0.02125535 0.00015073796 7.071068e-011 7.071068e-011 7.071068e-011 7.071068e-011
7466066066.0661 0.041729495 0.014075564 -0.0075021288 0.019943006 7.071068e-011 7.071068e-011 7.071068e-011 7.071068e-011
7474474474.4745 0.030518429 0.039336439 -0.015949868 -0.01381814 7.071068e-011 7.071068e-011 7.071068e-011 7.071068e-011
7482882882.8829 0.059884101 0.029093506 0.018622054 -0.0098160328 7.071068e-011 7.071068e-011 7.071068e-011 7.071068e-011
7491291291.2913 0.038904458 -0.013387183 0.0026608787 0.020926289 7.071068e-011 7.071068e-011 7.071068e-011 7.071068e-011
7499699699.6997 -0.0033407642 0.002415807 -0.020362923 -0.0049074083 7.071068e-011 7.071068e-011 7.071068e-011 7.071068e-011
7508108108.1081 0.0033101407 0.031944714 0.01173358 -0.017324269 7.071068e-011 7.071068e-011 7.071068e-011 7.071068e-011
7516516516.5165 0.019388864 0.011923137 0.012003114 0.016980754 7.071068e-011 7.071068e-011 7.071068e-011 7.071068e-011
7524924924.9249 -0.026417926 0.0066014389 -0.020024166 0.00508733 7.071068e-011 7.071068e-011 7.071068e-011 7.071068e-011
7533333333.3333 -0.029797133 0.065999173 0.0025265205 -0.020499425 7.071068e-011 7.071068e-011 7.071068e-011 7.071068e-011
7541741741.7417 0.027849486 0.068859495 0.018254362 0.0094751539 7.071068e-011 7.071068e-011 7.071068e-011 7.071068e-011
7550150150.1502 0.012995873 0.020582329 -0.015206601 0.013224833 7.071068e-011 7.071068e-011 7.071068e-011 7.071068e-011
7558558558.5586 -0.01533358 0.068471432 -0.0068597347 -0.019032367 7.071068e-011 7.071068e-011 7.071068e-011 7.071068e-011
7566966966.967 0.055639777 0.078095749 0.019997265 0.00047877253 7.071068e-011 7.071068e-011 7.071068e-011 7.071068e-011
7575375375.3754 0.053550914 0.00094201864 -0.007907996 0.018456971 7.071068e-011 7.071068e-011 7.071068e-011 7.071068e-011
7583783783.7838 -0.011882783 0.024046334 -0.014398811 -0.014074063 7.071068e-011 7.071068e-011 7.071068e-011 7.071068e-011
7592192192.1922 0.045515146 0.060625747 0.018001502 -0.0083148777 7.071068e-011 7.071068e-011 7.071068e-011 7.071068e-011
7600600600.6006 0.051759657 -0.024356039 0.00087346626 0.019481149 7.071068e-011 7.071068e-011 7.071068e-011 7.071068e-011
7609009009.009 -0.037978694 -0.010772194 -0.018875621 -0.0065347706 7.071068e-011 7.071068e-011 7.071068e-011 7.071068e-011
7617417417.4174 -0.0051546111 0.05813447 0.012618115 -0.015316783 7.071068e-011 7.071068e-011 7.071068e-011 7.071068e-011
7625825825.8258 0.026409741 -0.0041062143 0.009422713 0.017393649 7.071068e-011 7.071068e-011 7.071068e-011 7.071068e-011
7634234234.2342 -0.060655344 0.0039796182 -0.0195434 0.0024448631 7.071068e-011 7.071068e-011 7.071068e-011 7.071068e-011
7642642642.6426 -0.026592236 0.09166614 0.0049856254 -0.018895619 7.071068e-011 7.071068e-011 7.071068e-011 7.071068e-011
7651051051.0511 0.037551656 0.042474128 0.015744507 0.011700747 7.071068e-011 7.071068e-011 7.071068e-011 7.071068e-011
7659459459.4595 -0.029831989 0.018125502 -0.016772827 0.010658205 7.071068e-011 7.071068e-011 7.071068e-011 7.071068e-011
7667867867.8679 -0.011563242 0.1024602 -0.0038936879 -0.019113649 7.071068e-011 7.071068e-011 7.071068e-011 7.071068e-011
7676276276.2763 0.073850296 0.059020612 0.019087881 0.0039646355 7.071068e-011 7.071068e-011 7.071068e-011 7.071068e-011
7684684684.6847 0.021418726 -0.003924083 -0.010770697 0.016612854 7.071068e-011 7.071068e-011 7.071068e-011 7.071068e-011
7693093093.0931 0.00064891181 0.054388139 -0.011477506 -0.015960276 7.071068e-011 7.071068e-011 7.071068e-011 7.071068e-011
7701501501.5015 0.071078084 0.032602753 0.01901992 -0.0048315558 7.071068e-011 7.071068e-011 7.071068e-011 7.071068e-011
7709909909.9099 0.023354597 -0.042513415 -0.0026091237 0.019508544 7.071068e-011 7.071068e-011 7.071068e-011 7.071068e-011
7718318318.3183 -0.03319354 0.010858385 -0.017214289 -0.0095885918 7.071068e-011 7.071068e-011 7.071068e-011 7.071068e-011
7726726726.7267 0.024421388 0.027819214 0.015444471 -0.01223815 7.071068e-011 7.071068e-011 7.071068e-011 7.071068e-011
7735135135.1351 0.0028682307 -0.041289907 0.0059368517 0.018954493 7.071068e-011 7.071068e-011 7.071068e-011 7.071068e-011
7743543543.5435 -0.075000495 -0.00024688226 -0.01953146 -0.0014535337 7.071068e-011 7.071068e-011 7.071068e-011 7.071068e-011
7751951951.952 -0.030427432 0.064324863 0.0087244119 -0.01768888 7.071068e-011 7.071068e-011 7.071068e-011 7.071068e-011
7760360360.3604 -0.0025991157 0.017473986 0.013256064 0.014657275 7.071068e-011 7.071068e-011 7.071068e-011 7.071068e-011
7768768768.7688 -0.058321647 0.028391719 -0.018584307 0.0068761008 7.071068e-011 7.071068e-011 7.071068e-011 7.071068e-011
7777177177.1772 -0.027294006 0.095575526 0.0005872703 -0.019720187 7.071068e-011 7.071068e-011 7.071068e-011 7.071068e-011
7785585585.5856 0.033875536 0.058046117 0.018129008 0.0078118853 7.071068e-011 7.071068e-011 7.071068e-011 7.071068e-011
7793993993.994 -0.0055648843 0.027771151 -0.013901376 0.013697457 7.071068e-011 7.071068e-011 7.071068e-011 7.071068e-011
7802402402.4024 -0.00048040008 0.074903034 -0.0075792097 -0.018369937 7.071068e-011 7.071068e-011 7.071068e-011 7.071068e-011
7810810810.8108 0.058002502 0.048954397 0.019773567 -0.00045719824 7.071068e-011 7.071068e-011 7.071068e-011 7.071068e-011
7819219219.2192 0.026069298 -0.0064351368 -0.0071340059 0.018337887 7.071068e-011 7.071068e-011 7.071068e-011 7.071068e-011
7827627627.6276 -0.0036701453 0.026810605 -0.014408773 -0.013454529 7.071068e-011 7.071068e-011 7.071068e-011 7.071068e-011
7836036036.036 0.037502881 0.025813768 0.017843952 -0.0083492501 7.071068e-011 7.071068e-011 7.071068e-011 7.071068e-011
7844444444.4444 0.016568867 -0.023789583 0.0011249738 0.019719498 7.071068e-011 7.071068e-011 7.071068e-011 7.071068e-011
7852852852.8529 -0.028297108 0.0029884456 -0.018794598 -0.006349613 7.071068e-011 7.071068e-011 7.071068e-011 7.071068e-011
7861261261.2613 0.0016923802 0.029529361 0.012766727 -0.015052289 7.071068e-011 7.071068e-011 7.071068e-011 7.071068e-011
7869669669.6697 0.0054979906 -0.0092314761 0.0090194987 0.017554836 7.071068e-011 7.071068e-011 7.071068e-011 7.071068e-011
7878078078.0781 -0.04038595 0.0033739398 -0.019808991 0.0019671265 7.071068e-011 7.071068e-011 7.071068e-011 7.071068e-011
7886486486.4865 -0.024452386 0.046924777 0.0053773508 -0.01902145 7.071068e-011 7.071068e-011 7.071068e-011 7.071068e-011
7894894894.8949 0.010926438 0.030319396 0.015408629 0.011984157 7.071068e-011 7.071068e-011 7.071068e-011 7.071068e-011
7903303303.3033 -0.013496698 0.011073127 -0.017088104 0.0096990895 7.071068e-011 7.071068e-011 7.071068e-011 7.071068e-011
7911711711.7117 -0.017865788 0.04394171 -0.0027710903 -0.01948471 7.071068e-011 7.071068e-011 7.071068e-011 7.071068e-011
7920120120.1201 0.023089644 0.04491014 0.018898968 0.0047197677 7.071068e-011 7.071068e-011 7.071068e-011 7.071068e-011
7928528528.5285 0.023632575 0.001962947 -0.011453248 0.015729263 7.071068e-011 7.071068e-011 7.071068e-011 7.071068e-011
7936936936.9369 -0.0099556372 0.011153426 -0.0101598 -0.016383396 7.071068e-011 7.071068e-011 7.071068e-011 7.071068e-011
7945345345.3453 0.017806418 0.032125693 0.019022398 -0.0030924627 7.071068e-011 7.071068e-011 7.071068e-011 7.071068e-011
