!Keysight Technologies,N5235B,MY61252044,A.15.00.15
!Date: Saturday, January 21, 2023 00:13:16
!Correction: S11(Off) 
!S21(Off) 
!S12(Off) 
!S22(Off) 
!S2P File: Measurements: S11, S21, S12, S22:
# Hz S  RI   R 50
6600000000 0.019191047 -0.17550947 0.015445471 -0.0030282943 7.071068e-011 7.071068e-011 7.071068e-011 7.071068e-011
6608408408.4084 -0.12512513 0.16491918 0.0052847993 0.010837397 7.071068e-011 7.071068e-011 7.071068e-011 7.071068e-011
6616816816.8168 0.30558947 0.093538128 -0.0089157447 0.0036701593 7.071068e-011 7.071068e-011 7.071068e-011 7.071068e-011
6625225225.2252 0.025614599 -0.27296788 -0.0017571133 -0.0093066748 7.071068e-011 7.071068e-011 7.071068e-011 7.071068e-011
6633633633.6336 -0.16622181 0.16052648 0.0093375603 -0.00036541547 7.071068e-011 7.071068e-011 7.071068e-011 7.071068e-011
6642042042.042 0.28936562 0.11396959 -0.0018784445 0.0093155466 7.071068e-011 7.071068e-011 7.071068e-011 7.071068e-011
6650450450.4505 0.040065523 -0.25195643 -0.01071409 -0.0041201739 7.071068e-011 7.071068e-011 7.071068e-011 7.071068e-011
6658858858.8589 -0.14873503 0.13357833 0.0060070958 -0.011482992 7.071068e-011 7.071068e-011 7.071068e-011 7.071068e-011
6667267267.2673 0.22801477 0.10182022 0.012183482 0.0091975629 7.071068e-011 7.071068e-011 7.071068e-011 7.071068e-011
6675675675.6757 0.043493807 -0.15094888 -0.01156992 0.013798519 7.071068e-011 7.071068e-011 7.071068e-011 7.071068e-011
6684084084.0841 -0.044481795 0.083687171 -0.014568882 -0.013385041 7.071068e-011 7.071068e-011 7.071068e-011 7.071068e-011
6692492492.4925 0.10551071 0.047623001 0.014848504 -0.014886324 7.071068e-011 7.071068e-011 7.071068e-011 7.071068e-011
6700900900.9009 0.086024024 0.018538266 0.014726772 0.015444415 7.071068e-011 7.071068e-011 7.071068e-011 7.071068e-011
6709309309.3093 0.077514343 -0.04191865 -0.015580202 0.013066643 7.071068e-011 7.071068e-011 7.071068e-011 7.071068e-011
6717717717.7177 -0.031329732 0.033975258 -0.010098422 -0.016497988 7.071068e-011 7.071068e-011 7.071068e-011 7.071068e-011
6726126126.1261 0.15467344 0.11664569 0.016812799 -0.0070386296 7.071068e-011 7.071068e-011 7.071068e-011 7.071068e-011
6734534534.5345 0.12921461 -0.14039554 0.0035147385 0.016233603 7.071068e-011 7.071068e-011 7.071068e-011 7.071068e-011
6742942942.9429 -0.1079379 0.025903562 -0.015906285 -0.00031925409 7.071068e-011 7.071068e-011 7.071068e-011 7.071068e-011
6751351351.3514 0.17082953 0.1530048 0.003659412 -0.015356191 7.071068e-011 7.071068e-011 7.071068e-011 7.071068e-011
6759759759.7598 0.15137483 -0.17111455 0.013160335 0.0071019414 7.071068e-011 7.071068e-011 7.071068e-011 7.071068e-011
6768168168.1682 -0.14682136 -0.006365322 -0.010881736 0.010375818 7.071068e-011 7.071068e-011 7.071068e-011 7.071068e-011
6776576576.5766 0.1332127 0.17925321 -0.0079623591 -0.013492277 7.071068e-011 7.071068e-011 7.071068e-011 7.071068e-011
6784984984.985 0.15185332 -0.14561735 0.014564441 -0.0039761616 7.071068e-011 7.071068e-011 7.071068e-011 7.071068e-011
6793393393.3934 -0.1471954 -0.0074221119 -0.00039239964 0.015516445 7.071068e-011 7.071068e-011 7.071068e-011 7.071068e-011
6801801801.8018 0.10069529 0.20283911 -0.015701106 -0.004339925 7.071068e-011 7.071068e-011 7.071068e-011 7.071068e-011
6810210210.2102 0.17295049 -0.094266929 0.0087137464 -0.014404831 7.071068e-011 7.071068e-011 7.071068e-011 7.071068e-011
6818618618.6186 -0.10500193 -0.011058601 0.012102467 0.01326693 7.071068e-011 7.071068e-011 7.071068e-011 7.071068e-011
6827027027.027 0.087115757 0.18548417 -0.015983123 0.0091613112 7.071068e-011 7.071068e-011 7.071068e-011 7.071068e-011
6835435435.4354 0.18176332 -0.048186325 -0.0044278679 -0.017902635 7.071068e-011 7.071068e-011 7.071068e-011 7.071068e-011
6843843843.8438 -0.045078564 -0.028529698 0.020162981 0.0003054133 7.071068e-011 7.071068e-011 7.071068e-011 7.071068e-011
6852252252.2523 0.074226789 0.12918299 -0.0046395883 0.020280799 7.071068e-011 7.071068e-011 7.071068e-011 7.071068e-011
6860660660.6607 0.14521971 -0.019859144 -0.018570783 -0.0096552912 7.071068e-011 7.071068e-011 7.071068e-011 7.071068e-011
6869069069.0691 0.0044380487 -0.0272817 0.014558666 -0.016040424 7.071068e-011 7.071068e-011 7.071068e-011 7.071068e-011
6877477477.4775 0.053766634 0.072430119 0.012625511 0.018121826 7.071068e-011 7.071068e-011 7.071068e-011 7.071068e-011
6885885885.8859 0.090346158 0.0070956978 -0.020462751 0.0076439204 7.071068e-011 7.071068e-011 7.071068e-011 7.071068e-011
6894294294.2943 0.047382709 -0.0010188841 -0.0022446304 -0.022012355 7.071068e-011 7.071068e-011 7.071068e-011 7.071068e-011
6902702702.7027 0.038230583 0.01927059 0.021970674 0.0033024256 7.071068e-011 7.071068e-011 7.071068e-011 7.071068e-011
6911111111.1111 0.030890156 0.037613738 -0.0088329446 0.020175908 7.071068e-011 7.071068e-011 7.071068e-011 7.071068e-011
6919519519.5195 0.078235745 0.050093159 -0.016896354 -0.013660919 7.071068e-011 7.071068e-011 7.071068e-011 7.071068e-011
6927927927.9279 0.05097162 -0.012413165 0.017271753 -0.012720968 7.071068e-011 7.071068e-011 7.071068e-011 7.071068e-011
6936336336.3363 -0.0022948494 0.061952736 0.0072128489 0.019486509 7.071068e-011 7.071068e-011 7.071068e-011 7.071068e-011
6944744744.7447 0.1122256 0.089599773 -0.02082976 0.0010894559 7.071068e-011 7.071068e-011 7.071068e-011 7.071068e-011
6953153153.1532 0.084655598 -0.045447379 0.0045426763 -0.019971186 7.071068e-011 7.071068e-011 7.071068e-011 7.071068e-011
6961561561.5616 -0.028419843 0.054044548 0.017298272 0.0099935653 7.071068e-011 7.071068e-011 7.071068e-011 7.071068e-011
6969969969.97 0.12431645 0.10614169 -0.014543537 0.013499495 7.071068e-011 7.071068e-011 7.071068e-011 7.071068e-011
6978378378.3784 0.10208345 -0.070592269 -0.0083287917 -0.017385248 7.071068e-011 7.071068e-011 7.071068e-011 7.071068e-011
6986786786.7868 -0.064076133 0.032264598 0.018726032 -0.0022292193 7.071068e-011 7.071068e-011 7.071068e-011 7.071068e-011
6995195195.1952 0.10255904 0.13411029 -0.0036084361 0.018896084 7.071068e-011 7.071068e-011 7.071068e-011 7.071068e-011
7003603603.6036 0.10928357 -0.057608429 -0.016569795 -0.0089490181 7.071068e-011 7.071068e-011 7.071068e-011 7.071068e-011
7012012012.012 -0.072595634 0.031995289 0.01414741 -0.012425835 7.071068e-011 7.071068e-011 7.071068e-011 7.071068e-011
7020420420.4204 0.087576292 0.1615431 0.0077383248 0.017339887 7.071068e-011 7.071068e-011 7.071068e-011 7.071068e-011
7028828828.8288 0.1329287 -0.028660204 -0.018521834 0.0017775485 7.071068e-011 7.071068e-011 7.071068e-011 7.071068e-011
7037237237.2372 -0.053805158 0.030232571 0.004470564 -0.018621966 7.071068e-011 7.071068e-011 7.071068e-011 7.071068e-011
7045645645.6456 0.089596294 0.17090872 0.016411329 0.0098421481 7.071068e-011 7.071068e-011 7.071068e-011 7.071068e-011
7054054054.0541 0.16775876 -0.0027039661 -0.01470187 0.011997731 7.071068e-011 7.071068e-011 7.071068e-011 7.071068e-011
7062462462.4625 -0.0078589246 -0.0043469649 -0.0067807948 -0.018484291 7.071068e-011 7.071068e-011 7.071068e-011 7.071068e-011
7070870870.8709 0.077879988 0.14030831 0.019767137 -0.0011405303 7.071068e-011 7.071068e-011 7.071068e-011 7.071068e-011
7079279279.2793 0.1684135 0.0076950532 -0.0055982745 0.018772358 7.071068e-011 7.071068e-011 7.071068e-011 7.071068e-011
7087687687.6877 0.032796193 -0.027172379 -0.016604384 -0.011526735 7.071068e-011 7.071068e-011 7.071068e-011 7.071068e-011
7096096096.0961 0.059237234 0.089103468 0.015970888 -0.012431553 7.071068e-011 7.071068e-011 7.071068e-011 7.071068e-011
7104504504.5045 0.14773601 0.010658251 0.0064786184 0.019148316 7.071068e-011 7.071068e-011 7.071068e-011 7.071068e-011
7112912912.9129 0.051093347 -0.044727467 -0.020630531 -0.00018099006 7.071068e-011 7.071068e-011 7.071068e-011 7.071068e-011
7121321321.3213 0.034248617 0.031717163 0.0063620424 -0.019813653 7.071068e-011 7.071068e-011 7.071068e-011 7.071068e-011
7129729729.7297 0.089176394 0.014642152 0.016406216 0.0121181 7.071068e-011 7.071068e-011 7.071068e-011 7.071068e-011
7138138138.1381 0.043589421 -0.03775024 -0.017207608 0.011647327 7.071068e-011 7.071068e-011 7.071068e-011 7.071068e-011
7146546546.5465 -0.00054251926 0.013458128 -0.0057879901 -0.020126067 7.071068e-011 7.071068e-011 7.071068e-011 7.071068e-011
7154954954.955 0.030519003 0.04136277 0.020790819 0.00091259205 7.071068e-011 7.071068e-011 7.071068e-011 7.071068e-011
7163363363.3634 0.045015424 0.015879465 -0.0077100247 0.019067902 7.071068e-011 7.071068e-011 7.071068e-011 7.071068e-011
7171771771.7718 0.0012988799 0.02014114 -0.015704289 -0.013517592 7.071068e-011 7.071068e-011 7.071068e-011 7.071068e-011
7180180180.1802 0.018312456 0.072474271 0.017642541 -0.010338148 7.071068e-011 7.071068e-011 7.071068e-011 7.071068e-011
7188588588.5886 0.067742094 0.056302521 0.0038224962 0.02044923 7.071068e-011 7.071068e-011 7.071068e-011 7.071068e-011
7196996996.997 0.040055718 0.01009604 -0.020591689 -0.0027985398 7.071068e-011 7.071068e-011 7.071068e-011 7.071068e-011
7205405405.4054 0.01219622 0.066941448 0.0095923617 -0.017960386 7.071068e-011 7.071068e-011 7.071068e-011 7.071068e-011
7213813813.8138 0.083074048 0.067383982 0.013794765 0.015223531 7.071068e-011 7.071068e-011 7.071068e-011 7.071068e-011
7222222222.2222 0.066412129 -0.0054190913 -0.019003795 0.0081648892 7.071068e-011 7.071068e-011 7.071068e-011 7.071068e-011
7230630630.6306 -0.0013093544 0.034886163 -0.0013789012 -0.020489251 7.071068e-011 7.071068e-011 7.071068e-011 7.071068e-011
7239039039.039 0.071285844 0.075689092 0.01992555 0.0059058871 7.071068e-011 7.071068e-011 7.071068e-011 7.071068e-011
7247447447.4474 0.075448193 -0.014643269 -0.012056559 0.016937377 7.071068e-011 7.071068e-011 7.071068e-011 7.071068e-011
7255855855.8559 -0.016519392 0.0070788236 -0.011543889 -0.017043276 7.071068e-011 7.071068e-011 7.071068e-011 7.071068e-011
7264264264.2643 0.034580771 0.084072575 0.020127807 -0.0052855546 7.071068e-011 7.071068e-011 7.071068e-011 7.071068e-011
7272672672.6727 0.074511781 0.00091504888 -0.0015770257 0.020524677 7.071068e-011 7.071068e-011 7.071068e-011 7.071068e-011
7281081081.0811 -0.029656205 0.00057198358 -0.01869441 -0.0085007772 7.071068e-011 7.071068e-011 7.071068e-011 7.071068e-011
7289489489.4895 -0.00031939923 0.10749229 0.014735472 -0.014567204 7.071068e-011 7.071068e-011 7.071068e-011 7.071068e-011
7297897897.8979 0.084991105 0.050982267 0.0087415632 0.01884662 7.071068e-011 7.071068e-011 7.071068e-011 7.071068e-011
7306306306.3063 0.0013628263 0.008717645 -0.020572821 0.0015235654 7.071068e-011 7.071068e-011 7.071068e-011 7.071068e-011
7314714714.7147 0.0038576073 0.11257683 0.0054561328 -0.020267531 7.071068e-011 7.071068e-011 7.071068e-011 7.071068e-011
7323123123.1231 0.11257225 0.075657271 0.01696386 0.011782344 7.071068e-011 7.071068e-011 7.071068e-011 7.071068e-011
7331531531.5315 0.051535532 -0.01186745 -0.017352529 0.011662752 7.071068e-011 7.071068e-011 7.071068e-011 7.071068e-011
7339939939.9399 0.0077733984 0.06836763 -0.0052530575 -0.020560473 7.071068e-011 7.071068e-011 7.071068e-011 7.071068e-011
7348348348.3483 0.10528105 0.063901171 0.020907942 0.0019882764 7.071068e-011 7.071068e-011 7.071068e-011 7.071068e-011
7356756756.7568 0.066445015 -0.036904454 -0.0092460392 0.018755879 7.071068e-011 7.071068e-011 7.071068e-011 7.071068e-011
7365165165.1652 -0.010276251 0.020560633 -0.014688272 -0.015234964 7.071068e-011 7.071068e-011 7.071068e-011 7.071068e-011
7373573573.5736 0.061284449 0.049986433 0.019033168 -0.0085085565 7.071068e-011 7.071068e-011 7.071068e-011 7.071068e-011
7381981981.982 0.044178929 -0.035218965 0.0010114799 0.021116933 7.071068e-011 7.071068e-011 7.071068e-011 7.071068e-011
7390390390.3904 -0.043035578 0.0094087468 -0.020306554 -0.0062188874 7.071068e-011 7.071068e-011 7.071068e-011 7.071068e-011
7398798798.7988 0.012720572 0.07127589 0.012934196 -0.016657254 7.071068e-011 7.071068e-011 7.071068e-011 7.071068e-011
7407207207.2072 0.028069308 0.010033131 0.011135461 0.018006725 7.071068e-011 7.071068e-011 7.071068e-011 7.071068e-011
7415615615.6156 -0.040815067 0.035153586 -0.020880258 0.0043285852 7.071068e-011 7.071068e-011 7.071068e-011 7.071068e-011
7424024024.024 0.0065393597 0.10497506 0.0031156298 -0.021022281 7.071068e-011 7.071068e-011 7.071068e-011 7.071068e-011
7432432432.4324 0.054770567 0.054336406 0.018637728 0.010463282 7.071068e-011 7.071068e-011 7.071068e-011 7.071068e-011
7440840840.8408 0.00995949 0.042201437 -0.01616779 0.014002619 7.071068e-011 7.071068e-011 7.071068e-011 7.071068e-011
7449249249.2492 0.030095305 0.087008588 -0.007267701 -0.019882521 7.071068e-011 7.071068e-011 7.071068e-011 7.071068e-011
7457657657.6577 0.077919185 0.049141988 0.021245768 0.00022831562 7.071068e-011 7.071068e-011 7.071068e-011 7.071068e-011
7466066066.0661 0.041909192 0.014019752 -0.0075707887 0.01990629 7.071068e-011 7.071068e-011 7.071068e-011 7.071068e-011
7474474474.4745 0.030419895 0.03917858 -0.015891625 -0.013870124 7.071068e-011 7.071068e-011 7.071068e-011 7.071068e-011
7482882882.8829 0.059755422 0.029205222 0.01864836 -0.0097425319 7.071068e-011 7.071068e-011 7.071068e-011 7.071068e-011
7491291291.2913 0.039041039 -0.013312677 0.0025829964 0.020924501 7.071068e-011 7.071068e-011 7.071068e-011 7.071068e-011
7499699699.6997 -0.0033138548 0.0022572614 -0.020334726 -0.0049800193 7.071068e-011 7.071068e-011 7.071068e-011 7.071068e-011
7508108108.1081 0.0031387133 0.03194163 0.01179435 -0.017273912 7.071068e-011 7.071068e-011 7.071068e-011 7.071068e-011
7516516516.5165 0.019431438 0.012096641 0.01193498 0.017017869 7.071068e-011 7.071068e-011 7.071068e-011 7.071068e-011
7524924924.9249 -0.026256539 0.0064975913 -0.020033561 0.0050108256 7.071068e-011 7.071068e-011 7.071068e-011 7.071068e-011
7533333333.3333 -0.029950336 0.06586206 0.0026026801 -0.020478209 7.071068e-011 7.071068e-011 7.071068e-011 7.071068e-011
7541741741.7417 0.027762286 0.069054648 0.018212344 0.0095361602 7.071068e-011 7.071068e-011 7.071068e-011 7.071068e-011
7550150150.1502 0.013244739 0.020580102 -0.015248676 0.013163051 7.071068e-011 7.071068e-011 7.071068e-011 7.071068e-011
7558558558.5586 -0.015418743 0.068217941 -0.0067823948 -0.019048929 7.071068e-011 7.071068e-011 7.071068e-011 7.071068e-011
7566966966.967 0.055433325 0.078261122 0.019983461 0.0005498426 7.071068e-011 7.071068e-011 7.071068e-011 7.071068e-011
7575375375.3754 0.053800516 0.001060952 -0.0079724565 0.018416459 7.071068e-011 7.071068e-011 7.071068e-011 7.071068e-011
7583783783.7838 -0.011860682 0.023732968 -0.014335439 -0.014121957 7.071068e-011 7.071068e-011 7.071068e-011 7.071068e-011
7592192192.1922 0.045215577 0.060722202 0.018023053 -0.0082461722 7.071068e-011 7.071068e-011 7.071068e-011 7.071068e-011
7600600600.6006 0.051970873 -0.024136428 0.00079951278 0.019472858 7.071068e-011 7.071068e-011 7.071068e-011 7.071068e-011
7609009009.009 -0.037860747 -0.011080442 -0.018842453 -0.0066046831 7.071068e-011 7.071068e-011 7.071068e-011 7.071068e-011
7617417417.4174 -0.0054971525 0.058137719 0.012669574 -0.015262946 7.071068e-011 7.071068e-011 7.071068e-011 7.071068e-011
7625825825.8258 0.026557583 -0.0038011309 0.0093530696 0.01742083 7.071068e-011 7.071068e-011 7.071068e-011 7.071068e-011
7634234234.2342 -0.060427856 0.003703749 -0.019542646 0.002369758 7.071068e-011 7.071068e-011 7.071068e-011 7.071068e-011
7642642642.6426 -0.0269228 0.091559984 0.0050544301 -0.018868342 7.071068e-011 7.071068e-011 7.071068e-011 7.071068e-011
7651051051.0511 0.037595652 0.042807672 0.015693337 0.011755586 7.071068e-011 7.071068e-011 7.071068e-011 7.071068e-011
7659459459.4595 -0.02952279 0.017935613 -0.016808007 0.010588588 7.071068e-011 7.071068e-011 7.071068e-011 7.071068e-011
7667867867.8679 -0.011840309 0.10223813 -0.0038197422 -0.019120228 7.071068e-011 7.071068e-011 7.071068e-011 7.071068e-011
7676276276.2763 0.073767923 0.059330624 0.019064173 0.0040322458 7.071068e-011 7.071068e-011 7.071068e-011 7.071068e-011
7684684684.6847 0.021742728 -0.003996517 -0.010827914 0.016560871 7.071068e-011 7.071068e-011 7.071068e-011 7.071068e-011
7693093093.0931 0.00046678717 0.05409883 -0.011412221 -0.015996069 7.071068e-011 7.071068e-011 7.071068e-011 7.071068e-011
7701501501.5015 0.070888624 0.0328588 0.019029129 -0.0047583664 7.071068e-011 7.071068e-011 7.071068e-011 7.071068e-011
7709909909.9099 0.023660388 -0.042463079 -0.0026823331 0.019490214 7.071068e-011 7.071068e-011 7.071068e-011 7.071068e-011
7718318318.3183 -0.033267628 0.01053832 -0.017169371 -0.0096499287 7.071068e-011 7.071068e-011 7.071068e-011 7.071068e-011
7726726726.7267 0.024156421 0.027992437 0.015484356 -0.012175207 7.071068e-011 7.071068e-011 7.071068e-011 7.071068e-011
7735135135.1351 0.0031208796 -0.041109528 0.0058626067 0.01896717 7.071068e-011 7.071068e-011 7.071068e-011 7.071068e-011
7743543543.5435 -0.074919157 -0.00055084383 -0.019516932 -0.0015253068 7.071068e-011 7.071068e-011 7.071068e-011 7.071068e-011
7751951951.952 -0.030727122 0.064354092 0.0087862937 -0.017645944 7.071068e-011 7.071068e-011 7.071068e-011 7.071068e-011
7760360360.3604 -0.0024563142 0.01772945 0.013190783 0.014699847 7.071068e-011 7.071068e-011 7.071068e-011 7.071068e-011
7768768768.7688 -0.058125909 0.028179446 -0.018602151 0.0068026897 7.071068e-011 7.071068e-011 7.071068e-011 7.071068e-011
7777177177.1772 -0.027541053 0.095463462 0.00065988471 -0.019708002 7.071068e-011 7.071068e-011 7.071068e-011 7.071068e-011
7785585585.5856 0.033896014 0.058302581 0.018091626 0.0078778695 7.071068e-011 7.071068e-011 7.071068e-011 7.071068e-011
7793993993.994 -0.0053267898 0.027648449 -0.013949119 0.013636511 7.071068e-011 7.071068e-011 7.071068e-011 7.071068e-011
7802402402.4024 -0.00065841526 0.074712463 -0.0075082988 -0.018390641 7.071068e-011 7.071068e-011 7.071068e-011 7.071068e-011
7810810810.8108 0.057901215 0.049168006 0.019769313 -0.00038036125 7.071068e-011 7.071068e-011 7.071068e-011 7.071068e-011
7819219219.2192 0.026313119 -0.0064441822 -0.0072022411 0.018300425 7.071068e-011 7.071068e-011 7.071068e-011 7.071068e-011
7827627627.6276 -0.0037520828 0.026575048 -0.014353696 -0.013502345 7.071068e-011 7.071068e-011 7.071068e-011 7.071068e-011
7836036036.036 0.037332267 0.025949333 0.017866401 -0.008276335 7.071068e-011 7.071068e-011 7.071068e-011 7.071068e-011
7844444444.4444 0.016760632 -0.023698835 0.0010471555 0.019714098 7.071068e-011 7.071068e-011 7.071068e-011 7.071068e-011
7852852852.8529 -0.028282756 0.002765967 -0.018762868 -0.0064162952 7.071068e-011 7.071068e-011 7.071068e-011 7.071068e-011
7861261261.2613 0.0014903574 0.029580599 0.012821359 -0.014994976 7.071068e-011 7.071068e-011 7.071068e-011 7.071068e-011
7869669669.6697 0.0056154649 -0.0090636509 0.0089463685 0.017583562 7.071068e-011 7.071068e-011 7.071068e-011 7.071068e-011
7878078078.0781 -0.040264554 0.0032062831 -0.019806774 0.0018926038 7.071068e-011 7.071068e-011 7.071068e-011 7.071068e-011
7886486486.4865 -0.024631662 0.046853375 0.0054509104 -0.018990986 7.071068e-011 7.071068e-011 7.071068e-011 7.071068e-011
7894894894.8949 0.010917308 0.030508922 0.015355192 0.0120395 7.071068e-011 7.071068e-011 7.071068e-011 7.071068e-011
7903303303.3033 -0.013310724 0.0110203 -0.017118014 0.0096277259 7.071068e-011 7.071068e-011 7.071068e-011 7.071068e-011
7911711711.7117 -0.017948234 0.043773729 -0.0026930897 -0.019487783 7.071068e-011 7.071068e-011 7.071068e-011 7.071068e-011
7920120120.1201 0.022966566 0.045031298 0.018871641 0.0047911895 7.071068e-011 7.071068e-011 7.071068e-011 7.071068e-011
7928528528.5285 0.023805156 0.002038727 -0.01150871 0.015676942 7.071068e-011 7.071068e-011 7.071068e-011 7.071068e-011
7936936936.9369 -0.0099215955 0.010945034 -0.010089207 -0.016416637 7.071068e-011 7.071068e-011 7.071068e-011 7.071068e-011
7945345345.3453 0.01759585 0.032149885 0.019024856 -0.0030164521 7.071068e-011 7.071068e-011 7.071068e-011 7.071068e-011
