!Keysight Technologies,N5235B,MY61252044,A.15.00.15
!Date: Saturday, January 21, 2023 00:11:47
!Correction: S11(Off) 
!S21(Off) 
!S12(Off) 
!S22(Off) 
!S2P File: Measurements: S11, S21, S12, S22:
# Hz S  RI   R 50
6600000000 0.019006355 -0.17535472 0.015295955 -0.0029931152 7.071068e-011 7.071068e-011 7.071068e-011 7.071068e-011
6608408408.4084 -0.12501983 0.16477615 0.0052279457 0.010740118 7.071068e-011 7.071068e-011 7.071068e-011 7.071068e-011
6616816816.8168 0.3054975 0.093638308 -0.0088326456 0.0036346836 7.071068e-011 7.071068e-011 7.071068e-011 7.071068e-011
6625225225.2252 0.025738334 -0.27302933 -0.00174129 -0.0092160283 7.071068e-011 7.071068e-011 7.071068e-011 7.071068e-011
6633633633.6336 -0.16636081 0.16055828 0.0092452914 -0.00035747528 7.071068e-011 7.071068e-011 7.071068e-011 7.071068e-011
6642042042.042 0.28950948 0.11395556 -0.0018702319 0.0092213564 7.071068e-011 7.071068e-011 7.071068e-011 7.071068e-011
6650450450.4505 0.03991247 -0.25195271 -0.010613617 -0.0040966002 7.071068e-011 7.071068e-011 7.071068e-011 7.071068e-011
6658858858.8589 -0.14857624 0.13360476 0.0059661004 -0.011382328 7.071068e-011 7.071068e-011 7.071068e-011 7.071068e-011
6667267267.2673 0.2278465 0.10176256 0.012083165 0.0091209542 7.071068e-011 7.071068e-011 7.071068e-011 7.071068e-011
6675675675.6757 0.043663591 -0.15081033 -0.011451669 0.013683739 7.071068e-011 7.071068e-011 7.071068e-011 7.071068e-011
6684084084.0841 -0.044680297 0.083472431 -0.014427222 -0.013233064 7.071068e-011 7.071068e-011 7.071068e-011 7.071068e-011
6692492492.4925 0.10579223 0.047883406 0.014692928 -0.014707414 7.071068e-011 7.071068e-011 7.071068e-011 7.071068e-011
6700900900.9009 0.085709997 0.018301802 0.014549139 0.01531179 7.071068e-011 7.071068e-011 7.071068e-011 7.071068e-011
6709309309.3093 0.077800475 -0.041711308 -0.015459822 0.012921519 7.071068e-011 7.071068e-011 7.071068e-011 7.071068e-011
6717717717.7177 -0.031551547 0.033774972 -0.0099927019 -0.016368909 7.071068e-011 7.071068e-011 7.071068e-011 7.071068e-011
6726126126.1261 0.15482046 0.1168402 0.016669951 -0.00697442 7.071068e-011 7.071068e-011 7.071068e-011 7.071068e-011
6734534534.5345 0.12913363 -0.14061557 0.0034888021 0.016087804 7.071068e-011 7.071068e-011 7.071068e-011 7.071068e-011
6742942942.9429 -0.10791459 0.026129553 -0.01575347 -0.00031967531 7.071068e-011 7.071068e-011 7.071068e-011 7.071068e-011
6751351351.3514 0.17085923 0.15278184 0.0036195796 -0.015206979 7.071068e-011 7.071068e-011 7.071068e-011 7.071068e-011
6759759759.7598 0.15128264 -0.17089838 0.013029028 0.0070349062 7.071068e-011 7.071068e-011 7.071068e-011 7.071068e-011
6768168168.1682 -0.1466717 -0.006538094 -0.010784812 0.010264429 7.071068e-011 7.071068e-011 7.071068e-011 7.071068e-011
6776576576.5766 0.13301206 0.17938085 -0.0078805787 -0.013360883 7.071068e-011 7.071068e-011 7.071068e-011 7.071068e-011
6784984984.985 0.15208393 -0.14569251 0.014427748 -0.0039224401 7.071068e-011 7.071068e-011 7.071068e-011 7.071068e-011
6793393393.3934 -0.14744723 -0.0074011362 -0.00040742094 0.015369521 7.071068e-011 7.071068e-011 7.071068e-011 7.071068e-011
6801801801.8018 0.10093585 0.20287423 -0.015556714 -0.0043124389 7.071068e-011 7.071068e-011 7.071068e-011 7.071068e-011
6810210210.2102 0.17272429 -0.094367996 0.0086487895 -0.014270621 7.071068e-011 7.071068e-011 7.071068e-011 7.071068e-011
6818618618.6186 -0.10482325 -0.010905622 0.011993083 0.013155662 7.071068e-011 7.071068e-011 7.071068e-011 7.071068e-011
6827027027.027 0.08699742 0.18527347 -0.015833713 0.0090819821 7.071068e-011 7.071068e-011 7.071068e-011 7.071068e-011
6835435435.4354 0.18179089 -0.047931775 -0.0043915757 -0.017728368 7.071068e-011 7.071068e-011 7.071068e-011 7.071068e-011
6843843843.8438 -0.045023393 -0.028831135 0.019956784 0.00031059858 7.071068e-011 7.071068e-011 7.071068e-011 7.071068e-011
6852252252.2523 0.074102677 0.12949294 -0.0046076206 0.020069299 7.071068e-011 7.071068e-011 7.071068e-011 7.071068e-011
6860660660.6607 0.145395 -0.020164175 -0.018375723 -0.0095879789 7.071068e-011 7.071068e-011 7.071068e-011 7.071068e-011
6869069069.0691 0.0042073261 -0.027025668 0.014452764 -0.015876327 7.071068e-011 7.071068e-011 7.071068e-011 7.071068e-011
6877477477.4775 0.054039061 0.072229363 0.012502817 0.017972333 7.071068e-011 7.071068e-011 7.071068e-011 7.071068e-011
6885885885.8859 0.090054266 0.0072004693 -0.020288145 0.0075766896 7.071068e-011 7.071068e-011 7.071068e-011 7.071068e-011
6894294294.2943 0.047691748 -0.0010122147 -0.0022246584 -0.021809818 7.071068e-011 7.071068e-011 7.071068e-011 7.071068e-011
6902702702.7027 0.037921634 0.019161778 0.021755837 0.0032689902 7.071068e-011 7.071068e-011 7.071068e-011 7.071068e-011
6911111111.1111 0.031188099 0.037810627 -0.0087511651 0.019964982 7.071068e-011 7.071068e-011 7.071068e-011 7.071068e-011
6919519519.5195 0.077979147 0.049837813 -0.01671062 -0.013553809 7.071068e-011 7.071068e-011 7.071068e-011 7.071068e-011
6927927927.9279 0.051154293 -0.01211009 0.017129533 -0.012578168 7.071068e-011 7.071068e-011 7.071068e-011 7.071068e-011
6936336336.3363 -0.0023926913 0.061638344 0.0071285735 0.019326201 7.071068e-011 7.071068e-011 7.071068e-011 7.071068e-011
6944744744.7447 0.11221457 0.089893773 -0.020651335 0.0010640583 7.071068e-011 7.071068e-011 7.071068e-011 7.071068e-011
6953153153.1532 0.084762327 -0.045704901 0.004501706 -0.0197949 7.071068e-011 7.071068e-011 7.071068e-011 7.071068e-011
6961561561.5616 -0.028624272 0.054255873 0.017137472 0.0098970812 7.071068e-011 7.071068e-011 7.071068e-011 7.071068e-011
6969969969.97 0.12457632 0.10598529 -0.014402228 0.013358886 7.071068e-011 7.071068e-011 7.071068e-011 7.071068e-011
6978378378.3784 0.10177973 -0.070519596 -0.0082343817 -0.017215433 7.071068e-011 7.071068e-011 7.071068e-011 7.071068e-011
6986786786.7868 -0.063766316 0.032269895 0.018547541 -0.0021813929 7.071068e-011 7.071068e-011 7.071068e-011 7.071068e-011
6995195195.1952 0.10228333 0.13401034 -0.0035974206 0.018716389 7.071068e-011 7.071068e-011 7.071068e-011 7.071068e-011
7003603603.6036 0.10949793 -0.057422794 -0.01641199 -0.008887507 7.071068e-011 7.071068e-011 7.071068e-011 7.071068e-011
7012012012.012 -0.072731487 0.03175028 0.014037407 -0.012303961 7.071068e-011 7.071068e-011 7.071068e-011 7.071068e-011
7020420420.4204 0.087626681 0.1618039 0.0076629324 0.01719358 7.071068e-011 7.071068e-011 7.071068e-011 7.071068e-011
7028828828.8288 0.13297226 -0.028920969 -0.018358387 0.0017562677 7.071068e-011 7.071068e-011 7.071068e-011 7.071068e-011
7037237237.2372 -0.053927127 0.030472757 0.0044357255 -0.018449793 7.071068e-011 7.071068e-011 7.071068e-011 7.071068e-011
7045645645.6456 0.089787327 0.17073619 0.016256632 0.0097536659 7.071068e-011 7.071068e-011 7.071068e-011 7.071068e-011
7054054054.0541 0.16751355 -0.002619213 -0.014563744 0.011877774 7.071068e-011 7.071068e-011 7.071068e-011 7.071068e-011
7062462462.4625 -0.0075739222 -0.0043367296 -0.0067017404 -0.018308608 7.071068e-011 7.071068e-011 7.071068e-011 7.071068e-011
7070870870.8709 0.077598035 0.14020696 0.019576874 -0.0011087299 7.071068e-011 7.071068e-011 7.071068e-011 7.071068e-011
7079279279.2793 0.16864829 0.0078941556 -0.0055682254 0.018585701 7.071068e-011 7.071068e-011 7.071068e-011 7.071068e-011
7087687687.6877 0.032609303 -0.027435452 -0.016438521 -0.011451804 7.071068e-011 7.071068e-011 7.071068e-011 7.071068e-011
7096096096.0961 0.059338585 0.089384817 0.015852191 -0.012305582 7.071068e-011 7.071068e-011 7.071068e-011 7.071068e-011
7104504504.5045 0.14772338 0.010375875 0.0064128982 0.018994991 7.071068e-011 7.071068e-011 7.071068e-011 7.071068e-011
7112912912.9129 0.050998222 -0.044475734 -0.020460738 -0.00018511011 7.071068e-011 7.071068e-011 7.071068e-011 7.071068e-011
7121321321.3213 0.034433834 0.031522911 0.0063048308 -0.019639311 7.071068e-011 7.071068e-011 7.071068e-011 7.071068e-011
7129729729.7297 0.088919923 0.014746133 0.016255241 0.012002454 7.071068e-011 7.071068e-011 7.071068e-011 7.071068e-011
7138138138.1381 0.043887712 -0.037750039 -0.017041085 0.011527332 7.071068e-011 7.071068e-011 7.071068e-011 7.071068e-011
7146546546.5465 -0.00084823475 0.013357034 -0.0057108593 -0.019932445 7.071068e-011 7.071068e-011 7.071068e-011 7.071068e-011
7154954954.955 0.030807914 0.041555986 0.020588325 0.00093646062 7.071068e-011 7.071068e-011 7.071068e-011 7.071068e-011
7163363363.3634 0.044784445 0.015625967 -0.0076768664 0.018887673 7.071068e-011 7.071068e-011 7.071068e-011 7.071068e-011
7171771771.7718 0.00144213 0.020434557 -0.015555474 -0.013430246 7.071068e-011 7.071068e-011 7.071068e-011 7.071068e-011
7180180180.1802 0.018274434 0.072173573 0.017511556 -0.01024281 7.071068e-011 7.071068e-011 7.071068e-011 7.071068e-011
7188588588.5886 0.067670934 0.05657522 0.0037895085 0.020281553 7.071068e-011 7.071068e-011 7.071068e-011 7.071068e-011
7196996996.997 0.040223423 0.0098818783 -0.020413792 -0.0027756433 7.071068e-011 7.071068e-011 7.071068e-011 7.071068e-011
7205405405.4054 0.011958641 0.067061715 0.0095010046 -0.017799309 7.071068e-011 7.071068e-011 7.071068e-011 7.071068e-011
7213813813.8138 0.083365321 0.067363992 0.013659674 0.015076916 7.071068e-011 7.071068e-011 7.071068e-011 7.071068e-011
7222222222.2222 0.066111498 -0.0055126925 -0.018828595 0.0080668088 7.071068e-011 7.071068e-011 7.071068e-011 7.071068e-011
7230630630.6306 -0.0010287176 0.035059616 -0.0013369939 -0.020304045 7.071068e-011 7.071068e-011 7.071068e-011 7.071068e-011
7239039039.039 0.071081951 0.075440727 0.019752325 0.0058793621 7.071068e-011 7.071068e-011 7.071068e-011 7.071068e-011
7247447447.4474 0.075566642 -0.014355463 -0.011977721 0.016789515 7.071068e-011 7.071068e-011 7.071068e-011 7.071068e-011
7255855855.8559 -0.016525496 0.0067851879 -0.011445851 -0.016911356 7.071068e-011 7.071068e-011 7.071068e-011 7.071068e-011
7264264264.2643 0.034483008 0.084344752 0.019959835 -0.0052438942 7.071068e-011 7.071068e-011 7.071068e-011 7.071068e-011
7272672672.6727 0.074707597 0.00071025977 -0.0015627639 0.020348236 7.071068e-011 7.071068e-011 7.071068e-011 7.071068e-011
7281081081.0811 -0.029911086 0.00069261296 -0.018525176 -0.0084309187 7.071068e-011 7.071068e-011 7.071068e-011 7.071068e-011
7289489489.4895 -3.7161306e-005 0.10748057 0.014612621 -0.014433472 7.071068e-011 7.071068e-011 7.071068e-011 7.071068e-011
7297897897.8979 0.084719889 0.050895549 0.0086578568 0.018691169 7.071068e-011 7.071068e-011 7.071068e-011 7.071068e-011
7306306306.3063 0.0015839052 0.008894979 -0.020408941 0.0014951919 7.071068e-011 7.071068e-011 7.071068e-011 7.071068e-011
7314714714.7147 0.0037222328 0.11232591 0.005415726 -0.020109253 7.071068e-011 7.071068e-011 7.071068e-011 7.071068e-011
7323123123.1231 0.11261158 0.075940929 0.016835626 0.011684313 7.071068e-011 7.071068e-011 7.071068e-011 7.071068e-011
7331531531.5315 0.051612101 -0.01215363 -0.017210277 0.011572047 7.071068e-011 7.071068e-011 7.071068e-011 7.071068e-011
7339939939.9399 0.0076099294 0.068611868 -0.0052285921 -0.020388985 7.071068e-011 7.071068e-011 7.071068e-011 7.071068e-011
7348348348.3483 0.10551811 0.063732855 0.020732995 0.0019521156 7.071068e-011 7.071068e-011 7.071068e-011 7.071068e-011
7356756756.7568 0.066172905 -0.036843121 -0.0091604115 0.018604295 7.071068e-011 7.071068e-011 7.071068e-011 7.071068e-011
7365165165.1652 -0.010006258 0.020624069 -0.014586826 -0.015087568 7.071068e-011 7.071068e-011 7.071068e-011 7.071068e-011
7373573573.5736 0.061058495 0.049807038 0.018858008 -0.0084649706 7.071068e-011 7.071068e-011 7.071068e-011 7.071068e-011
7381981981.982 0.044308852 -0.034932628 0.0010467786 0.02092541 7.071068e-011 7.071068e-011 7.071068e-011 7.071068e-011
7390390390.3904 -0.043059677 0.0090470826 -0.020127794 -0.0061034914 7.071068e-011 7.071068e-011 7.071068e-011 7.071068e-011
7398798798.7988 0.012625335 0.071669526 0.012753707 -0.016510978 7.071068e-011 7.071068e-011 7.071068e-011 7.071068e-011
7407207207.2072 0.028271478 0.0096529806 0.01103827 0.017779082 7.071068e-011 7.071068e-011 7.071068e-011 7.071068e-011
7415615615.6156 -0.041101739 0.035457496 -0.02062669 0.0043002991 7.071068e-011 7.071068e-011 7.071068e-011 7.071068e-011
7424024024.024 0.0068967133 0.10477386 0.0030724674 -0.020773115 7.071068e-011 7.071068e-011 7.071068e-011 7.071068e-011
7432432432.4324 0.054397598 0.054394305 0.018421214 0.010345993 7.071068e-011 7.071068e-011 7.071068e-011 7.071068e-011
7440840840.8408 0.01032743 0.042284422 -0.015991895 0.013833398 7.071068e-011 7.071068e-011 7.071068e-011 7.071068e-011
7449249249.2492 0.029798578 0.086800426 -0.0071716052 -0.019667974 7.071068e-011 7.071068e-011 7.071068e-011 7.071068e-011
7457657657.6577 0.078134701 0.049459592 0.021011235 0.00025179473 7.071068e-011 7.071068e-011 7.071068e-011 7.071068e-011
7466066066.0661 0.041821841 0.01364719 -0.0075174673 0.019684657 7.071068e-011 7.071068e-011 7.071068e-011 7.071068e-011
7474474474.4745 0.030389694 0.039565343 -0.015710779 -0.013749694 7.071068e-011 7.071068e-011 7.071068e-011 7.071068e-011
7482882882.8829 0.059907492 0.028865391 0.018476833 -0.0096217208 7.071068e-011 7.071068e-011 7.071068e-011 7.071068e-011
7491291291.2913 0.038792193 -0.013051072 0.0025390566 0.02072164 7.071068e-011 7.071068e-011 7.071068e-011 7.071068e-011
7499699699.6997 -0.003012738 0.0021144801 -0.020130791 -0.0049475939 7.071068e-011 7.071068e-011 7.071068e-011 7.071068e-011
7508108108.1081 0.0028217107 0.031946912 0.011687103 -0.017091552 7.071068e-011 7.071068e-011 7.071068e-011 7.071068e-011
7516516516.5165 0.019715624 0.012222775 0.011801166 0.01685161 7.071068e-011 7.071068e-011 7.071068e-011 7.071068e-011
7524924924.9249 -0.026469775 0.0062526986 -0.019829761 0.0049381359 7.071068e-011 7.071068e-011 7.071068e-011 7.071068e-011
7533333333.3333 -0.029831013 0.066184431 0.0026058012 -0.020262174 7.071068e-011 7.071068e-011 7.071068e-011 7.071068e-011
7541741741.7417 0.027764846 0.068697765 0.018011468 0.0094718477 7.071068e-011 7.071068e-011 7.071068e-011 7.071068e-011
7550150150.1502 0.013137959 0.020927047 -0.01512691 0.013009438 7.071068e-011 7.071068e-011 7.071068e-011 7.071068e-011
7558558558.5586 -0.015209902 0.067941949 -0.0066936347 -0.018883906 7.071068e-011 7.071068e-011 7.071068e-011 7.071068e-011
7566966966.967 0.055165146 0.078441441 0.019801216 0.00056728662 7.071068e-011 7.071068e-011 7.071068e-011 7.071068e-011
7575375375.3754 0.054104287 0.0010157094 -0.0079112593 0.018240158 7.071068e-011 7.071068e-011 7.071068e-011 7.071068e-011
7583783783.7838 -0.012148354 0.023653945 -0.014189003 -0.013994882 7.071068e-011 7.071068e-011 7.071068e-011 7.071068e-011
7592192192.1922 0.045438435 0.060918018 0.017848674 -0.0081504174 7.071068e-011 7.071068e-011 7.071068e-011 7.071068e-011
7600600600.6006 0.051842611 -0.02441605 0.00076974579 0.019274943 7.071068e-011 7.071068e-011 7.071068e-011 7.071068e-011
7609009009.009 -0.037844267 -0.010765396 -0.01864491 -0.0065661967 7.071068e-011 7.071068e-011 7.071068e-011 7.071068e-011
7617417417.4174 -0.0053944774 0.057829347 0.012574848 -0.015094619 7.071068e-011 7.071068e-011 7.071068e-011 7.071068e-011
7625825825.8258 0.026356414 -0.0035508613 0.0092432927 0.017276201 7.071068e-011 7.071068e-011 7.071068e-011 7.071068e-011
7634234234.2342 -0.060148232 0.0035478384 -0.019368738 0.0023296715 7.071068e-011 7.071068e-011 7.071068e-011 7.071068e-011
7642642642.6426 -0.027239118 0.091605738 0.0050203805 -0.018689796 7.071068e-011 7.071068e-011 7.071068e-011 7.071068e-011
7651051051.0511 0.037912026 0.042890325 0.015531653 0.011652516 7.071068e-011 7.071068e-011 7.071068e-011 7.071068e-011
7659459459.4595 -0.029783512 0.017761787 -0.016650761 0.010468468 7.071068e-011 7.071068e-011 7.071068e-011 7.071068e-011
7667867867.8679 -0.011676451 0.10249154 -0.0037537825 -0.018937856 7.071068e-011 7.071068e-011 7.071068e-011 7.071068e-011
7676276276.2763 0.073724844 0.059057482 0.018877786 0.0040243845 7.071068e-011 7.071068e-011 7.071068e-011 7.071068e-011
7684684684.6847 0.021666169 -0.0037237694 -0.010750539 0.016395522 7.071068e-011 7.071068e-011 7.071068e-011 7.071068e-011
7693093093.0931 0.00065336353 0.053876113 -0.011289273 -0.015869215 7.071068e-011 7.071068e-011 7.071068e-011 7.071068e-011
7701501501.5015 0.070621699 0.032995287 0.018861812 -0.0047013229 7.071068e-011 7.071068e-011 7.071068e-011 7.071068e-011
7709909909.9099 0.023980673 -0.042489268 -0.0026675591 0.019305171 7.071068e-011 7.071068e-011 7.071068e-011 7.071068e-011
7718318318.3183 -0.033583865 0.010443035 -0.016995953 -0.0095680775 7.071068e-011 7.071068e-011 7.071068e-011 7.071068e-011
7726726726.7267 0.024430688 0.028188732 0.015338832 -0.012035115 7.071068e-011 7.071068e-011 7.071068e-011 7.071068e-011
7735135135.1351 0.0029362272 -0.041375652 0.0057777618 0.018785544 7.071068e-011 7.071068e-011 7.071068e-011 7.071068e-011
7743543543.5435 -0.074843056 -0.00024461432 -0.019324541 -0.0015493837 7.071068e-011 7.071068e-011 7.071068e-011 7.071068e-011
7751951951.952 -0.030677479 0.064064033 0.0087364344 -0.01746894 7.071068e-011 7.071068e-011 7.071068e-011 7.071068e-011
7760360360.3604 -0.0026175608 0.017966544 0.013053364 0.014590073 7.071068e-011 7.071068e-011 7.071068e-011 7.071068e-011
7768768768.7688 -0.057873655 0.028038645 -0.018447438 0.0067239436 7.071068e-011 7.071068e-011 7.071068e-011 7.071068e-011
7777177177.1772 -0.02783568 0.095484935 0.00066491385 -0.019530717 7.071068e-011 7.071068e-011 7.071068e-011 7.071068e-011
7785585585.5856 0.034184728 0.058396019 0.017917983 0.007812812 7.071068e-011 7.071068e-011 7.071068e-011 7.071068e-011
7793993993.994 -0.005572889 0.027433028 -0.013815743 0.013496967 7.071068e-011 7.071068e-011 7.071068e-011 7.071068e-011
7802402402.4024 -0.00049043068 0.074995779 -0.0074138478 -0.01821054 7.071068e-011 7.071068e-011 7.071068e-011 7.071068e-011
7810810810.8108 0.057842888 0.048841886 0.019566543 -0.00034708416 7.071068e-011 7.071068e-011 7.071068e-011 7.071068e-011
7819219219.2192 0.026256869 -0.0061370889 -0.0071658469 0.018109528 7.071068e-011 7.071068e-011 7.071068e-011 7.071068e-011
7827627627.6276 -0.0035831083 0.026324507 -0.014192487 -0.013404483 7.071068e-011 7.071068e-011 7.071068e-011 7.071068e-011
7836036036.036 0.037082903 0.026106788 0.017722771 -0.0081730057 7.071068e-011 7.071068e-011 7.071068e-011 7.071068e-011
7844444444.4444 0.017048595 -0.023729945 0.0010153435 0.019542417 7.071068e-011 7.071068e-011 7.071068e-011 7.071068e-011
7852852852.8529 -0.028571375 0.0026795999 -0.018588495 -0.006377439 7.071068e-011 7.071068e-011 7.071068e-011 7.071068e-011
7861261261.2613 0.0017319651 0.029776711 0.012709579 -0.01484732 7.071068e-011 7.071068e-011 7.071068e-011 7.071068e-011
7869669669.6697 0.005457697 -0.0093358597 0.0088469014 0.017419185 7.071068e-011 7.071068e-011 7.071068e-011 7.071068e-011
7878078078.0781 -0.040218044 0.0035144149 -0.019613238 0.001854192 7.071068e-011 7.071068e-011 7.071068e-011 7.071068e-011
7886486486.4865 -0.024557296 0.046551876 0.0054212604 -0.018793318 7.071068e-011 7.071068e-011 7.071068e-011 7.071068e-011
7894894894.8949 0.010735899 0.030742187 0.015187806 0.011947486 7.071068e-011 7.071068e-011 7.071068e-011 7.071068e-011
7903303303.3033 -0.013043067 0.010875056 -0.01697202 0.0095056109 7.071068e-011 7.071068e-011 7.071068e-011 7.071068e-011
7911711711.7117 -0.018250903 0.043800794 -0.0026352422 -0.01931314 7.071068e-011 7.071068e-011 7.071068e-011 7.071068e-011
7920120120.1201 0.023265757 0.045120645 0.018692123 0.0047783931 7.071068e-011 7.071068e-011 7.071068e-011 7.071068e-011
7928528528.5285 0.023560798 0.0018476365 -0.011428736 0.01552369 7.071068e-011 7.071068e-011 7.071068e-011 7.071068e-011
7936936936.9369 -0.0097711962 0.011216856 -0.0099828243 -0.016278317 7.071068e-011 7.071068e-011 7.071068e-011 7.071068e-011
