!Keysight Technologies,N5235B,MY61252044,A.15.00.15
!Date: Friday, January 20, 2023 22:54:40
!Correction: S11(Off) 
!S21(Off) 
!S12(Off) 
!S22(Off) 
!S2P File: Measurements: S11, S21, S12, S22:
# Hz S  RI   R 50
6600000000 0.017900756 -0.17494954 0.015318152 -0.0030041051 7.071068e-011 7.071068e-011 7.071068e-011 7.071068e-011
6608408408.4084 -0.12405427 0.1658878 0.0052522602 0.010744244 7.071068e-011 7.071068e-011 7.071068e-011 7.071068e-011
6616816816.8168 0.30613327 0.092193194 -0.0088322042 0.0036591731 7.071068e-011 7.071068e-011 7.071068e-011 7.071068e-011
6625225225.2252 0.024054756 -0.27297968 -0.0017663017 -0.0092177354 7.071068e-011 7.071068e-011 7.071068e-011 7.071068e-011
6633633633.6336 -0.16548738 0.16201961 0.0092447288 -0.00038327355 7.071068e-011 7.071068e-011 7.071068e-011 7.071068e-011
6642042042.042 0.29036877 0.11258836 -0.0018460761 0.0092248088 7.071068e-011 7.071068e-011 7.071068e-011 7.071068e-011
6650450450.4505 0.038362302 -0.25211167 -0.010621265 -0.0040712687 7.071068e-011 7.071068e-011 7.071068e-011 7.071068e-011
6658858858.8589 -0.14799774 0.13492619 0.0059358589 -0.011393967 7.071068e-011 7.071068e-011 7.071068e-011 7.071068e-011
6667267267.2673 0.22863019 0.10078236 0.012101003 0.0090921409 7.071068e-011 7.071068e-011 7.071068e-011 7.071068e-011
6675675675.6757 0.042650033 -0.15101898 -0.011422964 0.013705811 7.071068e-011 7.071068e-011 7.071068e-011 7.071068e-011
6684084084.0841 -0.044481628 0.08420483 -0.014455976 -0.013202196 7.071068e-011 7.071068e-011 7.071068e-011 7.071068e-011
6692492492.4925 0.10621482 0.047652736 0.014669747 -0.014740311 7.071068e-011 7.071068e-011 7.071068e-011 7.071068e-011
6700900900.9009 0.085618749 0.01796763 0.014586777 0.015289995 7.071068e-011 7.071068e-011 7.071068e-011 7.071068e-011
6709309309.3093 0.077358328 -0.041638765 -0.015440632 0.012961851 7.071068e-011 7.071068e-011 7.071068e-011 7.071068e-011
6717717717.7177 -0.031310037 0.03434797 -0.010041176 -0.016353702 7.071068e-011 7.071068e-011 7.071068e-011 7.071068e-011
6726126126.1261 0.1554151 0.11630116 0.016664453 -0.0070216907 7.071068e-011 7.071068e-011 7.071068e-011 7.071068e-011
6734534534.5345 0.1282495 -0.14099479 0.0035293247 0.016091568 7.071068e-011 7.071068e-011 7.071068e-011 7.071068e-011
6742942942.9429 -0.10782538 0.0272299 -0.015765471 -0.00026769185 7.071068e-011 7.071068e-011 7.071068e-011 7.071068e-011
6751351351.3514 0.17185529 0.15216321 0.0035799795 -0.015223022 7.071068e-011 7.071068e-011 7.071068e-011 7.071068e-011
6759759759.7598 0.15025882 -0.17155764 0.013053342 0.0070015443 7.071068e-011 7.071068e-011 7.071068e-011 7.071068e-011
6768168168.1682 -0.1467867 -0.0052776807 -0.010752433 0.010307483 7.071068e-011 7.071068e-011 7.071068e-011 7.071068e-011
6776576576.5766 0.1341922 0.17889778 -0.0079177488 -0.013344323 7.071068e-011 7.071068e-011 7.071068e-011 7.071068e-011
6784984984.985 0.15115772 -0.14650181 0.01441971 -0.0039661946 7.071068e-011 7.071068e-011 7.071068e-011 7.071068e-011
6793393393.3934 -0.14774409 -0.0062372237 -0.00035714018 0.015375787 7.071068e-011 7.071068e-011 7.071068e-011 7.071068e-011
6801801801.8018 0.1020969 0.20264891 -0.015572298 -0.0042727715 7.071068e-011 7.071068e-011 7.071068e-011 7.071068e-011
6810210210.2102 0.1720272 -0.095282994 0.0086083226 -0.014301363 7.071068e-011 7.071068e-011 7.071068e-011 7.071068e-011
6818618618.6186 -0.1052679 -0.0099079963 0.012039731 0.013121421 7.071068e-011 7.071068e-011 7.071068e-011 7.071068e-011
6827027027.027 0.087999634 0.18523122 -0.015813919 0.0091295708 7.071068e-011 7.071068e-011 7.071068e-011 7.071068e-011
6835435435.4354 0.18136521 -0.048735131 -0.0044430164 -0.01772251 7.071068e-011 7.071068e-011 7.071068e-011 7.071068e-011
6843843843.8438 -0.045483291 -0.028148349 0.019964049 0.00024401926 7.071068e-011 7.071068e-011 7.071068e-011 7.071068e-011
6852252252.2523 0.074792564 0.12957904 -0.0045535597 0.020086017 7.071068e-011 7.071068e-011 7.071068e-011 7.071068e-011
6860660660.6607 0.14524923 -0.020714533 -0.018409014 -0.0095417621 7.071068e-011 7.071068e-011 7.071068e-011 7.071068e-011
6869069069.0691 0.0038204745 -0.026701935 0.014409918 -0.015928987 7.071068e-011 7.071068e-011 7.071068e-011 7.071068e-011
6877477477.4775 0.054419711 0.07240779 0.012558516 0.017946612 7.071068e-011 7.071068e-011 7.071068e-011 7.071068e-011
6885885885.8859 0.09007214 0.0069110803 -0.020277558 0.0076362244 7.071068e-011 7.071068e-011 7.071068e-011 7.071068e-011
6894294294.2943 0.047511857 -0.00098137266 -0.0022970687 -0.021813633 7.071068e-011 7.071068e-011 7.071068e-011 7.071068e-011
6902702702.7027 0.037926648 0.019275596 0.02177567 0.003205464 7.071068e-011 7.071068e-011 7.071068e-011 7.071068e-011
6911111111.1111 0.031324461 0.037892736 -0.0086980229 0.020000115 7.071068e-011 7.071068e-011 7.071068e-011 7.071068e-011
6919519519.5195 0.078069419 0.049594127 -0.016763782 -0.01350623 7.071068e-011 7.071068e-011 7.071068e-011 7.071068e-011
6927927927.9279 0.05081835 -0.012085184 0.017100038 -0.012635487 7.071068e-011 7.071068e-011 7.071068e-011 7.071068e-011
6936336336.3363 -0.0021914169 0.061994154 0.0071894671 0.01931523 7.071068e-011 7.071068e-011 7.071068e-011 7.071068e-011
6944744744.7447 0.11251013 0.089534722 -0.020659745 0.0011327837 7.071068e-011 7.071068e-011 7.071068e-011 7.071068e-011
6953153153.1532 0.084259033 -0.045849908 0.0044411998 -0.019821597 7.071068e-011 7.071068e-011 7.071068e-011 7.071068e-011
6961561561.5616 -0.02850817 0.054846887 0.017177656 0.0098463371 7.071068e-011 7.071068e-011 7.071068e-011 7.071068e-011
6969969969.97 0.12510312 0.1056077 -0.01436374 0.013414742 7.071068e-011 7.071068e-011 7.071068e-011 7.071068e-011
6978378378.3784 0.10117035 -0.070870839 -0.0082935616 -0.017196819 7.071068e-011 7.071068e-011 7.071068e-011 7.071068e-011
6986786786.7868 -0.063772582 0.033044387 0.018549092 -0.002243171 7.071068e-011 7.071068e-011 7.071068e-011 7.071068e-011
6995195195.1952 0.10297166 0.13365674 -0.0035360099 0.018737199 7.071068e-011 7.071068e-011 7.071068e-011 7.071068e-011
7003603603.6036 0.10887887 -0.05788542 -0.016448677 -0.0088378461 7.071068e-011 7.071068e-011 7.071068e-011 7.071068e-011
7012012012.012 -0.072851665 0.032532908 0.014002234 -0.01235737 7.071068e-011 7.071068e-011 7.071068e-011 7.071068e-011
7020420420.4204 0.088369459 0.16160145 0.007723629 0.017175438 7.071068e-011 7.071068e-011 7.071068e-011 7.071068e-011
7028828828.8288 0.13248034 -0.029515237 -0.018363724 0.0018179019 7.071068e-011 7.071068e-011 7.071068e-011 7.071068e-011
7037237237.2372 -0.054221854 0.03122038 0.0043724296 -0.018473879 7.071068e-011 7.071068e-011 7.071068e-011 7.071068e-011
7045645645.6456 0.090550691 0.170708 0.016295295 0.0097032199 7.071068e-011 7.071068e-011 7.071068e-011 7.071068e-011
7054054054.0541 0.16720551 -0.0032751285 -0.014532995 0.011934418 7.071068e-011 7.071068e-011 7.071068e-011 7.071068e-011
7062462462.4625 -0.0079986537 -0.0037300885 -0.0067696087 -0.018291829 7.071068e-011 7.071068e-011 7.071068e-011 7.071068e-011
7070870870.8709 0.078271545 0.14030181 0.019577742 -0.0011745892 7.071068e-011 7.071068e-011 7.071068e-011 7.071068e-011
7079279279.2793 0.16851084 0.0073309117 -0.0055099302 0.018611096 7.071068e-011 7.071068e-011 7.071068e-011 7.071068e-011
7087687687.6877 0.032181118 -0.027100587 -0.016485374 -0.011401795 7.071068e-011 7.071068e-011 7.071068e-011 7.071068e-011
7096096096.0961 0.059794307 0.089636572 0.015818255 -0.012365731 7.071068e-011 7.071068e-011 7.071068e-011 7.071068e-011
7104504504.5045 0.14779259 0.0099178515 0.0064774975 0.018983804 7.071068e-011 7.071068e-011 7.071068e-011 7.071068e-011
7112912912.9129 0.050597716 -0.044351418 -0.020473698 -0.00011512927 7.071068e-011 7.071068e-011 7.071068e-011 7.071068e-011
7121321321.3213 0.03469016 0.031821918 0.0062372489 -0.019671941 7.071068e-011 7.071068e-011 7.071068e-011 7.071068e-011
7129729729.7297 0.089098312 0.014450009 0.016305415 0.011950472 7.071068e-011 7.071068e-011 7.071068e-011 7.071068e-011
7138138138.1381 0.043614354 -0.037795626 -0.017008506 0.011591379 7.071068e-011 7.071068e-011 7.071068e-011 7.071068e-011
7146546546.5465 -0.00081199658 0.013589383 -0.0057826303 -0.01992042 7.071068e-011 7.071068e-011 7.071068e-011 7.071068e-011
7154954954.955 0.031012679 0.041504934 0.020599641 0.00086670922 7.071068e-011 7.071068e-011 7.071068e-011 7.071068e-011
7163363363.3634 0.044699837 0.015410209 -0.0076163928 0.01892134 7.071068e-011 7.071068e-011 7.071068e-011 7.071068e-011
7171771771.7718 0.0012613384 0.020620475 -0.015608113 -0.013385075 7.071068e-011 7.071068e-011 7.071068e-011 7.071068e-011
7180180180.1802 0.018516159 0.072274588 0.017484777 -0.010310415 7.071068e-011 7.071068e-011 7.071068e-011 7.071068e-011
7188588588.5886 0.06770473 0.056332637 0.003861733 0.020281695 7.071068e-011 7.071068e-011 7.071068e-011 7.071068e-011
7196996996.997 0.03996684 0.0099285766 -0.020436246 -0.0027030075 7.071068e-011 7.071068e-011 7.071068e-011 7.071068e-011
7205405405.4054 0.012095798 0.067315087 0.0094399201 -0.01784464 7.071068e-011 7.071068e-011 7.071068e-011 7.071068e-011
7213813813.8138 0.083579063 0.067159124 0.013720816 0.015039979 7.071068e-011 7.071068e-011 7.071068e-011 7.071068e-011
7222222222.2222 0.065815277 -0.0056444239 -0.018808352 0.0081394454 7.071068e-011 7.071068e-011 7.071068e-011 7.071068e-011
7230630630.6306 -0.0010337031 0.035446066 -0.0014117223 -0.020308895 7.071068e-011 7.071068e-011 7.071068e-011 7.071068e-011
7239039039.039 0.071452729 0.075275131 0.019782327 0.005814462 7.071068e-011 7.071068e-011 7.071068e-011 7.071068e-011
7247447447.4474 0.075262703 -0.014584951 -0.011923178 0.016841244 7.071068e-011 7.071068e-011 7.071068e-011 7.071068e-011
7255855855.8559 -0.016620085 0.007160875 -0.011512417 -0.016879285 7.071068e-011 7.071068e-011 7.071068e-011 7.071068e-011
7264264264.2643 0.034883734 0.084317088 0.019951619 -0.0053204554 7.071068e-011 7.071068e-011 7.071068e-011 7.071068e-011
7272672672.6727 0.074542232 0.000344489 -0.0014878237 0.020363525 7.071068e-011 7.071068e-011 7.071068e-011 7.071068e-011
7281081081.0811 -0.030214449 0.0010020854 -0.018565143 -0.0083670653 7.071068e-011 7.071068e-011 7.071068e-011 7.071068e-011
7289489489.4895 0.0003987955 0.10765947 0.01456369 -0.014496016 7.071068e-011 7.071068e-011 7.071068e-011 7.071068e-011
7297897897.8979 0.084701814 0.050412998 0.0087313503 0.018666029 7.071068e-011 7.071068e-011 7.071068e-011 7.071068e-011
7306306306.3063 0.0011640033 0.0091250716 -0.020410724 0.0015695413 7.071068e-011 7.071068e-011 7.071068e-011 7.071068e-011
7314714714.7147 0.0040852805 0.11261566 0.0053435685 -0.020137582 7.071068e-011 7.071068e-011 7.071068e-011 7.071068e-011
7323123123.1231 0.11272993 0.075538084 0.016886635 0.011625865 7.071068e-011 7.071068e-011 7.071068e-011 7.071068e-011
7331531531.5315 0.051207568 -0.012116186 -0.01717628 0.011643726 7.071068e-011 7.071068e-011 7.071068e-011 7.071068e-011
7339939939.9399 0.0077844183 0.069011644 -0.0053116074 -0.02037747 7.071068e-011 7.071068e-011 7.071068e-011 7.071068e-011
7348348348.3483 0.10584594 0.063427411 0.020752214 0.0018731876 7.071068e-011 7.071068e-011 7.071068e-011 7.071068e-011
7356756756.7568 0.065743238 -0.036987457 -0.009092425 0.01865056 7.071068e-011 7.071068e-011 7.071068e-011 7.071068e-011
7365165165.1652 -0.0099127134 0.021093985 -0.014653141 -0.015033524 7.071068e-011 7.071068e-011 7.071068e-011 7.071068e-011
7373573573.5736 0.061401378 0.049550582 0.018827235 -0.0085462816 7.071068e-011 7.071068e-011 7.071068e-011 7.071068e-011
7381981981.982 0.044025961 -0.035109054 0.0011267578 0.020926936 7.071068e-011 7.071068e-011 7.071068e-011 7.071068e-011
7390390390.3904 -0.043156892 0.0093604457 -0.020150641 -0.0060291518 7.071068e-011 7.071068e-011 7.071068e-011 7.071068e-011
7398798798.7988 0.013004113 0.071645588 0.012697828 -0.016560981 7.071068e-011 7.071068e-011 7.071068e-011 7.071068e-011
7407207207.2072 0.02806264 0.0093412949 0.011102966 0.017748391 7.071068e-011 7.071068e-011 7.071068e-011 7.071068e-011
7415615615.6156 -0.04126326 0.035769597 -0.0206217 0.0043748193 7.071068e-011 7.071068e-011 7.071068e-011 7.071068e-011
7424024024.024 0.0071960771 0.10480866 0.0030006825 -0.020794662 7.071068e-011 7.071068e-011 7.071068e-011 7.071068e-011
7432432432.4324 0.054328341 0.054139122 0.018468823 0.010286401 7.071068e-011 7.071068e-011 7.071068e-011 7.071068e-011
7440840840.8408 0.010116103 0.04245697 -0.015950298 0.013900433 7.071068e-011 7.071068e-011 7.071068e-011 7.071068e-011
7449249249.2492 0.030013792 0.086944014 -0.0072488426 -0.019650288 7.071068e-011 7.071068e-011 7.071068e-011 7.071068e-011
7457657657.6577 0.07817895 0.049248233 0.021023456 0.00017280322 7.071068e-011 7.071068e-011 7.071068e-011 7.071068e-011
7466066066.0661 0.041624133 0.013714542 -0.0074491953 0.019723427 7.071068e-011 7.071068e-011 7.071068e-011 7.071068e-011
7474474474.4745 0.03049726 0.039740652 -0.015770659 -0.013696803 7.071068e-011 7.071068e-011 7.071068e-011 7.071068e-011
7482882882.8829 0.060056448 0.028750332 0.018448889 -0.0096999733 7.071068e-011 7.071068e-011 7.071068e-011 7.071068e-011
7491291291.2913 0.038642965 -0.013144596 0.0026167934 0.020722708 7.071068e-011 7.071068e-011 7.071068e-011 7.071068e-011
7499699699.6997 -0.0030450623 0.0022999924 -0.020160392 -0.0048746015 7.071068e-011 7.071068e-011 7.071068e-011 7.071068e-011
7508108108.1081 0.0030179836 0.031946983 0.011627864 -0.017145289 7.071068e-011 7.071068e-011 7.071068e-011 7.071068e-011
7516516516.5165 0.019662118 0.012036762 0.01186992 0.016815854 7.071068e-011 7.071068e-011 7.071068e-011 7.071068e-011
7524924924.9249 -0.026639957 0.0063660434 -0.019816542 0.0050178408 7.071068e-011 7.071068e-011 7.071068e-011 7.071068e-011
7533333333.3333 -0.029676596 0.066343069 0.0025290286 -0.020280842 7.071068e-011 7.071068e-011 7.071068e-011 7.071068e-011
7541741741.7417 0.027875859 0.068485424 0.018056145 0.0094105182 7.071068e-011 7.071068e-011 7.071068e-011 7.071068e-011
7550150150.1502 0.012850778 0.020919241 -0.015084766 0.013074484 7.071068e-011 7.071068e-011 7.071068e-011 7.071068e-011
7558558558.5586 -0.015112423 0.068243429 -0.0067691025 -0.018866876 7.071068e-011 7.071068e-011 7.071068e-011 7.071068e-011
7566966966.967 0.055396829 0.078246258 0.019814545 0.00049383438 7.071068e-011 7.071068e-011 7.071068e-011 7.071068e-011
7575375375.3754 0.05382267 0.00089528394 -0.0078456812 0.018281618 7.071068e-011 7.071068e-011 7.071068e-011 7.071068e-011
7583783783.7838 -0.012164426 0.023998125 -0.014251844 -0.013946553 7.071068e-011 7.071068e-011 7.071068e-011 7.071068e-011
7592192192.1922 0.045762669 0.060816009 0.017826216 -0.0082222633 7.071068e-011 7.071068e-011 7.071068e-011 7.071068e-011
7600600600.6006 0.05162156 -0.024663197 0.00084501179 0.019281028 7.071068e-011 7.071068e-011 7.071068e-011 7.071068e-011
7609009009.009 -0.037998039 -0.010423657 -0.018678997 -0.0064968471 7.071068e-011 7.071068e-011 7.071068e-011 7.071068e-011
7617417417.4174 -0.0050005503 0.057835568 0.012522174 -0.01514847 7.071068e-011 7.071068e-011 7.071068e-011 7.071068e-011
7625825825.8258 0.026183939 -0.0039023699 0.009315419 0.017248431 7.071068e-011 7.071068e-011 7.071068e-011 7.071068e-011
7634234234.2342 -0.060402393 0.0038715897 -0.019369643 0.0024031145 7.071068e-011 7.071068e-011 7.071068e-011 7.071068e-011
7642642642.6426 -0.026861332 0.091709055 0.0049510868 -0.018718772 7.071068e-011 7.071068e-011 7.071068e-011 7.071068e-011
7651051051.0511 0.037854556 0.042532142 0.015585935 0.01159635 7.071068e-011 7.071068e-011 7.071068e-011 7.071068e-011
7659459459.4595 -0.03011447 0.017966423 -0.016617367 0.010539492 7.071068e-011 7.071068e-011 7.071068e-011 7.071068e-011
7667867867.8679 -0.011373696 0.1027394 -0.0038311074 -0.018932262 7.071068e-011 7.071068e-011 7.071068e-011 7.071068e-011
7676276276.2763 0.07382945 0.058702417 0.018905183 0.0039515705 7.071068e-011 7.071068e-011 7.071068e-011 7.071068e-011
7684684684.6847 0.021287246 -0.0036493535 -0.010692401 0.016447403 7.071068e-011 7.071068e-011 7.071068e-011 7.071068e-011
7693093093.0931 0.00086855638 0.054212388 -0.011358644 -0.015831925 7.071068e-011 7.071068e-011 7.071068e-011 7.071068e-011
7701501501.5015 0.070824206 0.032690369 0.018853454 -0.0047763605 7.071068e-011 7.071068e-011 7.071068e-011 7.071068e-011
7709909909.9099 0.023633605 -0.04252642 -0.0025956947 0.019327596 7.071068e-011 7.071068e-011 7.071068e-011 7.071068e-011
7718318318.3183 -0.033492833 0.010790098 -0.017043039 -0.0095051201 7.071068e-011 7.071068e-011 7.071068e-011 7.071068e-011
7726726726.7267 0.024716981 0.028004766 0.015300678 -0.012102932 7.071068e-011 7.071068e-011 7.071068e-011 7.071068e-011
7735135135.1351 0.0026654943 -0.041579213 0.0058545801 0.018774578 7.071068e-011 7.071068e-011 7.071068e-011 7.071068e-011
7743543543.5435 -0.074956112 9.9889985e-005 -0.019342951 -0.0014720204 7.071068e-011 7.071068e-011 7.071068e-011 7.071068e-011
7751951951.952 -0.030322943 0.064047851 0.0086728455 -0.017514821 7.071068e-011 7.071068e-011 7.071068e-011 7.071068e-011
7760360360.3604 -0.0027891488 0.017669609 0.013120994 0.014546118 7.071068e-011 7.071068e-011 7.071068e-011 7.071068e-011
7768768768.7688 -0.058092136 0.028299922 -0.018430002 0.0068012523 7.071068e-011 7.071068e-011 7.071068e-011 7.071068e-011
7777177177.1772 -0.02755652 0.095599703 0.00059095514 -0.019544205 7.071068e-011 7.071068e-011 7.071068e-011 7.071068e-011
7785585585.5856 0.034164969 0.058130771 0.017962286 0.0077440832 7.071068e-011 7.071068e-011 7.071068e-011 7.071068e-011
7793993993.994 -0.0058243913 0.027564134 -0.013769317 0.013558912 7.071068e-011 7.071068e-011 7.071068e-011 7.071068e-011
7802402402.4024 -0.00030770083 0.075224623 -0.0074886237 -0.018190924 7.071068e-011 7.071068e-011 7.071068e-011 7.071068e-011
7810810810.8108 0.057977937 0.048608776 0.019574346 -0.00042838819 7.071068e-011 7.071068e-011 7.071068e-011 7.071068e-011
7819219219.2192 0.025969047 -0.0061354251 -0.0070968452 0.018149713 7.071068e-011 7.071068e-011 7.071068e-011 7.071068e-011
7827627627.6276 -0.0034761447 0.026607219 -0.014253987 -0.013355972 7.071068e-011 7.071068e-011 7.071068e-011 7.071068e-011
7836036036.036 0.037273351 0.025936872 0.017699266 -0.0082501844 7.071068e-011 7.071068e-011 7.071068e-011 7.071068e-011
7844444444.4444 0.016836915 -0.023813194 0.0010936625 0.01955031 7.071068e-011 7.071068e-011 7.071068e-011 7.071068e-011
7852852852.8529 -0.028581109 0.0029133067 -0.018626902 -0.0063068359 7.071068e-011 7.071068e-011 7.071068e-011 7.071068e-011
7861261261.2613 0.0019441698 0.029732313 0.012656073 -0.014909982 7.071068e-011 7.071068e-011 7.071068e-011 7.071068e-011
7869669669.6697 0.0053443299 -0.0095264334 0.0089246295 0.017394055 7.071068e-011 7.071068e-011 7.071068e-011 7.071068e-011
7878078078.0781 -0.040375598 0.0037030887 -0.019617777 0.0019337403 7.071068e-011 7.071068e-011 7.071068e-011 7.071068e-011
7886486486.4865 -0.024341585 0.046648066 0.0053452621 -0.018826658 7.071068e-011 7.071068e-011 7.071068e-011 7.071068e-011
7894894894.8949 0.010738668 0.03052347 0.015245721 0.011891401 7.071068e-011 7.071068e-011 7.071068e-011 7.071068e-011
7903303303.3033 -0.013245407 0.010955096 -0.016942168 0.00957873 7.071068e-011 7.071068e-011 7.071068e-011 7.071068e-011
7911711711.7117 -0.018160421 0.043974932 -0.0027174167 -0.019311961 7.071068e-011 7.071068e-011 7.071068e-011 7.071068e-011
7920120120.1201 0.023399871 0.045008965 0.018722702 0.0047069779 7.071068e-011 7.071068e-011 7.071068e-011 7.071068e-011
7928528528.5285 0.023386288 0.0017532944 -0.011374229 0.01557783 7.071068e-011 7.071068e-011 7.071068e-011 7.071068e-011
7936936936.9369 -0.0098282779 0.011455621 -0.010059934 -0.016245415 7.071068e-011 7.071068e-011 7.071068e-011 7.071068e-011
7945345345.3453 0.017814055 0.03183021 0.018849865 -0.0030495364 7.071068e-011 7.071068e-011 7.071068e-011 7.071068e-011
