!Keysight Technologies,N5235B,MY61252044,A.15.00.15
!Date: Friday, January 20, 2023 23:45:14
!Correction: S11(Off) 
!S21(Off) 
!S12(Off) 
!S22(Off) 
!S2P File: Measurements: S11, S21, S12, S22:
# Hz S  RI   R 50
6600000000 0.018792076 -0.1753352 0.015453815 -0.0030352478 7.071068e-011 7.071068e-011 7.071068e-011 7.071068e-011
6608408408.4084 -0.12477153 0.16531949 0.0052945781 0.01083898 7.071068e-011 7.071068e-011 7.071068e-011 7.071068e-011
6616816816.8168 0.30581954 0.093022272 -0.0089139882 0.0036801605 7.071068e-011 7.071068e-011 7.071068e-011 7.071068e-011
6625225225.2252 0.025006063 -0.272955 -0.0017680007 -0.0093078902 7.071068e-011 7.071068e-011 7.071068e-011 7.071068e-011
6633633633.6336 -0.16590129 0.16106559 0.0093385587 -0.00037625452 7.071068e-011 7.071068e-011 7.071068e-011 7.071068e-011
6642042042.042 0.28966936 0.11346661 -0.0018684928 0.0093176579 7.071068e-011 7.071068e-011 7.071068e-011 7.071068e-011
6650450450.4505 0.039494995 -0.25200096 -0.010719949 -0.0041101584 7.071068e-011 7.071068e-011 7.071068e-011 7.071068e-011
6658858858.8589 -0.14852114 0.13406229 0.0059953243 -0.011488779 7.071068e-011 7.071068e-011 7.071068e-011 7.071068e-011
6667267267.2673 0.22829378 0.10147157 0.012191902 0.0091869915 7.071068e-011 7.071068e-011 7.071068e-011 7.071068e-011
6675675675.6757 0.04312535 -0.15102355 -0.011557476 0.013809282 7.071068e-011 7.071068e-011 7.071068e-011 7.071068e-011
6684084084.0841 -0.044415575 0.083964236 -0.014580267 -0.013372589 7.071068e-011 7.071068e-011 7.071068e-011 7.071068e-011
6692492492.4925 0.10567818 0.047534164 0.014838909 -0.014898979 7.071068e-011 7.071068e-011 7.071068e-011 7.071068e-011
6700900900.9009 0.085979775 0.018412281 0.014742954 0.015433908 7.071068e-011 7.071068e-011 7.071068e-011 7.071068e-011
6709309309.3093 0.077353701 -0.041887302 -0.015571229 0.013085132 7.071068e-011 7.071068e-011 7.071068e-011 7.071068e-011
6717717717.7177 -0.031238297 0.034188963 -0.010117143 -0.016491391 7.071068e-011 7.071068e-011 7.071068e-011 7.071068e-011
6726126126.1261 0.15489267 0.11644018 0.016810374 -0.0070594703 7.071068e-011 7.071068e-011 7.071068e-011 7.071068e-011
6734534534.5345 0.12887602 -0.14052851 0.0035335333 0.016237147 7.071068e-011 7.071068e-011 7.071068e-011 7.071068e-011
6742942942.9429 -0.10789526 0.026310107 -0.015910292 -0.00029847657 7.071068e-011 7.071068e-011 7.071068e-011 7.071068e-011
6751351351.3514 0.17118949 0.15277196 0.0036410976 -0.015363909 7.071068e-011 7.071068e-011 7.071068e-011 7.071068e-011
6759759759.7598 0.15099306 -0.17134784 0.013171919 0.0070894002 7.071068e-011 7.071068e-011 7.071068e-011 7.071068e-011
6768168168.1682 -0.14686258 -0.0058997441 -0.010869272 0.010393465 7.071068e-011 7.071068e-011 7.071068e-011 7.071068e-011
6776576576.5766 0.13364702 0.17906949 -0.007981603 -0.013484419 7.071068e-011 7.071068e-011 7.071068e-011 7.071068e-011
6784984984.985 0.1515052 -0.14591837 0.014563663 -0.0039942651 7.071068e-011 7.071068e-011 7.071068e-011 7.071068e-011
6793393393.3934 -0.14730375 -0.0069842953 -0.00036914105 0.015520524 7.071068e-011 7.071068e-011 7.071068e-011 7.071068e-011
6801801801.8018 0.1011251 0.20275046 -0.015710201 -0.0043210657 7.071068e-011 7.071068e-011 7.071068e-011 7.071068e-011
6810210210.2102 0.17268042 -0.094602846 0.0086963167 -0.014416961 7.071068e-011 7.071068e-011 7.071068e-011 7.071068e-011
6818618618.6186 -0.10515951 -0.010688772 0.012121178 0.013253196 7.071068e-011 7.071068e-011 7.071068e-011 7.071068e-011
6827027027.027 0.087477587 0.18546923 -0.015971836 0.0091812182 7.071068e-011 7.071068e-011 7.071068e-011 7.071068e-011
6835435435.4354 0.18160993 -0.048480272 -0.0044501419 -0.017898867 7.071068e-011 7.071068e-011 7.071068e-011 7.071068e-011
6843843843.8438 -0.045256998 -0.028279478 0.020167094 0.00027935326 7.071068e-011 7.071068e-011 7.071068e-011 7.071068e-011
6852252252.2523 0.074489638 0.12922314 -0.0046145655 0.020287655 7.071068e-011 7.071068e-011 7.071068e-011 7.071068e-011
6860660660.6607 0.14516366 -0.020069158 -0.018585946 -0.009635807 7.071068e-011 7.071068e-011 7.071068e-011 7.071068e-011
6869069069.0691 0.0042984532 -0.027156923 0.014541278 -0.016064659 7.071068e-011 7.071068e-011 7.071068e-011 7.071068e-011
6877477477.4775 0.053904418 0.072492957 0.012649819 0.018108794 7.071068e-011 7.071068e-011 7.071068e-011 7.071068e-011
6885885885.8859 0.090355672 0.0069990256 -0.020458132 0.0076723057 7.071068e-011 7.071068e-011 7.071068e-011 7.071068e-011
6894294294.2943 0.047314093 -0.001017387 -0.0022742588 -0.022013871 7.071068e-011 7.071068e-011 7.071068e-011 7.071068e-011
6902702702.7027 0.038229212 0.019321179 0.02197843 0.0032776613 7.071068e-011 7.071068e-011 7.071068e-011 7.071068e-011
6911111111.1111 0.030945757 0.03763748 -0.0088072009 0.020193979 7.071068e-011 7.071068e-011 7.071068e-011 7.071068e-011
6919519519.5195 0.078260683 0.05000652 -0.016920289 -0.013644266 7.071068e-011 7.071068e-011 7.071068e-011 7.071068e-011
6927927927.9279 0.050857164 -0.012404891 0.017259041 -0.012745079 7.071068e-011 7.071068e-011 7.071068e-011 7.071068e-011
6936336336.3363 -0.0022270642 0.062087782 0.007242044 0.01947945 7.071068e-011 7.071068e-011 7.071068e-011 7.071068e-011
6944744744.7447 0.11234547 0.089467935 -0.020832187 0.0011148256 7.071068e-011 7.071068e-011 7.071068e-011 7.071068e-011
6953153153.1532 0.084458567 -0.045500319 0.0045157308 -0.019982705 7.071068e-011 7.071068e-011 7.071068e-011 7.071068e-011
6961561561.5616 -0.028369213 0.054267667 0.017315768 0.0099709136 7.071068e-011 7.071068e-011 7.071068e-011 7.071068e-011
6969969969.97 0.12450574 0.10599716 -0.0145296 0.013520791 7.071068e-011 7.071068e-011 7.071068e-011 7.071068e-011
6978378378.3784 0.10185508 -0.070712626 -0.0083557563 -0.017376676 7.071068e-011 7.071068e-011 7.071068e-011 7.071068e-011
6986786786.7868 -0.064074218 0.032545369 0.018728008 -0.0022546644 7.071068e-011 7.071068e-011 7.071068e-011 7.071068e-011
6995195195.1952 0.10281332 0.13398859 -0.0035811102 0.018906025 7.071068e-011 7.071068e-011 7.071068e-011 7.071068e-011
7003603603.6036 0.10906063 -0.057782531 -0.016585493 -0.0089266896 7.071068e-011 7.071068e-011 7.071068e-011 7.071068e-011
7012012012.012 -0.072646111 0.032288011 0.014133009 -0.012447422 7.071068e-011 7.071068e-011 7.071068e-011 7.071068e-011
7020420420.4204 0.087858312 0.16146651 0.0077653704 0.01733223 7.071068e-011 7.071068e-011 7.071068e-011 7.071068e-011
7028828828.8288 0.13273583 -0.028878607 -0.018523183 0.0018030175 7.071068e-011 7.071068e-011 7.071068e-011 7.071068e-011
7037237237.2372 -0.053903677 0.030511973 0.0044440292 -0.018630216 7.071068e-011 7.071068e-011 7.071068e-011 7.071068e-011
7045645645.6456 0.089872181 0.17089465 0.01642799 0.0098228753 7.071068e-011 7.071068e-011 7.071068e-011 7.071068e-011
7054054054.0541 0.16764243 -0.0029419307 -0.014687539 0.012021564 7.071068e-011 7.071068e-011 7.071068e-011 7.071068e-011
7062462462.4625 -0.0080187796 -0.0041287951 -0.0068075787 -0.018476818 7.071068e-011 7.071068e-011 7.071068e-011 7.071068e-011
7070870870.8709 0.078123182 0.14035048 0.019768864 -0.0011662844 7.071068e-011 7.071068e-011 7.071068e-011 7.071068e-011
7079279279.2793 0.16836531 0.0074829613 -0.0055712112 0.018784707 7.071068e-011 7.071068e-011 7.071068e-011 7.071068e-011
7087687687.6877 0.032632019 -0.027045017 -0.016626203 -0.011506232 7.071068e-011 7.071068e-011 7.071068e-011 7.071068e-011
7096096096.0961 0.059411585 0.089197062 0.01595686 -0.012454821 7.071068e-011 7.071068e-011 7.071068e-011 7.071068e-011
7104504504.5045 0.14775036 0.010489862 0.0065076193 0.019142427 7.071068e-011 7.071068e-011 7.071068e-011 7.071068e-011
7112912912.9129 0.050949819 -0.04467744 -0.020635923 -0.00015298139 7.071068e-011 7.071068e-011 7.071068e-011 7.071068e-011
7121321321.3213 0.034339406 0.031821907 0.0063364161 -0.019828528 7.071068e-011 7.071068e-011 7.071068e-011 7.071068e-011
7129729729.7297 0.089242287 0.014538713 0.016428644 0.012096625 7.071068e-011 7.071068e-011 7.071068e-011 7.071068e-011
7138138138.1381 0.043484528 -0.037780616 -0.017196598 0.011673838 7.071068e-011 7.071068e-011 7.071068e-011 7.071068e-011
7146546546.5465 -0.0005298293 0.013556462 -0.0058160108 -0.020124072 7.071068e-011 7.071068e-011 7.071068e-011 7.071068e-011
7154954954.955 0.030596733 0.041334599 0.020797132 0.00088092405 7.071068e-011 7.071068e-011 7.071068e-011 7.071068e-011
7163363363.3634 0.044978227 0.015806427 -0.0076834951 0.019084409 7.071068e-011 7.071068e-011 7.071068e-011 7.071068e-011
7171771771.7718 0.0012382524 0.020206863 -0.015724396 -0.013498678 7.071068e-011 7.071068e-011 7.071068e-011 7.071068e-011
7180180180.1802 0.018395513 0.072511643 0.017629424 -0.010369532 7.071068e-011 7.071068e-011 7.071068e-011 7.071068e-011
7188588588.5886 0.067761526 0.056216273 0.0038531958 0.020448957 7.071068e-011 7.071068e-011 7.071068e-011 7.071068e-011
7196996996.997 0.03995708 0.010108186 -0.020599315 -0.002772606 7.071068e-011 7.071068e-011 7.071068e-011 7.071068e-011
7205405405.4054 0.01225158 0.067050204 0.0095654512 -0.017982034 7.071068e-011 7.071068e-011 7.071068e-011 7.071068e-011
7213813813.8138 0.083155036 0.067295589 0.013822694 0.015206469 7.071068e-011 7.071068e-011 7.071068e-011 7.071068e-011
7222222222.2222 0.066301115 -0.0054531978 -0.018997451 0.0081917355 7.071068e-011 7.071068e-011 7.071068e-011 7.071068e-011
7230630630.6306 -0.0013103562 0.035017043 -0.0014132852 -0.020491961 7.071068e-011 7.071068e-011 7.071068e-011 7.071068e-011
7239039039.039 0.071417004 0.075636506 0.019939268 0.0058763819 7.071068e-011 7.071068e-011 7.071068e-011 7.071068e-011
7247447447.4474 0.075344115 -0.014734153 -0.012036168 0.016957907 7.071068e-011 7.071068e-011 7.071068e-011 7.071068e-011
7255855855.8559 -0.016565202 0.0072212415 -0.011573244 -0.017028797 7.071068e-011 7.071068e-011 7.071068e-011 7.071068e-011
7264264264.2643 0.034738094 0.084068209 0.02012413 -0.0053188838 7.071068e-011 7.071068e-011 7.071068e-011 7.071068e-011
7272672672.6727 0.074445754 0.00077158149 -0.0015472079 0.020531552 7.071068e-011 7.071068e-011 7.071068e-011 7.071068e-011
7281081081.0811 -0.029763982 0.00069687795 -0.018711317 -0.0084757814 7.071068e-011 7.071068e-011 7.071068e-011 7.071068e-011
7289489489.4895 -0.00016014271 0.10754365 0.014716298 -0.014593122 7.071068e-011 7.071068e-011 7.071068e-011 7.071068e-011
7297897897.8979 0.084986135 0.050816216 0.008774545 0.018837404 7.071068e-011 7.071068e-011 7.071068e-011 7.071068e-011
7306306306.3063 0.0012108304 0.00879151 -0.020577392 0.0015519408 7.071068e-011 7.071068e-011 7.071068e-011 7.071068e-011
7314714714.7147 0.003982156 0.11269481 0.0054244036 -0.020282472 7.071068e-011 7.071068e-011 7.071068e-011 7.071068e-011
7323123123.1231 0.11262634 0.075500585 0.01698767 0.011757689 7.071068e-011 7.071068e-011 7.071068e-011 7.071068e-011
7331531531.5315 0.051370688 -0.011847531 -0.017341489 0.011689098 7.071068e-011 7.071068e-011 7.071068e-011 7.071068e-011
7339939939.9399 0.0078509944 0.068516754 -0.0052904966 -0.020558236 7.071068e-011 7.071068e-011 7.071068e-011 7.071068e-011
7348348348.3483 0.10538962 0.06378153 0.020917699 0.0019556792 7.071068e-011 7.071068e-011 7.071068e-011 7.071068e-011
7356756756.7568 0.066295706 -0.03694509 -0.0092245648 0.01877448 7.071068e-011 7.071068e-011 7.071068e-011 7.071068e-011
7365165165.1652 -0.010251163 0.020720568 -0.014719824 -0.015212896 7.071068e-011 7.071068e-011 7.071068e-011 7.071068e-011
7373573573.5736 0.061418362 0.049907971 0.019024018 -0.0085411156 7.071068e-011 7.071068e-011 7.071068e-011 7.071068e-011
7381981981.982 0.04406717 -0.035302956 0.0010435694 0.021118803 7.071068e-011 7.071068e-011 7.071068e-011 7.071068e-011
7390390390.3904 -0.043066692 0.0095448531 -0.020322809 -0.0061863493 7.071068e-011 7.071068e-011 7.071068e-011 7.071068e-011
7398798798.7988 0.012854781 0.071244992 0.012912572 -0.016680377 7.071068e-011 7.071068e-011 7.071068e-011 7.071068e-011
7407207207.2072 0.027994957 0.0099316444 0.011165537 0.017993232 7.071068e-011 7.071068e-011 7.071068e-011 7.071068e-011
7415615615.6156 -0.040877409 0.035256676 -0.02087725 0.0043624602 7.071068e-011 7.071068e-011 7.071068e-011 7.071068e-011
7424024024.024 0.0066500972 0.10499604 0.003083043 -0.021030826 7.071068e-011 7.071068e-011 7.071068e-011 7.071068e-011
7432432432.4324 0.054745421 0.054234684 0.018660231 0.010437382 7.071068e-011 7.071068e-011 7.071068e-011 7.071068e-011
7440840840.8408 0.0098806648 0.042271335 -0.016152369 0.014032129 7.071068e-011 7.071068e-011 7.071068e-011 7.071068e-011
7449249249.2492 0.030173631 0.08706671 -0.0073030721 -0.019878808 7.071068e-011 7.071068e-011 7.071068e-011 7.071068e-011
7457657657.6577 0.07794679 0.049066097 0.021252867 0.00019549356 7.071068e-011 7.071068e-011 7.071068e-011 7.071068e-011
7466066066.0661 0.04183447 0.014044967 -0.0075421752 0.019923102 7.071068e-011 7.071068e-011 7.071068e-011 7.071068e-011
7474474474.4745 0.030463094 0.039244972 -0.015917674 -0.01385037 7.071068e-011 7.071068e-011 7.071068e-011 7.071068e-011
7482882882.8829 0.059813585 0.029162185 0.018639909 -0.0097751133 7.071068e-011 7.071068e-011 7.071068e-011 7.071068e-011
7491291291.2913 0.038987629 -0.013346428 0.0026167312 0.020926833 7.071068e-011 7.071068e-011 7.071068e-011 7.071068e-011
7499699699.6997 -0.0033249804 0.0023219457 -0.020349188 -0.0049487287 7.071068e-011 7.071068e-011 7.071068e-011 7.071068e-011
7508108108.1081 0.0032097064 0.031944647 0.011769225 -0.017298114 7.071068e-011 7.071068e-011 7.071068e-011 7.071068e-011
7516516516.5165 0.01941468 0.012022295 0.011966068 0.017004039 7.071068e-011 7.071068e-011 7.071068e-011 7.071068e-011
7524924924.9249 -0.026326448 0.0065407646 -0.020031458 0.0050447783 7.071068e-011 7.071068e-011 7.071068e-011 7.071068e-011
7533333333.3333 -0.029888656 0.065922767 0.0025702496 -0.020489765 7.071068e-011 7.071068e-011 7.071068e-011 7.071068e-011
7541741741.7417 0.027800657 0.068974912 0.018231152 0.0095107118 7.071068e-011 7.071068e-011 7.071068e-011 7.071068e-011
7550150150.1502 0.013140492 0.020582238 -0.015231354 0.01319072 7.071068e-011 7.071068e-011 7.071068e-011 7.071068e-011
7558558558.5586 -0.01538745 0.068325795 -0.0068157325 -0.019042753 7.071068e-011 7.071068e-011 7.071068e-011 7.071068e-011
7566966966.967 0.05552214 0.078197375 0.019990997 0.00052044337 7.071068e-011 7.071068e-011 7.071068e-011 7.071068e-011
7575375375.3754 0.053700965 0.0010103578 -0.0079436675 0.018437767 7.071068e-011 7.071068e-011 7.071068e-011 7.071068e-011
7583783783.7838 -0.011871636 0.023865748 -0.014363743 -0.014102402 7.071068e-011 7.071068e-011 7.071068e-011 7.071068e-011
7592192192.1922 0.045341499 0.06068391 0.01801417 -0.008275684 7.071068e-011 7.071068e-011 7.071068e-011 7.071068e-011
7600600600.6006 0.051886175 -0.024231272 0.00083313277 0.019475685 7.071068e-011 7.071068e-011 7.071068e-011 7.071068e-011
7609009009.009 -0.037914962 -0.010953087 -0.018856186 -0.0065753213 7.071068e-011 7.071068e-011 7.071068e-011 7.071068e-011
7617417417.4174 -0.0053516077 0.058139592 0.012647917 -0.015285305 7.071068e-011 7.071068e-011 7.071068e-011 7.071068e-011
7625825825.8258 0.026497666 -0.0039288574 0.0093847932 0.017411638 7.071068e-011 7.071068e-011 7.071068e-011 7.071068e-011
7634234234.2342 -0.060528997 0.0038157701 -0.019543985 0.0024030474 7.071068e-011 7.071068e-011 7.071068e-011 7.071068e-011
7642642642.6426 -0.026786409 0.091611087 0.0050256304 -0.018881468 7.071068e-011 7.071068e-011 7.071068e-011 7.071068e-011
7651051051.0511 0.037579063 0.042669822 0.015716935 0.011732232 7.071068e-011 7.071068e-011 7.071068e-011 7.071068e-011
7659459459.4595 -0.029655086 0.018014314 -0.016793674 0.01062041 7.071068e-011 7.071068e-011 7.071068e-011 7.071068e-011
7667867867.8679 -0.011726246 0.102337 -0.0038504312 -0.019120224 7.071068e-011 7.071068e-011 7.071068e-011 7.071068e-011
7676276276.2763 0.0738075 0.059206925 0.019077089 0.0040022228 7.071068e-011 7.071068e-011 7.071068e-011 7.071068e-011
7684684684.6847 0.021607356 -0.0039697816 -0.01080379 0.016584892 7.071068e-011 7.071068e-011 7.071068e-011 7.071068e-011
7693093093.0931 0.00054071326 0.054220673 -0.011440951 -0.015983783 7.071068e-011 7.071068e-011 7.071068e-011 7.071068e-011
7701501501.5015 0.070971072 0.032754567 0.019024784 -0.0047913911 7.071068e-011 7.071068e-011 7.071068e-011 7.071068e-011
7709909909.9099 0.023534494 -0.042486433 -0.0026502542 0.019500369 7.071068e-011 7.071068e-011 7.071068e-011 7.071068e-011
7718318318.3183 -0.033237483 0.010671428 -0.017190477 -0.0096245483 7.071068e-011 7.071068e-011 7.071068e-011 7.071068e-011
7726726726.7267 0.024270628 0.027920056 0.015468441 -0.012201931 7.071068e-011 7.071068e-011 7.071068e-011 7.071068e-011
7735135135.1351 0.0030155922 -0.041186344 0.005897128 0.018963745 7.071068e-011 7.071068e-011 7.071068e-011 7.071068e-011
7743543543.5435 -0.074954279 -0.00042831397 -0.019523781 -0.0014946454 7.071068e-011 7.071068e-011 7.071068e-011 7.071068e-011
7751951951.952 -0.030601591 0.064343669 0.0087605743 -0.017664349 7.071068e-011 7.071068e-011 7.071068e-011 7.071068e-011
7760360360.3604 -0.0025173547 0.017618099 0.01322214 0.014682445 7.071068e-011 7.071068e-011 7.071068e-011 7.071068e-011
7768768768.7688 -0.05820616 0.028264971 -0.018595139 0.006834425 7.071068e-011 7.071068e-011 7.071068e-011 7.071068e-011
7777177177.1772 -0.027439659 0.095509596 0.00063129526 -0.019713907 7.071068e-011 7.071068e-011 7.071068e-011 7.071068e-011
7785585585.5856 0.033885766 0.058191624 0.018110776 0.0078492416 7.071068e-011 7.071068e-011 7.071068e-011 7.071068e-011
7793993993.994 -0.0054273084 0.027696431 -0.013930633 0.013664603 7.071068e-011 7.071068e-011 7.071068e-011 7.071068e-011
7802402402.4024 -0.0005865682 0.074787289 -0.007538225 -0.018386167 7.071068e-011 7.071068e-011 7.071068e-011 7.071068e-011
7810810810.8108 0.05794194 0.049077842 0.019773722 -0.00041523087 7.071068e-011 7.071068e-011 7.071068e-011 7.071068e-011
7819219219.2192 0.026211334 -0.006443535 -0.0071740556 0.018318735 7.071068e-011 7.071068e-011 7.071068e-011 7.071068e-011
7827627627.6276 -0.0037178816 0.026671115 -0.014379134 -0.01348502 7.071068e-011 7.071068e-011 7.071068e-011 7.071068e-011
7836036036.036 0.037403919 0.025891351 0.017858192 -0.0083107371 7.071068e-011 7.071068e-011 7.071068e-011 7.071068e-011
7844444444.4444 0.016683292 -0.023739826 0.001079475 0.019718297 7.071068e-011 7.071068e-011 7.071068e-011 7.071068e-011
7852852852.8529 -0.028289655 0.0028579906 -0.018778726 -0.006387833 7.071068e-011 7.071068e-011 7.071068e-011 7.071068e-011
7861261261.2613 0.0015744782 0.029554971 0.012797627 -0.015021623 7.071068e-011 7.071068e-011 7.071068e-011 7.071068e-011
7869669669.6697 0.0055673728 -0.0091357892 0.0089765899 0.017572317 7.071068e-011 7.071068e-011 7.071068e-011 7.071068e-011
7878078078.0781 -0.04031435 0.0032723038 -0.019806756 0.0019262898 7.071068e-011 7.071068e-011 7.071068e-011 7.071068e-011
7886486486.4865 -0.024558164 0.046878483 0.0054191584 -0.019003199 7.071068e-011 7.071068e-011 7.071068e-011 7.071068e-011
7894894894.8949 0.010920317 0.03042434 0.015379663 0.012017857 7.071068e-011 7.071068e-011 7.071068e-011 7.071068e-011
7903303303.3033 -0.013387476 0.01104015 -0.017105363 0.0096612051 7.071068e-011 7.071068e-011 7.071068e-011 7.071068e-011
7911711711.7117 -0.017915316 0.043840248 -0.0027290042 -0.019487927 7.071068e-011 7.071068e-011 7.071068e-011 7.071068e-011
7920120120.1201 0.023017976 0.044978902 0.018881466 0.004761606 7.071068e-011 7.071068e-011 7.071068e-011 7.071068e-011
7928528528.5285 0.023731232 0.0020048146 -0.011483062 0.015701599 7.071068e-011 7.071068e-011 7.071068e-011 7.071068e-011
7936936936.9369 -0.0099347541 0.011030962 -0.010120076 -0.016401676 7.071068e-011 7.071068e-011 7.071068e-011 7.071068e-011
7945345345.3453 0.017683342 0.032138005 0.019023011 -0.0030458374 7.071068e-011 7.071068e-011 7.071068e-011 7.071068e-011
