!Keysight Technologies,N5235B,MY61252044,A.15.00.15
!Date: Friday, January 20, 2023 23:43:45
!Correction: S11(Off) 
!S21(Off) 
!S12(Off) 
!S22(Off) 
!S2P File: Measurements: S11, S21, S12, S22:
# Hz S  RI   R 50
6600000000 0.01854313 -0.17519501 0.015305907 -0.0030009134 7.071068e-011 7.071068e-011 7.071068e-011 7.071068e-011
6608408408.4084 -0.12462361 0.16525099 0.0052406006 0.010741622 7.071068e-011 7.071068e-011 7.071068e-011 7.071068e-011
6616816816.8168 0.30577376 0.093042232 -0.0088331867 0.0036450757 7.071068e-011 7.071068e-011 7.071068e-011 7.071068e-011
6625225225.2252 0.025031762 -0.27301872 -0.001753067 -0.0092180697 7.071068e-011 7.071068e-011 7.071068e-011 7.071068e-011
6633633633.6336 -0.16599701 0.1611829 0.0092440667 -0.00036955939 7.071068e-011 7.071068e-011 7.071068e-011 7.071068e-011
6642042042.042 0.28988096 0.11338919 -0.0018591925 0.0092239995 7.071068e-011 7.071068e-011 7.071068e-011 7.071068e-011
6650450450.4505 0.039263193 -0.25203502 -0.0106182 -0.0040836446 7.071068e-011 7.071068e-011 7.071068e-011 7.071068e-011
6658858858.8589 -0.14833705 0.13416763 0.0059527247 -0.011387595 7.071068e-011 7.071068e-011 7.071068e-011 7.071068e-011
6667267267.2673 0.22818223 0.10135584 0.012090453 0.0091067841 7.071068e-011 7.071068e-011 7.071068e-011 7.071068e-011
6675675675.6757 0.043245148 -0.15090676 -0.011435214 0.013695142 7.071068e-011 7.071068e-011 7.071068e-011 7.071068e-011
6684084084.0841 -0.044603489 0.083791107 -0.014439795 -0.013222292 7.071068e-011 7.071068e-011 7.071068e-011 7.071068e-011
6692492492.4925 0.10597696 0.047788277 0.014682362 -0.014722714 7.071068e-011 7.071068e-011 7.071068e-011 7.071068e-011
6700900900.9009 0.085675776 0.018168747 0.01456941 0.015300183 7.071068e-011 7.071068e-011 7.071068e-011 7.071068e-011
6709309309.3093 0.077621222 -0.041683726 -0.015454345 0.01293877 7.071068e-011 7.071068e-011 7.071068e-011 7.071068e-011
6717717717.7177 -0.031458382 0.034022443 -0.010018258 -0.01636114 7.071068e-011 7.071068e-011 7.071068e-011 7.071068e-011
6726126126.1261 0.15508682 0.11662543 0.016668066 -0.0069981185 7.071068e-011 7.071068e-011 7.071068e-011 7.071068e-011
6734534534.5345 0.12876311 -0.14077657 0.0035042544 0.016091665 7.071068e-011 7.071068e-011 7.071068e-011 7.071068e-011
6742942942.9429 -0.10787553 0.026599884 -0.015761206 -0.00029303596 7.071068e-011 7.071068e-011 7.071068e-011 7.071068e-011
6751351351.3514 0.17127755 0.15252528 0.0036026035 -0.015215356 7.071068e-011 7.071068e-011 7.071068e-011 7.071068e-011
6759759759.7598 0.15086044 -0.17117602 0.013040852 0.0070215436 7.071068e-011 7.071068e-011 7.071068e-011 7.071068e-011
6768168168.1682 -0.14672332 -0.006009398 -0.010769294 0.010285516 7.071068e-011 7.071068e-011 7.071068e-011 7.071068e-011
6776576576.5766 0.13350523 0.17918581 -0.0078939088 -0.013354222 7.071068e-011 7.071068e-011 7.071068e-011 7.071068e-011
6784984984.985 0.15170026 -0.14603433 0.014424218 -0.0039425571 7.071068e-011 7.071068e-011 7.071068e-011 7.071068e-011
6793393393.3934 -0.14757429 -0.0069068931 -0.00038509132 0.015372366 7.071068e-011 7.071068e-011 7.071068e-011 7.071068e-011
6801801801.8018 0.10143217 0.20278467 -0.015564701 -0.0042958339 7.071068e-011 7.071068e-011 7.071068e-011 7.071068e-011
6810210210.2102 0.17242381 -0.094748996 0.0086304732 -0.014285726 7.071068e-011 7.071068e-011 7.071068e-011 7.071068e-011
6818618618.6186 -0.10499982 -0.010484053 0.012012906 0.013139311 7.071068e-011 7.071068e-011 7.071068e-011 7.071068e-011
6827027027.027 0.087409325 0.18525243 -0.015824264 0.0091018397 7.071068e-011 7.071068e-011 7.071068e-011 7.071068e-011
6835435435.4354 0.18161871 -0.048265941 -0.004414042 -0.017725537 7.071068e-011 7.071068e-011 7.071068e-011 7.071068e-011
6843843843.8438 -0.045221325 -0.02854404 0.019959293 0.00027682525 7.071068e-011 7.071068e-011 7.071068e-011 7.071068e-011
6852252252.2523 0.074395463 0.12953639 -0.0045866882 0.020077681 7.071068e-011 7.071068e-011 7.071068e-011 7.071068e-011
6860660660.6607 0.1453304 -0.020398092 -0.018391306 -0.009568233 7.071068e-011 7.071068e-011 7.071068e-011 7.071068e-011
6869069069.0691 0.0040444368 -0.02688108 0.014430827 -0.015904933 7.071068e-011 7.071068e-011 7.071068e-011 7.071068e-011
6877477477.4775 0.05419993 0.072303183 0.012525606 0.017962463 7.071068e-011 7.071068e-011 7.071068e-011 7.071068e-011
6885885885.8859 0.090061769 0.007089817 -0.020283038 0.0076016723 7.071068e-011 7.071068e-011 7.071068e-011 7.071068e-011
6894294294.2943 0.047618125 -0.0010044791 -0.0022613639 -0.02180955 7.071068e-011 7.071068e-011 7.071068e-011 7.071068e-011
6902702702.7027 0.037917994 0.019213075 0.021761317 0.0032429849 7.071068e-011 7.071068e-011 7.071068e-011 7.071068e-011
6911111111.1111 0.03125051 0.03784471 -0.0087289931 0.019978363 7.071068e-011 7.071068e-011 7.071068e-011 7.071068e-011
6919519519.5195 0.078012086 0.049741328 -0.016736403 -0.013527149 7.071068e-011 7.071068e-011 7.071068e-011 7.071068e-011
6927927927.9279 0.051022861 -0.012099043 0.017116494 -0.012602294 7.071068e-011 7.071068e-011 7.071068e-011 7.071068e-011
6936336336.3363 -0.0023183248 0.061792571 0.0071538216 0.019320782 7.071068e-011 7.071068e-011 7.071068e-011 7.071068e-011
6944744744.7447 0.1123459 0.089753956 -0.020654136 0.0010997865 7.071068e-011 7.071068e-011 7.071068e-011 7.071068e-011
6953153153.1532 0.084549226 -0.045770239 0.0044743936 -0.019806243 7.071068e-011 7.071068e-011 7.071068e-011 7.071068e-011
6961561561.5616 -0.028574653 0.054513879 0.017155346 0.0098765297 7.071068e-011 7.071068e-011 7.071068e-011 7.071068e-011
6969969969.97 0.12479812 0.10582913 -0.0143835 0.013387158 7.071068e-011 7.071068e-011 7.071068e-011 7.071068e-011
6978378378.3784 0.10152461 -0.070662938 -0.0082603702 -0.017206622 7.071068e-011 7.071068e-011 7.071068e-011 7.071068e-011
6986786786.7868 -0.063769586 0.032597866 0.018548794 -0.0022072922 7.071068e-011 7.071068e-011 7.071068e-011 7.071068e-011
6995195195.1952 0.1025693 0.13386996 -0.0035681152 0.018726079 7.071068e-011 7.071068e-011 7.071068e-011 7.071068e-011
7003603603.6036 0.10924658 -0.057621691 -0.016429298 -0.0088645872 7.071068e-011 7.071068e-011 7.071068e-011 7.071068e-011
7012012012.012 -0.072795168 0.032084446 0.01402146 -0.012327524 7.071068e-011 7.071068e-011 7.071068e-011 7.071068e-011
7020420420.4204 0.087943472 0.16172622 0.0076901792 0.017184353 7.071068e-011 7.071068e-011 7.071068e-011 7.071068e-011
7028828828.8288 0.13276079 -0.029174618 -0.018359728 0.0017843747 7.071068e-011 7.071068e-011 7.071068e-011 7.071068e-011
7037237237.2372 -0.054050345 0.030795727 0.0044084149 -0.01846 7.071068e-011 7.071068e-011 7.071068e-011 7.071068e-011
7045645645.6456 0.090106063 0.17072296 0.016273662 0.0097308066 7.071068e-011 7.071068e-011 7.071068e-011 7.071068e-011
7054054054.0541 0.16738464 -0.0028874301 -0.014548758 0.011903136 7.071068e-011 7.071068e-011 7.071068e-011 7.071068e-011
7062462462.4625 -0.0077565303 -0.0040856129 -0.0067302966 -0.018299298 7.071068e-011 7.071068e-011 7.071068e-011 7.071068e-011
7070870870.8709 0.077874966 0.1402566 0.019574191 -0.0011377838 7.071068e-011 7.071068e-011 7.071068e-011 7.071068e-011
7079279279.2793 0.1686075 0.0076628528 -0.00554174 0.018597577 7.071068e-011 7.071068e-011 7.071068e-011 7.071068e-011
7087687687.6877 0.032424521 -0.027295034 -0.016459638 -0.011429274 7.071068e-011 7.071068e-011 7.071068e-011 7.071068e-011
7096096096.0961 0.059543326 0.089503855 0.015836356 -0.012332639 7.071068e-011 7.071068e-011 7.071068e-011 7.071068e-011
7104504504.5045 0.14775313 0.010185208 0.0064419275 0.018989485 7.071068e-011 7.071068e-011 7.071068e-011 7.071068e-011
7112912912.9129 0.050840259 -0.044420831 -0.020465238 -0.00015292347 7.071068e-011 7.071068e-011 7.071068e-011 7.071068e-011
7121321321.3213 0.034540217 0.031646341 0.0062747267 -0.019654322 7.071068e-011 7.071068e-011 7.071068e-011 7.071068e-011
7129729729.7297 0.089000478 0.014632119 0.016278554 0.011978353 7.071068e-011 7.071068e-011 7.071068e-011 7.071068e-011
7138138138.1381 0.043776728 -0.037777595 -0.017027089 0.011554985 7.071068e-011 7.071068e-011 7.071068e-011 7.071068e-011
7146546546.5465 -0.00083752227 0.013463725 -0.0057410239 -0.019927613 7.071068e-011 7.071068e-011 7.071068e-011 7.071068e-011
7154954954.955 0.030895784 0.041533928 0.020593878 0.00090511795 7.071068e-011 7.071068e-011 7.071068e-011 7.071068e-011
7163363363.3634 0.044745613 0.015541712 -0.0076488247 0.018903224 7.071068e-011 7.071068e-011 7.071068e-011 7.071068e-011
7171771771.7718 0.001368752 0.020515231 -0.015577201 -0.013410739 7.071068e-011 7.071068e-011 7.071068e-011 7.071068e-011
7180180180.1802 0.018368389 0.072220385 0.017499302 -0.010274906 7.071068e-011 7.071068e-011 7.071068e-011 7.071068e-011
7188588588.5886 0.067690432 0.056486372 0.003822614 0.020281704 7.071068e-011 7.071068e-011 7.071068e-011 7.071068e-011
7196996996.997 0.04011333 0.0098960362 -0.020422406 -0.0027452093 7.071068e-011 7.071068e-011 7.071068e-011 7.071068e-011
7205405405.4054 0.012014497 0.06718342 0.0094731096 -0.017820226 7.071068e-011 7.071068e-011 7.071068e-011 7.071068e-011
7213813813.8138 0.083462119 0.067273438 0.013687819 0.015060685 7.071068e-011 7.071068e-011 7.071068e-011 7.071068e-011
7222222222.2222 0.065987125 -0.0055561415 -0.018820273 0.0080980603 7.071068e-011 7.071068e-011 7.071068e-011 7.071068e-011
7230630630.6306 -0.0010330019 0.035217524 -0.0013713443 -0.020306773 7.071068e-011 7.071068e-011 7.071068e-011 7.071068e-011
7239039039.039 0.071234934 0.075383492 0.019766519 0.0058518685 7.071068e-011 7.071068e-011 7.071068e-011 7.071068e-011
7247447447.4474 0.075446725 -0.014453247 -0.01195259 0.016814118 7.071068e-011 7.071068e-011 7.071068e-011 7.071068e-011
7255855855.8559 -0.016573202 0.006941773 -0.011477815 -0.016894385 7.071068e-011 7.071068e-011 7.071068e-011 7.071068e-011
7264264264.2643 0.034653369 0.084340945 0.019956443 -0.0052762995 7.071068e-011 7.071068e-011 7.071068e-011 7.071068e-011
7272672672.6727 0.074635781 0.00055240985 -0.0015288206 0.02035551 7.071068e-011 7.071068e-011 7.071068e-011 7.071068e-011
7281081081.0811 -0.030040268 0.00082932098 -0.018543558 -0.0084004905 7.071068e-011 7.071068e-011 7.071068e-011 7.071068e-011
7289489489.4895 0.00014334965 0.10754604 0.014589168 -0.014460009 7.071068e-011 7.071068e-011 7.071068e-011 7.071068e-011
7297897897.8979 0.084709331 0.050700519 0.0086905649 0.018678205 7.071068e-011 7.071068e-011 7.071068e-011 7.071068e-011
7306306306.3063 0.0014097715 0.0089837983 -0.020410782 0.0015293423 7.071068e-011 7.071068e-011 7.071068e-011 7.071068e-011
7314714714.7147 0.0038654318 0.11246018 0.0053823055 -0.020121614 7.071068e-011 7.071068e-011 7.071068e-011 7.071068e-011
7323123123.1231 0.11266933 0.075771473 0.016860588 0.01165707 7.071068e-011 7.071068e-011 7.071068e-011 7.071068e-011
7331531531.5315 0.051435828 -0.012133792 -0.017193699 0.011605355 7.071068e-011 7.071068e-011 7.071068e-011 7.071068e-011
7339939939.9399 0.007682289 0.068782344 -0.0052681123 -0.020383034 7.071068e-011 7.071068e-011 7.071068e-011 7.071068e-011
7348348348.3483 0.10565345 0.063609675 0.020742543 0.0019157134 7.071068e-011 7.071068e-011 7.071068e-011 7.071068e-011
7356756756.7568 0.065995082 -0.036903013 -0.0091277519 0.018624626 7.071068e-011 7.071068e-011 7.071068e-011 7.071068e-011
7365165165.1652 -0.0099699618 0.020822881 -0.014618675 -0.015058186 7.071068e-011 7.071068e-011 7.071068e-011 7.071068e-011
7373573573.5736 0.061203063 0.049698584 0.018839728 -0.0085016666 7.071068e-011 7.071068e-011 7.071068e-011 7.071068e-011
7381981981.982 0.044198211 -0.035003982 0.0010836881 0.020919787 7.071068e-011 7.071068e-011 7.071068e-011 7.071068e-011
7390390390.3904 -0.043115191 0.0091702174 -0.020128535 -0.0060681063 7.071068e-011 7.071068e-011 7.071068e-011 7.071068e-011
7398798798.7988 0.012795561 0.071670227 0.012733496 -0.016520873 7.071068e-011 7.071068e-011 7.071068e-011 7.071068e-011
7407207207.2072 0.028169328 0.0095159523 0.011058968 0.017768649 7.071068e-011 7.071068e-011 7.071068e-011 7.071068e-011
7415615615.6156 -0.041163936 0.035594445 -0.020628035 0.0043282057 7.071068e-011 7.071068e-011 7.071068e-011 7.071068e-011
7424024024.024 0.007012513 0.10478508 0.0030511627 -0.020785095 7.071068e-011 7.071068e-011 7.071068e-011 7.071068e-011
7432432432.4324 0.054369051 0.054288946 0.018445395 0.010323227 7.071068e-011 7.071068e-011 7.071068e-011 7.071068e-011
7440840840.8408 0.010235267 0.042352349 -0.015978271 0.013865904 7.071068e-011 7.071068e-011 7.071068e-011 7.071068e-011
7449249249.2492 0.029885108 0.086861558 -0.0072025442 -0.019665523 7.071068e-011 7.071068e-011 7.071068e-011 7.071068e-011
7457657657.6577 0.078158624 0.049369678 0.021020226 0.00021529998 7.071068e-011 7.071068e-011 7.071068e-011 7.071068e-011
7466066066.0661 0.0417342 0.013676106 -0.0074886032 0.019706169 7.071068e-011 7.071068e-011 7.071068e-011 7.071068e-011
7474474474.4745 0.030437207 0.039639238 -0.015738998 -0.013730306 7.071068e-011 7.071068e-011 7.071068e-011 7.071068e-011
7482882882.8829 0.059968125 0.028815852 0.018464791 -0.0096580433 7.071068e-011 7.071068e-011 7.071068e-011 7.071068e-011
7491291291.2913 0.038731057 -0.013089583 0.0025743521 0.02072181 7.071068e-011 7.071068e-011 7.071068e-011 7.071068e-011
7499699699.6997 -0.0030252205 0.0021854751 -0.020145083 -0.0049155168 7.071068e-011 7.071068e-011 7.071068e-011 7.071068e-011
7508108108.1081 0.0029015583 0.031951081 0.01166112 -0.017117368 7.071068e-011 7.071068e-011 7.071068e-011 7.071068e-011
7516516516.5165 0.019697001 0.012141255 0.011833251 0.016838428 7.071068e-011 7.071068e-011 7.071068e-011 7.071068e-011
7524924924.9249 -0.026546357 0.0062977034 -0.019825954 0.0049739508 7.071068e-011 7.071068e-011 7.071068e-011 7.071068e-011
7533333333.3333 -0.029766086 0.066254981 0.0025709912 -0.020272119 7.071068e-011 7.071068e-011 7.071068e-011 7.071068e-011
7541741741.7417 0.027808905 0.068603069 0.018033244 0.009445413 7.071068e-011 7.071068e-011 7.071068e-011 7.071068e-011
7550150150.1502 0.013018505 0.020927167 -0.01510902 0.013040471 7.071068e-011 7.071068e-011 7.071068e-011 7.071068e-011
7558558558.5586 -0.015176285 0.068063453 -0.0067269341 -0.018878223 7.071068e-011 7.071068e-011 7.071068e-011 7.071068e-011
7566966966.967 0.055261176 0.078365646 0.019806443 0.00053505192 7.071068e-011 7.071068e-011 7.071068e-011 7.071068e-011
7575375375.3754 0.053987801 0.00096123875 -0.0078811478 0.018259069 7.071068e-011 7.071068e-011 7.071068e-011 7.071068e-011
7583783783.7838 -0.012162286 0.023802482 -0.014217184 -0.013973085 7.071068e-011 7.071068e-011 7.071068e-011 7.071068e-011
7592192192.1922 0.045578714 0.060874593 0.017840656 -0.0081810271 7.071068e-011 7.071068e-011 7.071068e-011 7.071068e-011
7600600600.6006 0.051748469 -0.02452182 0.00080349087 0.01927875 7.071068e-011 7.071068e-011 7.071068e-011 7.071068e-011
7609009009.009 -0.037909891 -0.010620373 -0.018660732 -0.0065356228 7.071068e-011 7.071068e-011 7.071068e-011 7.071068e-011
7617417417.4174 -0.0052325968 0.057824705 0.012551798 -0.01511893 7.071068e-011 7.071068e-011 7.071068e-011 7.071068e-011
7625825825.8258 0.026285455 -0.0036935399 0.0092749726 0.017264808 7.071068e-011 7.071068e-011 7.071068e-011 7.071068e-011
7634234234.2342 -0.060256347 0.003673665 -0.019370247 0.0023638939 7.071068e-011 7.071068e-011 7.071068e-011 7.071068e-011
7642642642.6426 -0.027082166 0.091652557 0.0049891532 -0.018704208 7.071068e-011 7.071068e-011 7.071068e-011 7.071068e-011
7651051051.0511 0.037890948 0.042734038 0.01555666 0.01162696 7.071068e-011 7.071068e-011 7.071068e-011 7.071068e-011
7659459459.4595 -0.029930854 0.017846808 -0.016636893 0.010500664 7.071068e-011 7.071068e-011 7.071068e-011 7.071068e-011
7667867867.8679 -0.011546304 0.10259774 -0.0037874074 -0.018936869 7.071068e-011 7.071068e-011 7.071068e-011 7.071068e-011
7676276276.2763 0.073762335 0.058902539 0.01889137 0.0039938563 7.071068e-011 7.071068e-011 7.071068e-011 7.071068e-011
7684684684.6847 0.021506876 -0.003690941 -0.010724425 0.016419075 7.071068e-011 7.071068e-011 7.071068e-011 7.071068e-011
7693093093.0931 0.00074224343 0.054007869 -0.01132033 -0.015853344 7.071068e-011 7.071068e-011 7.071068e-011 7.071068e-011
7701501501.5015 0.070706286 0.032870781 0.018859534 -0.0047357776 7.071068e-011 7.071068e-011 7.071068e-011 7.071068e-011
7709909909.9099 0.023838356 -0.042513203 -0.0026352282 0.019316643 7.071068e-011 7.071068e-011 7.071068e-011 7.071068e-011
7718318318.3183 -0.033548482 0.010592186 -0.017015692 -0.0095398566 7.071068e-011 7.071068e-011 7.071068e-011 7.071068e-011
7726726726.7267 0.024559546 0.028105851 0.015322545 -0.012066434 7.071068e-011 7.071068e-011 7.071068e-011 7.071068e-011
7735135135.1351 0.0028158131 -0.041466046 0.0058117118 0.018782202 7.071068e-011 7.071068e-011 7.071068e-011 7.071068e-011
7743543543.5435 -0.074883707 -0.00010490986 -0.019333655 -0.0015159894 7.071068e-011 7.071068e-011 7.071068e-011 7.071068e-011
7751951951.952 -0.030531876 0.064051777 0.0087093404 -0.017491441 7.071068e-011 7.071068e-011 7.071068e-011 7.071068e-011
7760360360.3604 -0.0026905867 0.017843561 0.013084118 0.014572447 7.071068e-011 7.071068e-011 7.071068e-011 7.071068e-011
7768768768.7688 -0.057964828 0.028139392 -0.018441312 0.006758288 7.071068e-011 7.071068e-011 7.071068e-011 7.071068e-011
7777177177.1772 -0.027724555 0.095539965 0.00063137774 -0.019536531 7.071068e-011 7.071068e-011 7.071068e-011 7.071068e-011
7785585585.5856 0.034182142 0.058279365 0.017938968 0.0077817151 7.071068e-011 7.071068e-011 7.071068e-011 7.071068e-011
7793993993.994 -0.0056859618 0.027488036 -0.013797453 0.013524851 7.071068e-011 7.071068e-011 7.071068e-011 7.071068e-011
7802402402.4024 -0.00040903248 0.075091802 -0.0074479054 -0.018202504 7.071068e-011 7.071068e-011 7.071068e-011 7.071068e-011
7810810810.8108 0.05789528 0.048741769 0.019570546 -0.00038331511 7.071068e-011 7.071068e-011 7.071068e-011 7.071068e-011
7819219219.2192 0.026139749 -0.0061355191 -0.007136418 0.018127553 7.071068e-011 7.071068e-011 7.071068e-011 7.071068e-011
7827627627.6276 -0.0035406779 0.026436271 -0.014222346 -0.013382525 7.071068e-011 7.071068e-011 7.071068e-011 7.071068e-011
7836036036.036 0.037164226 0.026041625 0.017712548 -0.0082097799 7.071068e-011 7.071068e-011 7.071068e-011 7.071068e-011
7844444444.4444 0.016966399 -0.023777414 0.0010502907 0.019547455 7.071068e-011 7.071068e-011 7.071068e-011 7.071068e-011
7852852852.8529 -0.028583037 0.0027797124 -0.018608509 -0.006344676 7.071068e-011 7.071068e-011 7.071068e-011 7.071068e-011
7861261261.2613 0.0018275548 0.029754635 0.012685704 -0.014878567 7.071068e-011 7.071068e-011 7.071068e-011 7.071068e-011
7869669669.6697 0.0054029333 -0.0094221383 0.0088807279 0.017409043 7.071068e-011 7.071068e-011 7.071068e-011 7.071068e-011
7878078078.0781 -0.040281121 0.0035926553 -0.019613387 0.0018898672 7.071068e-011 7.071068e-011 7.071068e-011 7.071068e-011
7886486486.4865 -0.024472607 0.046586029 0.0053856988 -0.018808547 7.071068e-011 7.071068e-011 7.071068e-011 7.071068e-011
7894894894.8949 0.010740299 0.030654335 0.015212197 0.011921284 7.071068e-011 7.071068e-011 7.071068e-011 7.071068e-011
7903303303.3033 -0.013126084 0.010899636 -0.016959058 0.0095389131 7.071068e-011 7.071068e-011 7.071068e-011 7.071068e-011
7911711711.7117 -0.018217722 0.04387537 -0.0026723323 -0.019313069 7.071068e-011 7.071068e-011 7.071068e-011 7.071068e-011
7920120120.1201 0.023328681 0.045068566 0.018705122 0.0047459314 7.071068e-011 7.071068e-011 7.071068e-011 7.071068e-011
7928528528.5285 0.023482539 0.0018064685 -0.011401032 0.0155466 7.071068e-011 7.071068e-011 7.071068e-011 7.071068e-011
7936936936.9369 -0.009787458 0.011314363 -0.01001687 -0.016260505 7.071068e-011 7.071068e-011 7.071068e-011 7.071068e-011
7945345345.3453 0.017659262 0.031837486 0.01885009 -0.0030075321 7.071068e-011 7.071068e-011 7.071068e-011 7.071068e-011
