!Keysight Technologies,N5235B,MY61252044,A.15.00.15
!Date: Friday, January 20, 2023 22:56:06
!Correction: S11(Off) 
!S21(Off) 
!S12(Off) 
!S22(Off) 
!S2P File: Measurements: S11, S21, S12, S22:
# Hz S  RI   R 50
6600000000 0.018133845 -0.1750683 0.015466491 -0.0030440663 7.071068e-011 7.071068e-011 7.071068e-011 7.071068e-011
6608408408.4084 -0.12419288 0.16597936 0.0053104376 0.010840939 7.071068e-011 7.071068e-011 7.071068e-011 7.071068e-011
6616816816.8168 0.30620056 0.092150368 -0.0089130634 0.0036946787 7.071068e-011 7.071068e-011 7.071068e-011 7.071068e-011
6625225225.2252 0.023989316 -0.27292061 -0.0017857366 -0.0093071833 7.071068e-011 7.071068e-011 7.071068e-011 7.071068e-011
6633633633.6336 -0.16537388 0.16194715 0.0093390746 -0.00039091191 7.071068e-011 7.071068e-011 7.071068e-011 7.071068e-011
6642042042.042 0.29019341 0.11264999 -0.0018531053 0.0093204333 7.071068e-011 7.071068e-011 7.071068e-011 7.071068e-011
6650450450.4505 0.038561467 -0.2520898 -0.010725285 -0.0040903604 7.071068e-011 7.071068e-011 7.071068e-011 7.071068e-011
6658858858.8589 -0.14816517 0.13485204 0.0059749791 -0.011493048 7.071068e-011 7.071068e-011 7.071068e-011 7.071068e-011
6667267267.2673 0.2287555 0.10088994 0.01220196 0.0091670034 7.071068e-011 7.071068e-011 7.071068e-011 7.071068e-011
6675675675.6757 0.042513948 -0.15114708 -0.01153686 0.013823249 7.071068e-011 7.071068e-011 7.071068e-011 7.071068e-011
6684084084.0841 -0.044301882 0.084416188 -0.014596919 -0.013354319 7.071068e-011 7.071068e-011 7.071068e-011 7.071068e-011
6692492492.4925 0.10593454 0.047389612 0.014823043 -0.014918941 7.071068e-011 7.071068e-011 7.071068e-011 7.071068e-011
6700900900.9009 0.085915782 0.018223342 0.014768998 0.015417099 7.071068e-011 7.071068e-011 7.071068e-011 7.071068e-011
6709309309.3093 0.077093281 -0.041845217 -0.015557348 0.013110627 7.071068e-011 7.071068e-011 7.071068e-011 7.071068e-011
6717717717.7177 -0.031103225 0.034541324 -0.01014738 -0.016483944 7.071068e-011 7.071068e-011 7.071068e-011 7.071068e-011
6726126126.1261 0.15524235 0.11610611 0.016803412 -0.0070911013 7.071068e-011 7.071068e-011 7.071068e-011 7.071068e-011
6734534534.5345 0.12833196 -0.14074562 0.0035611028 0.016236121 7.071068e-011 7.071068e-011 7.071068e-011 7.071068e-011
6742942942.9429 -0.10782827 0.026969019 -0.015914671 -0.00027303133 7.071068e-011 7.071068e-011 7.071068e-011 7.071068e-011
6751351351.3514 0.17176959 0.15239868 0.0036110436 -0.015374109 7.071068e-011 7.071068e-011 7.071068e-011 7.071068e-011
6759759759.7598 0.15037565 -0.17171763 0.01318642 0.0070646964 7.071068e-011 7.071068e-011 7.071068e-011 7.071068e-011
6768168168.1682 -0.14693314 -0.0051479153 -0.010853998 0.010415227 7.071068e-011 7.071068e-011 7.071068e-011 7.071068e-011
6776576576.5766 0.13435401 0.17877893 -0.0080092745 -0.013470177 7.071068e-011 7.071068e-011 7.071068e-011 7.071068e-011
6784984984.985 0.15093751 -0.14640099 0.014556292 -0.0040217265 7.071068e-011 7.071068e-011 7.071068e-011 7.071068e-011
6793393393.3934 -0.1474774 -0.0062767784 -0.00034191212 0.015521958 7.071068e-011 7.071068e-011 7.071068e-011 7.071068e-011
6801801801.8018 0.10181441 0.20258769 -0.015718648 -0.0042901309 7.071068e-011 7.071068e-011 7.071068e-011 7.071068e-011
6810210210.2102 0.17223974 -0.095132507 0.0086692348 -0.014434903 7.071068e-011 7.071068e-011 7.071068e-011 7.071068e-011
6818618618.6186 -0.10541489 -0.010092454 0.012147445 0.01323381 7.071068e-011 7.071068e-011 7.071068e-011 7.071068e-011
6827027027.027 0.088062219 0.18543448 -0.015957667 0.0092122285 7.071068e-011 7.071068e-011 7.071068e-011 7.071068e-011
6835435435.4354 0.18135238 -0.048961539 -0.0044855112 -0.017894199 7.071068e-011 7.071068e-011 7.071068e-011 7.071068e-011
6843843843.8438 -0.045537565 -0.027864344 0.020170471 0.00024560664 7.071068e-011 7.071068e-011 7.071068e-011 7.071068e-011
6852252252.2523 0.074902952 0.12926425 -0.0045774011 0.020299282 7.071068e-011 7.071068e-011 7.071068e-011 7.071068e-011
6860660660.6607 0.14504158 -0.020398423 -0.018607922 -0.0096018873 7.071068e-011 7.071068e-011 7.071068e-011 7.071068e-011
6869069069.0691 0.0040723975 -0.026945163 0.014515644 -0.016093088 7.071068e-011 7.071068e-011 7.071068e-011 7.071068e-011
6877477477.4775 0.054116644 0.072578616 0.012684814 0.018087769 7.071068e-011 7.071068e-011 7.071068e-011 7.071068e-011
6885885885.8859 0.090361729 0.0068447287 -0.020446977 0.0077114273 7.071068e-011 7.071068e-011 7.071068e-011 7.071068e-011
6894294294.2943 0.047202341 -0.0010065385 -0.0023135785 -0.022015028 7.071068e-011 7.071068e-011 7.071068e-011 7.071068e-011
6902702702.7027 0.038224787 0.019407632 0.021989025 0.0032363751 7.071068e-011 7.071068e-011 7.071068e-011 7.071068e-011
6911111111.1111 0.031025669 0.037672479 -0.0087712901 0.020213965 7.071068e-011 7.071068e-011 7.071068e-011 7.071068e-011
6919519519.5195 0.078293219 0.049867615 -0.016948231 -0.013613861 7.071068e-011 7.071068e-011 7.071068e-011 7.071068e-011
6927927927.9279 0.050657522 -0.012389727 0.017236872 -0.012781683 7.071068e-011 7.071068e-011 7.071068e-011 7.071068e-011
6936336336.3363 -0.0021252469 0.062299371 0.0072794291 0.019468686 7.071068e-011 7.071068e-011 7.071068e-011 7.071068e-011
6944744744.7447 0.1125198 0.089252718 -0.020834455 0.0011581327 7.071068e-011 7.071068e-011 7.071068e-011 7.071068e-011
6953153153.1532 0.084138535 -0.045584653 0.0044766576 -0.019995863 7.071068e-011 7.071068e-011 7.071068e-011 7.071068e-011
6961561561.5616 -0.028291672 0.054628182 0.017340656 0.009939909 7.071068e-011 7.071068e-011 7.071068e-011 7.071068e-011
6969969969.97 0.12480775 0.10575824 -0.014503575 0.013554992 7.071068e-011 7.071068e-011 7.071068e-011 7.071068e-011
6978378378.3784 0.10148241 -0.070897684 -0.0083923563 -0.017363062 7.071068e-011 7.071068e-011 7.071068e-011 7.071068e-011
6986786786.7868 -0.064074919 0.032993127 0.018727111 -0.0022921781 7.071068e-011 7.071068e-011 7.071068e-011 7.071068e-011
6995195195.1952 0.10320648 0.13377886 -0.0035400519 0.018917011 7.071068e-011 7.071068e-011 7.071068e-011 7.071068e-011
7003603603.6036 0.10868365 -0.058055464 -0.01660889 -0.0088937683 7.071068e-011 7.071068e-011 7.071068e-011 7.071068e-011
7012012012.012 -0.072727285 0.032760452 0.014111252 -0.01248006 7.071068e-011 7.071068e-011 7.071068e-011 7.071068e-011
7020420420.4204 0.088304885 0.16133793 0.0078067547 0.017320659 7.071068e-011 7.071068e-011 7.071068e-011 7.071068e-011
7028828828.8288 0.13242525 -0.029230529 -0.018525435 0.001842801 7.071068e-011 7.071068e-011 7.071068e-011 7.071068e-011
7037237237.2372 -0.054074559 0.030967774 0.0044061937 -0.018645784 7.071068e-011 7.071068e-011 7.071068e-011 7.071068e-011
7045645645.6456 0.090313792 0.17086498 0.016453618 0.0097879851 7.071068e-011 7.071068e-011 7.071068e-011 7.071068e-011
7054054054.0541 0.16745462 -0.0033171589 -0.014666805 0.012054618 7.071068e-011 7.071068e-011 7.071068e-011 7.071068e-011
7062462462.4625 -0.0082711354 -0.0037721305 -0.0068487721 -0.018465895 7.071068e-011 7.071068e-011 7.071068e-011 7.071068e-011
7070870870.8709 0.078513369 0.140424 0.019770365 -0.0012099145 7.071068e-011 7.071068e-011 7.071068e-011 7.071068e-011
7079279279.2793 0.16828384 0.007144772 -0.0055342638 0.018800184 7.071068e-011 7.071068e-011 7.071068e-011 7.071068e-011
7087687687.6877 0.032363571 -0.026826855 -0.016654236 -0.011472674 7.071068e-011 7.071068e-011 7.071068e-011 7.071068e-011
7096096096.0961 0.059686348 0.089344695 0.015932731 -0.012490598 7.071068e-011 7.071068e-011 7.071068e-011 7.071068e-011
7104504504.5045 0.14777212 0.010222469 0.0065500857 0.019131852 7.071068e-011 7.071068e-011 7.071068e-011 7.071068e-011
7112912912.9129 0.050720926 -0.044586644 -0.020642033 -0.00010857837 7.071068e-011 7.071068e-011 7.071068e-011 7.071068e-011
7121321321.3213 0.034479309 0.031994775 0.006293261 -0.019845767 7.071068e-011 7.071068e-011 7.071068e-011 7.071068e-011
7129729729.7297 0.08935257 0.014381963 0.01645682 0.012066075 7.071068e-011 7.071068e-011 7.071068e-011 7.071068e-011
7138138138.1381 0.04331784 -0.037811413 -0.017175989 0.011714451 7.071068e-011 7.071068e-011 7.071068e-011 7.071068e-011
7146546546.5465 -0.00051098515 0.013708124 -0.0058634514 -0.020115642 7.071068e-011 7.071068e-011 7.071068e-011 7.071068e-011
7154954954.955 0.030725539 0.041292224 0.020803625 0.0008373406 7.071068e-011 7.071068e-011 7.071068e-011 7.071068e-011
7163363363.3634 0.044908602 0.015685823 -0.0076437732 0.019105606 7.071068e-011 7.071068e-011 7.071068e-011 7.071068e-011
7171771771.7718 0.0011424428 0.020315913 -0.015758375 -0.013466416 7.071068e-011 7.071068e-011 7.071068e-011 7.071068e-011
7180180180.1802 0.018515363 0.072566986 0.017612346 -0.010406701 7.071068e-011 7.071068e-011 7.071068e-011 7.071068e-011
7188588588.5886 0.067786798 0.056076925 0.0038988274 0.020446172 7.071068e-011 7.071068e-011 7.071068e-011 7.071068e-011
7196996996.997 0.039782751 0.010132053 -0.020610655 -0.0027241465 7.071068e-011 7.071068e-011 7.071068e-011 7.071068e-011
7205405405.4054 0.012338106 0.06720794 0.0095312111 -0.018007856 7.071068e-011 7.071068e-011 7.071068e-011 7.071068e-011
7213813813.8138 0.083267614 0.067161813 0.013859511 0.015177912 7.071068e-011 7.071068e-011 7.071068e-011 7.071068e-011
7222222222.2222 0.066117853 -0.0055162255 -0.018983303 0.0082380772 7.071068e-011 7.071068e-011 7.071068e-011 7.071068e-011
7230630630.6306 -0.0013055479 0.035238661 -0.0014568869 -0.02049301 7.071068e-011 7.071068e-011 7.071068e-011 7.071068e-011
7239039039.039 0.071621619 0.075550228 0.01995779 0.0058317441 7.071068e-011 7.071068e-011 7.071068e-011 7.071068e-011
7247447447.4474 0.07517603 -0.014872157 -0.012000561 0.016989302 7.071068e-011 7.071068e-011 7.071068e-011 7.071068e-011
7255855855.8559 -0.016642569 0.0074501531 -0.011613404 -0.017006516 7.071068e-011 7.071068e-011 7.071068e-011 7.071068e-011
7264264264.2643 0.034992076 0.084056266 0.020116685 -0.0053693266 7.071068e-011 7.071068e-011 7.071068e-011 7.071068e-011
7272672672.6727 0.07432422 0.00054834498 -0.0015011347 0.02053755 7.071068e-011 7.071068e-011 7.071068e-011 7.071068e-011
7281081081.0811 -0.029934071 0.00089529227 -0.018733807 -0.0084342193 7.071068e-011 7.071068e-011 7.071068e-011 7.071068e-011
7289489489.4895 8.8010151e-005 0.10763518 0.014685468 -0.014630987 7.071068e-011 7.071068e-011 7.071068e-011 7.071068e-011
7297897897.8979 0.084963255 0.050546635 0.0088212918 0.01882216 7.071068e-011 7.071068e-011 7.071068e-011 7.071068e-011
7306306306.3063 0.0009631649 0.008916473 -0.020576596 0.0015976758 7.071068e-011 7.071068e-011 7.071068e-011 7.071068e-011
7314714714.7147 0.0041775182 0.11287475 0.0053779767 -0.020297159 7.071068e-011 7.071068e-011 7.071068e-011 7.071068e-011
7323123123.1231 0.11271054 0.075259149 0.017018175 0.011718134 7.071068e-011 7.071068e-011 7.071068e-011 7.071068e-011
7331531531.5315 0.051101834 -0.011817267 -0.017318308 0.01172893 7.071068e-011 7.071068e-011 7.071068e-011 7.071068e-011
7339939939.9399 0.0079737352 0.068762839 -0.0053424179 -0.020547522 7.071068e-011 7.071068e-011 7.071068e-011 7.071068e-011
7348348348.3483 0.10554706 0.063589923 0.020924196 0.0019071834 7.071068e-011 7.071068e-011 7.071068e-011 7.071068e-011
7356756756.7568 0.066055067 -0.037003689 -0.0091836965 0.018798312 7.071068e-011 7.071068e-011 7.071068e-011 7.071068e-011
7365165165.1652 -0.01021335 0.020979911 -0.014761276 -0.015178472 7.071068e-011 7.071068e-011 7.071068e-011 7.071068e-011
7373573573.5736 0.061629161 0.049782764 0.01900607 -0.0085849147 7.071068e-011 7.071068e-011 7.071068e-011 7.071068e-011
7381981981.982 0.043882236 -0.035434395 0.0010900662 0.021119732 7.071068e-011 7.071068e-011 7.071068e-011 7.071068e-011
7390390390.3904 -0.043108732 0.0097633535 -0.02034059 -0.006137372 7.071068e-011 7.071068e-011 7.071068e-011 7.071068e-011
7398798798.7988 0.013066249 0.07119818 0.012875874 -0.016712451 7.071068e-011 7.071068e-011 7.071068e-011 7.071068e-011
7407207207.2072 0.027874181 0.0097681079 0.01120983 0.017969636 7.071068e-011 7.071068e-011 7.071068e-011 7.071068e-011
7415615615.6156 -0.04097908 0.03542405 -0.020869266 0.0044139116 7.071068e-011 7.071068e-011 7.071068e-011 7.071068e-011
7424024024.024 0.0068265763 0.10501979 0.0030389249 -0.021040861 7.071068e-011 7.071068e-011 7.071068e-011 7.071068e-011
7432432432.4324 0.05469086 0.054076552 0.01868815 0.010392866 7.071068e-011 7.071068e-011 7.071068e-011 7.071068e-011
7440840840.8408 0.0097482717 0.042376272 -0.016119795 0.014074573 7.071068e-011 7.071068e-011 7.071068e-011 7.071068e-011
7449249249.2492 0.030290132 0.087141916 -0.0073474506 -0.01986333 7.071068e-011 7.071068e-011 7.071068e-011 7.071068e-011
7457657657.6577 0.077955954 0.048941452 0.021256067 0.00014262213 7.071068e-011 7.071068e-011 7.071068e-011 7.071068e-011
7466066066.0661 0.041713003 0.014088467 -0.0074935947 0.019946488 7.071068e-011 7.071068e-011 7.071068e-011 7.071068e-011
7474474474.4745 0.030523734 0.039354324 -0.015951362 -0.01381599 7.071068e-011 7.071068e-011 7.071068e-011 7.071068e-011
7482882882.8829 0.059893277 0.029090863 0.018618492 -0.0098217791 7.071068e-011 7.071068e-011 7.071068e-011 7.071068e-011
7491291291.2913 0.038891137 -0.013387394 0.0026684045 0.020923598 7.071068e-011 7.071068e-011 7.071068e-011 7.071068e-011
7499699699.6997 -0.0033439887 0.0024304884 -0.020364607 -0.0049043056 7.071068e-011 7.071068e-011 7.071068e-011 7.071068e-011
7508108108.1081 0.0033210507 0.03194873 0.011729456 -0.017328884 7.071068e-011 7.071068e-011 7.071068e-011 7.071068e-011
7516516516.5165 0.019384811 0.011908308 0.012010518 0.016976958 7.071068e-011 7.071068e-011 7.071068e-011 7.071068e-011
7524924924.9249 -0.026435623 0.0066116415 -0.020023508 0.0050918125 7.071068e-011 7.071068e-011 7.071068e-011 7.071068e-011
7533333333.3333 -0.029788515 0.066008024 0.0025228104 -0.020497555 7.071068e-011 7.071068e-011 7.071068e-011 7.071068e-011
7541741741.7417 0.027853206 0.068846062 0.018258644 0.0094677452 7.071068e-011 7.071068e-011 7.071068e-011 7.071068e-011
7550150150.1502 0.012967374 0.020580446 -0.01520195 0.013229924 7.071068e-011 7.071068e-011 7.071068e-011 7.071068e-011
7558558558.5586 -0.015333628 0.06849777 -0.0068608308 -0.019031072 7.071068e-011 7.071068e-011 7.071068e-011 7.071068e-011
7566966966.967 0.055648938 0.078087501 0.019995376 0.00047074028 7.071068e-011 7.071068e-011 7.071068e-011 7.071068e-011
7575375375.3754 0.053527743 0.00093662314 -0.0079003181 0.018459154 7.071068e-011 7.071068e-011 7.071068e-011 7.071068e-011
7583783783.7838 -0.011889175 0.024077414 -0.014400148 -0.014070407 7.071068e-011 7.071068e-011 7.071068e-011 7.071068e-011
7592192192.1922 0.045540173 0.060621697 0.017997932 -0.0083216252 7.071068e-011 7.071068e-011 7.071068e-011 7.071068e-011
7600600600.6006 0.051745482 -0.024372865 0.00088059256 0.019480659 7.071068e-011 7.071068e-011 7.071068e-011 7.071068e-011
7609009009.009 -0.037994388 -0.010746274 -0.018878354 -0.0065312502 7.071068e-011 7.071068e-011 7.071068e-011 7.071068e-011
7617417417.4174 -0.0051299934 0.058135502 0.012613409 -0.01532229 7.071068e-011 7.071068e-011 7.071068e-011 7.071068e-011
7625825825.8258 0.026398005 -0.0041323593 0.0094317282 0.017392507 7.071068e-011 7.071068e-011 7.071068e-011 7.071068e-011
7634234234.2342 -0.060680497 0.0040019071 -0.019544216 0.0024497136 7.071068e-011 7.071068e-011 7.071068e-011 7.071068e-011
7642642642.6426 -0.026569402 0.09167698 0.0049794256 -0.018896658 7.071068e-011 7.071068e-011 7.071068e-011 7.071068e-011
7651051051.0511 0.037543163 0.042447265 0.015751077 0.011696486 7.071068e-011 7.071068e-011 7.071068e-011 7.071068e-011
7659459459.4595 -0.02986265 0.018142376 -0.016771175 0.010663347 7.071068e-011 7.071068e-011 7.071068e-011 7.071068e-011
7667867867.8679 -0.011542526 0.10247505 -0.0038987976 -0.019113211 7.071068e-011 7.071068e-011 7.071068e-011 7.071068e-011
7676276276.2763 0.073848136 0.058993127 0.019088751 0.0039557838 7.071068e-011 7.071068e-011 7.071068e-011 7.071068e-011
7684684684.6847 0.021386141 -0.003914502 -0.010765872 0.016615067 7.071068e-011 7.071068e-011 7.071068e-011 7.071068e-011
7693093093.0931 0.00065868645 0.054413456 -0.011482405 -0.015957216 7.071068e-011 7.071068e-011 7.071068e-011 7.071068e-011
7701501501.5015 0.071087413 0.032582846 0.01901824 -0.0048408303 7.071068e-011 7.071068e-011 7.071068e-011 7.071068e-011
7709909909.9099 0.023324599 -0.042511832 -0.0026043011 0.019509993 7.071068e-011 7.071068e-011 7.071068e-011 7.071068e-011
7718318318.3183 -0.033184078 0.010886726 -0.017216442 -0.0095821684 7.071068e-011 7.071068e-011 7.071068e-011 7.071068e-011
7726726726.7267 0.024444621 0.027804678 0.015439232 -0.012244593 7.071068e-011 7.071068e-011 7.071068e-011 7.071068e-011
7735135135.1351 0.002845983 -0.041302696 0.0059438036 0.01895136 7.071068e-011 7.071068e-011 7.071068e-011 7.071068e-011
7743543543.5435 -0.075007059 -0.00022111263 -0.019531487 -0.0014461222 7.071068e-011 7.071068e-011 7.071068e-011 7.071068e-011
7751951951.952 -0.030400449 0.064317957 0.0087173246 -0.017692219 7.071068e-011 7.071068e-011 7.071068e-011 7.071068e-011
7760360360.3604 -0.0026152057 0.017447036 0.013258854 0.014652962 7.071068e-011 7.071068e-011 7.071068e-011 7.071068e-011
7768768768.7688 -0.05833957 0.028407596 -0.018581845 0.0068835588 7.071068e-011 7.071068e-011 7.071068e-011 7.071068e-011
7777177177.1772 -0.027277848 0.095580764 0.00057989499 -0.019721419 7.071068e-011 7.071068e-011 7.071068e-011 7.071068e-011
7785585585.5856 0.033866551 0.058020376 0.018132268 0.0078089391 7.071068e-011 7.071068e-011 7.071068e-011 7.071068e-011
7793993993.994 -0.0055890991 0.027780639 -0.013895467 0.01370288 7.071068e-011 7.071068e-011 7.071068e-011 7.071068e-011
7802402402.4024 -0.00047245706 0.074917488 -0.0075867311 -0.018368416 7.071068e-011 7.071068e-011 7.071068e-011 7.071068e-011
7810810810.8108 0.058001924 0.048937935 0.019775787 -0.00046380024 7.071068e-011 7.071068e-011 7.071068e-011 7.071068e-011
7819219219.2192 0.026044751 -0.0064308988 -0.0071272282 0.018341459 7.071068e-011 7.071068e-011 7.071068e-011 7.071068e-011
7827627627.6276 -0.003663152 0.026833009 -0.014415212 -0.013449755 7.071068e-011 7.071068e-011 7.071068e-011 7.071068e-011
7836036036.036 0.037514862 0.025803717 0.017840607 -0.0083552515 7.071068e-011 7.071068e-011 7.071068e-011 7.071068e-011
7844444444.4444 0.016554577 -0.023794157 0.0011329448 0.019720197 7.071068e-011 7.071068e-011 7.071068e-011 7.071068e-011
7852852852.8529 -0.028297205 0.0030082178 -0.018798184 -0.0063439072 7.071068e-011 7.071068e-011 7.071068e-011 7.071068e-011
7861261261.2613 0.0017088957 0.029524295 0.012762288 -0.015057247 7.071068e-011 7.071068e-011 7.071068e-011 7.071068e-011
7869669669.6697 0.0054880287 -0.0092459004 0.0090286126 0.017553436 7.071068e-011 7.071068e-011 7.071068e-011 7.071068e-011
7878078078.0781 -0.040397279 0.0033887678 -0.019808894 0.0019722304 7.071068e-011 7.071068e-011 7.071068e-011 7.071068e-011
7886486486.4865 -0.024440305 0.04693104 0.0053684781 -0.019024128 7.071068e-011 7.071068e-011 7.071068e-011 7.071068e-011
7894894894.8949 0.010925617 0.030304968 0.015414313 0.011979817 7.071068e-011 7.071068e-011 7.071068e-011 7.071068e-011
7903303303.3033 -0.013513524 0.011076633 -0.017088013 0.0097027058 7.071068e-011 7.071068e-011 7.071068e-011 7.071068e-011
7911711711.7117 -0.017862245 0.043955084 -0.0027856072 -0.019487003 7.071068e-011 7.071068e-011 7.071068e-011 7.071068e-011
7920120120.1201 0.023098122 0.044904742 0.018899962 0.0047148746 7.071068e-011 7.071068e-011 7.071068e-011 7.071068e-011
7928528528.5285 0.02361675 0.0019577912 -0.01144813 0.015735092 7.071068e-011 7.071068e-011 7.071068e-011 7.071068e-011
7936936936.9369 -0.0099593047 0.011173991 -0.010170262 -0.016380303 7.071068e-011 7.071068e-011 7.071068e-011 7.071068e-011
7945345345.3453 0.017822513 0.032126915 0.019021817 -0.0030961523 7.071068e-011 7.071068e-011 7.071068e-011 7.071068e-011
