!Keysight Technologies,N5235B,MY61252044,A.15.00.15
!Date: Saturday, January 21, 2023 00:08:35
!Correction: S11(Off) 
!S21(Off) 
!S12(Off) 
!S22(Off) 
!S2P File: Measurements: S11, S21, S12, S22:
# Hz S  RI   R 50
6600000000 0.019062612 -0.17543833 0.015396053 -0.0030131054 7.071068e-011 7.071068e-011 7.071068e-011 7.071068e-011
6608408408.4084 -0.12504733 0.16495094 0.0052644778 0.010804442 7.071068e-011 7.071068e-011 7.071068e-011 7.071068e-011
6616816816.8168 0.30563679 0.093493111 -0.0088866996 0.0036565382 7.071068e-011 7.071068e-011 7.071068e-011 7.071068e-011
6625225225.2252 0.025548503 -0.27302557 -0.0017508938 -0.0092754448 7.071068e-011 7.071068e-011 7.071068e-011 7.071068e-011
6633633633.6336 -0.1662274 0.16064851 0.0093047023 -0.00036378237 7.071068e-011 7.071068e-011 7.071068e-011 7.071068e-011
6642042042.042 0.28949812 0.11387906 -0.0018763904 0.0092824399 7.071068e-011 7.071068e-011 7.071068e-011 7.071068e-011
6650450450.4505 0.039914504 -0.25198847 -0.010678468 -0.0041129878 7.071068e-011 7.071068e-011 7.071068e-011 7.071068e-011
6658858858.8589 -0.14866151 0.13368423 0.0059912545 -0.011448582 7.071068e-011 7.071068e-011 7.071068e-011 7.071068e-011
6667267267.2673 0.22802632 0.10175326 0.01214846 0.0091707073 7.071068e-011 7.071068e-011 7.071068e-011 7.071068e-011
6675675675.6757 0.043500748 -0.1509416 -0.011530234 0.013756748 7.071068e-011 7.071068e-011 7.071068e-011 7.071068e-011
6684084084.0841 -0.044557646 0.083678015 -0.014519899 -0.013332147 7.071068e-011 7.071068e-011 7.071068e-011 7.071068e-011
6692492492.4925 0.10566372 0.04769171 0.014797263 -0.014821582 7.071068e-011 7.071068e-011 7.071068e-011 7.071068e-011
6700900900.9009 0.085902624 0.018445363 0.014662649 0.015404672 7.071068e-011 7.071068e-011 7.071068e-011 7.071068e-011
6709309309.3093 0.077608921 -0.041858051 -0.01553934 0.013019436 7.071068e-011 7.071068e-011 7.071068e-011 7.071068e-011
6717717717.7177 -0.031410336 0.033954334 -0.010061921 -0.016455116 7.071068e-011 7.071068e-011 7.071068e-011 7.071068e-011
6726126126.1261 0.15479586 0.11668695 0.016764507 -0.0070160292 7.071068e-011 7.071068e-011 7.071068e-011 7.071068e-011
6734534534.5345 0.12913178 -0.14051147 0.0035061 0.016185237 7.071068e-011 7.071068e-011 7.071068e-011 7.071068e-011
6742942942.9429 -0.10792083 0.026051981 -0.015853114 -0.00031857702 7.071068e-011 7.071068e-011 7.071068e-011 7.071068e-011
6751351351.3514 0.17090833 0.15289974 0.0036466217 -0.015303537 7.071068e-011 7.071068e-011 7.071068e-011 7.071068e-011
6759759759.7598 0.15130414 -0.17109813 0.013115034 0.0070797545 7.071068e-011 7.071068e-011 7.071068e-011 7.071068e-011
6768168168.1682 -0.1468015 -0.0063564391 -0.010848593 0.010339182 7.071068e-011 7.071068e-011 7.071068e-011 7.071068e-011
6776576576.5766 0.13324237 0.17930104 -0.0079322932 -0.013449316 7.071068e-011 7.071068e-011 7.071068e-011 7.071068e-011
6784984984.985 0.15189102 -0.14573039 0.014519272 -0.0039580222 7.071068e-011 7.071068e-011 7.071068e-011 7.071068e-011
6793393393.3934 -0.14732337 -0.0073281331 -0.00039484946 0.01546679 7.071068e-011 7.071068e-011 7.071068e-011 7.071068e-011
6801801801.8018 0.10087048 0.20284577 -0.015651865 -0.0043320488 7.071068e-011 7.071068e-011 7.071068e-011 7.071068e-011
6810210210.2102 0.1728351 -0.094366349 0.0086904773 -0.014360228 7.071068e-011 7.071068e-011 7.071068e-011 7.071068e-011
6818618618.6186 -0.10497249 -0.010951514 0.012065723 0.013228648 7.071068e-011 7.071068e-011 7.071068e-011 7.071068e-011
6827027027.027 0.087139204 0.18543263 -0.015930397 0.0091333501 7.071068e-011 7.071068e-011 7.071068e-011 7.071068e-011
6835435435.4354 0.18177903 -0.048157398 -0.0044163964 -0.017843448 7.071068e-011 7.071068e-011 7.071068e-011 7.071068e-011
6843843843.8438 -0.045110147 -0.028600033 0.02009267 0.00030951662 7.071068e-011 7.071068e-011 7.071068e-011 7.071068e-011
6852252252.2523 0.074251175 0.12931947 -0.0046300925 0.020209903 7.071068e-011 7.071068e-011 7.071068e-011 7.071068e-011
6860660660.6607 0.14527771 -0.020018417 -0.018506972 -0.0096343718 7.071068e-011 7.071068e-011 7.071068e-011 7.071068e-011
6869069069.0691 0.0043424983 -0.027161526 0.014524873 -0.015986228 7.071068e-011 7.071068e-011 7.071068e-011 7.071068e-011
6877477477.4775 0.053882647 0.072362117 0.012584516 0.018071501 7.071068e-011 7.071068e-011 7.071068e-011 7.071068e-011
6885885885.8859 0.090255328 0.0071293474 -0.020402199 0.0076222946 7.071068e-011 7.071068e-011 7.071068e-011 7.071068e-011
6894294294.2943 0.047486264 -0.0010346643 -0.002236353 -0.021944147 7.071068e-011 7.071068e-011 7.071068e-011 7.071068e-011
6902702702.7027 0.03812037 0.019256672 0.02189797 0.0032933138 7.071068e-011 7.071068e-011 7.071068e-011 7.071068e-011
6911111111.1111 0.031018019 0.037675254 -0.0088041695 0.020105097 7.071068e-011 7.071068e-011 7.071068e-011 7.071068e-011
6919519519.5195 0.078144439 0.050002322 -0.016832493 -0.013625126 7.071068e-011 7.071068e-011 7.071068e-011 7.071068e-011
6927927927.9279 0.051038839 -0.012316886 0.017224913 -0.01267192 7.071068e-011 7.071068e-011 7.071068e-011 7.071068e-011
6936336336.3363 -0.0023351724 0.061875168 0.0071878331 0.019432493 7.071068e-011 7.071068e-011 7.071068e-011 7.071068e-011
6944744744.7447 0.11227702 0.089691259 -0.020768715 0.0010804748 7.071068e-011 7.071068e-011 7.071068e-011 7.071068e-011
6953153153.1532 0.084660061 -0.045562524 0.0045286575 -0.01991047 7.071068e-011 7.071068e-011 7.071068e-011 7.071068e-011
6961561561.5616 -0.028476767 0.054172218 0.017245015 0.0099569373 7.071068e-011 7.071068e-011 7.071068e-011 7.071068e-011
6969969969.97 0.12445354 0.10606217 -0.014495997 0.013450982 7.071068e-011 7.071068e-011 7.071068e-011 7.071068e-011
6978378378.3784 0.10195749 -0.070587434 -0.0082947128 -0.017330898 7.071068e-011 7.071068e-011 7.071068e-011 7.071068e-011
6986786786.7868 -0.063974634 0.032303348 0.018666556 -0.0022150511 7.071068e-011 7.071068e-011 7.071068e-011 7.071068e-011
6995195195.1952 0.10250997 0.13407882 -0.0036055185 0.01883615 7.071068e-011 7.071068e-011 7.071068e-011 7.071068e-011
7003603603.6036 0.10934293 -0.057591941 -0.016517304 -0.0089310519 7.071068e-011 7.071068e-011 7.071068e-011 7.071068e-011
7012012012.012 -0.072672099 0.031965777 0.014108974 -0.012388098 7.071068e-011 7.071068e-011 7.071068e-011 7.071068e-011
7020420420.4204 0.087666482 0.16163941 0.0077126855 0.017291933 7.071068e-011 7.071068e-011 7.071068e-011 7.071068e-011
7028828828.8288 0.13291411 -0.028797206 -0.018469384 0.0017686258 7.071068e-011 7.071068e-011 7.071068e-011 7.071068e-011
7037237237.2372 -0.053858425 0.030372621 0.0044560013 -0.018565664 7.071068e-011 7.071068e-011 7.071068e-011 7.071068e-011
7045645645.6456 0.089711972 0.17085332 0.016359523 0.0098142764 7.071068e-011 7.071068e-011 7.071068e-011 7.071068e-011
7054054054.0541 0.16767724 -0.0027065536 -0.014656944 0.011956336 7.071068e-011 7.071068e-011 7.071068e-011 7.071068e-011
7062462462.4625 -0.0077873054 -0.0043230345 -0.0067546871 -0.018424153 7.071068e-011 7.071068e-011 7.071068e-011 7.071068e-011
7070870870.8709 0.077823035 0.1403091 0.019702448 -0.0011280017 7.071068e-011 7.071068e-011 7.071068e-011 7.071068e-011
7079279279.2793 0.168512 0.0077188457 -0.0055902884 0.01871036 7.071068e-011 7.071068e-011 7.071068e-011 7.071068e-011
7087687687.6877 0.032691687 -0.027238069 -0.016550168 -0.011501457 7.071068e-011 7.071068e-011 7.071068e-011 7.071068e-011
7096096096.0961 0.059325419 0.089222558 0.015932772 -0.012390192 7.071068e-011 7.071068e-011 7.071068e-011 7.071068e-011
7104504504.5045 0.14773606 0.010528996 0.0064571174 0.019096941 7.071068e-011 7.071068e-011 7.071068e-011 7.071068e-011
7112912912.9129 0.051054463 -0.044630852 -0.020571774 -0.00018345854 7.071068e-011 7.071068e-011 7.071068e-011 7.071068e-011
7121321321.3213 0.034319993 0.031655684 0.0063395635 -0.019755336 7.071068e-011 7.071068e-011 7.071068e-011 7.071068e-011
7129729729.7297 0.089113593 0.014673304 0.016356178 0.012079044 7.071068e-011 7.071068e-011 7.071068e-011 7.071068e-011
7138138138.1381 0.043680683 -0.037776321 -0.017155122 0.011604232 7.071068e-011 7.071068e-011 7.071068e-011 7.071068e-011
7146546546.5465 -0.00065212324 0.013453489 -0.005762686 -0.020061644 7.071068e-011 7.071068e-011 7.071068e-011 7.071068e-011
7154954954.955 0.030645881 0.041413091 0.020724751 0.0009205839 7.071068e-011 7.071068e-011 7.071068e-011 7.071068e-011
7163363363.3634 0.044919219 0.015788345 -0.0077007925 0.019009091 7.071068e-011 7.071068e-011 7.071068e-011 7.071068e-011
7171771771.7718 0.0013543651 0.020249747 -0.015656473 -0.013486637 7.071068e-011 7.071068e-011 7.071068e-011 7.071068e-011
7180180180.1802 0.01830088 0.072381184 0.017598726 -0.010308964 7.071068e-011 7.071068e-011 7.071068e-011 7.071068e-011
7188588588.5886 0.067740269 0.056391429 0.0038097762 0.020393804 7.071068e-011 7.071068e-011 7.071068e-011 7.071068e-011
7196996996.997 0.040090136 0.010010053 -0.020529978 -0.0027886196 7.071068e-011 7.071068e-011 7.071068e-011 7.071068e-011
7205405405.4054 0.012130097 0.067022286 0.0095623732 -0.017907087 7.071068e-011 7.071068e-011 7.071068e-011 7.071068e-011
7213813813.8138 0.083198227 0.067351229 0.013748305 0.015175694 7.071068e-011 7.071068e-011 7.071068e-011 7.071068e-011
7222222222.2222 0.066290371 -0.0054401746 -0.018944316 0.0081321336 7.071068e-011 7.071068e-011 7.071068e-011 7.071068e-011
7230630630.6306 -0.0012015323 0.034956634 -0.0013626608 -0.020427464 7.071068e-011 7.071068e-011 7.071068e-011 7.071068e-011
7239039039.039 0.071233243 0.075616054 0.019868186 0.0058966302 7.071068e-011 7.071068e-011 7.071068e-011 7.071068e-011
7247447447.4474 0.075497359 -0.014567624 -0.012028915 0.016889671 7.071068e-011 7.071068e-011 7.071068e-011 7.071068e-011
7255855855.8559 -0.016547041 0.0069979089 -0.011508887 -0.01699899 7.071068e-011 7.071068e-011 7.071068e-011 7.071068e-011
7264264264.2643 0.034594279 0.084184274 0.020070082 -0.0052738944 7.071068e-011 7.071068e-011 7.071068e-011 7.071068e-011
7272672672.6727 0.074565105 0.00080483424 -0.0015718772 0.020463837 7.071068e-011 7.071068e-011 7.071068e-011 7.071068e-011
7281081081.0811 -0.029761648 0.00064988161 -0.01863509 -0.0084810713 7.071068e-011 7.071068e-011 7.071068e-011 7.071068e-011
7289489489.4895 -0.00019549453 0.10748696 0.014693572 -0.01452216 7.071068e-011 7.071068e-011 7.071068e-011 7.071068e-011
7297897897.8979 0.084895901 0.05094403 0.008713427 0.018793002 7.071068e-011 7.071068e-011 7.071068e-011 7.071068e-011
7306306306.3063 0.0014274595 0.0087759113 -0.020520188 0.0015077066 7.071068e-011 7.071068e-011 7.071068e-011 7.071068e-011
7314714714.7147 0.0038132735 0.11253166 0.0054407297 -0.02021509 7.071068e-011 7.071068e-011 7.071068e-011 7.071068e-011
7323123123.1231 0.11262777 0.075733364 0.016921276 0.011748026 7.071068e-011 7.071068e-011 7.071068e-011 7.071068e-011
7331531531.5315 0.051515244 -0.011975159 -0.017307689 0.011627437 7.071068e-011 7.071068e-011 7.071068e-011 7.071068e-011
7339939939.9399 0.0077509466 0.068496957 -0.0052448865 -0.020502802 7.071068e-011 7.071068e-011 7.071068e-011 7.071068e-011
7348348348.3483 0.10537732 0.063806474 0.020849269 0.0019809492 7.071068e-011 7.071068e-011 7.071068e-011 7.071068e-011
7356756756.7568 0.066340581 -0.036872275 -0.0092252754 0.018701978 7.071068e-011 7.071068e-011 7.071068e-011 7.071068e-011
7365165165.1652 -0.010176533 0.020586006 -0.014653663 -0.015187841 7.071068e-011 7.071068e-011 7.071068e-011 7.071068e-011
7373573573.5736 0.061224859 0.049938224 0.018979933 -0.0084892949 7.071068e-011 7.071068e-011 7.071068e-011 7.071068e-011
7381981981.982 0.044232681 -0.035159197 0.0010146949 0.021056047 7.071068e-011 7.071068e-011 7.071068e-011 7.071068e-011
7390390390.3904 -0.043084886 0.0093206903 -0.020248003 -0.0061869416 7.071068e-011 7.071068e-011 7.071068e-011 7.071068e-011
7398798798.7988 0.012754954 0.071406305 0.012887123 -0.016605863 7.071068e-011 7.071068e-011 7.071068e-011 7.071068e-011
7407207207.2072 0.028089913 0.009887876 0.011100461 0.017945629 7.071068e-011 7.071068e-011 7.071068e-011 7.071068e-011
7415615615.6156 -0.040890448 0.035281982 -0.020811394 0.0043167034 7.071068e-011 7.071068e-011 7.071068e-011 7.071068e-011
7424024024.024 0.0066560288 0.10490806 0.0031088069 -0.020951089 7.071068e-011 7.071068e-011 7.071068e-011 7.071068e-011
7432432432.4324 0.054667749 0.054359503 0.018578826 0.010431427 7.071068e-011 7.071068e-011 7.071068e-011 7.071068e-011
7440840840.8408 0.010061175 0.042225931 -0.016120879 0.013953444 7.071068e-011 7.071068e-011 7.071068e-011 7.071068e-011
7449249249.2492 0.030014193 0.086980768 -0.0072403518 -0.019822314 7.071068e-011 7.071068e-011 7.071068e-011 7.071068e-011
7457657657.6577 0.078019381 0.049222093 0.021180667 0.00023169156 7.071068e-011 7.071068e-011 7.071068e-011 7.071068e-011
7466066066.0661 0.041860599 0.013915204 -0.0075571821 0.019844238 7.071068e-011 7.071068e-011 7.071068e-011 7.071068e-011
7474474474.4745 0.030441079 0.039315745 -0.015841069 -0.013835168 7.071068e-011 7.071068e-011 7.071068e-011 7.071068e-011
7482882882.8829 0.059810821 0.029089354 0.018597139 -0.0097138174 7.071068e-011 7.071068e-011 7.071068e-011 7.071068e-011
7491291291.2913 0.038970951 -0.013230647 0.0025700608 0.020865487 7.071068e-011 7.071068e-011 7.071068e-011 7.071068e-011
7499699699.6997 -0.0032255622 0.0022104424 -0.020276768 -0.0049696057 7.071068e-011 7.071068e-011 7.071068e-011 7.071068e-011
7508108108.1081 0.0030512933 0.031961504 0.011758621 -0.017224845 7.071068e-011 7.071068e-011 7.071068e-011 7.071068e-011
7516516516.5165 0.019527594 0.012113525 0.011894794 0.016969843 7.071068e-011 7.071068e-011 7.071068e-011 7.071068e-011
7524924924.9249 -0.026350692 0.0064355559 -0.019972352 0.0049897837 7.071068e-011 7.071068e-011 7.071068e-011 7.071068e-011
7533333333.3333 -0.029891027 0.065977365 0.0025974968 -0.020415302 7.071068e-011 7.071068e-011 7.071068e-011 7.071068e-011
7541741741.7417 0.027762121 0.068936728 0.01815124 0.0095206564 7.071068e-011 7.071068e-011 7.071068e-011 7.071068e-011
7550150150.1502 0.013209761 0.020696457 -0.015209591 0.013120804 7.071068e-011 7.071068e-011 7.071068e-011 7.071068e-011
7558558558.5586 -0.015357733 0.068143964 -0.0067633367 -0.018997772 7.071068e-011 7.071068e-011 7.071068e-011 7.071068e-011
7566966966.967 0.055379499 0.078326635 0.019929921 0.00055842713 7.071068e-011 7.071068e-011 7.071068e-011 7.071068e-011
7575375375.3754 0.053887866 0.0010223835 -0.0079494184 0.018369369 7.071068e-011 7.071068e-011 7.071068e-011 7.071068e-011
7583783783.7838 -0.011958942 0.023746185 -0.014297366 -0.014080551 7.071068e-011 7.071068e-011 7.071068e-011 7.071068e-011
7592192192.1922 0.045322321 0.060775701 0.017972568 -0.0082132621 7.071068e-011 7.071068e-011 7.071068e-011 7.071068e-011
7600600600.6006 0.051910549 -0.024241008 0.00079487328 0.0194134 7.071068e-011 7.071068e-011 7.071068e-011 7.071068e-011
7609009009.009 -0.037856624 -0.010958966 -0.01878221 -0.0065887878 7.071068e-011 7.071068e-011 7.071068e-011 7.071068e-011
7617417417.4174 -0.0054497765 0.05804228 0.01264469 -0.015211226 7.071068e-011 7.071068e-011 7.071068e-011 7.071068e-011
7625825825.8258 0.026497113 -0.0037352042 0.0093268808 0.017376915 7.071068e-011 7.071068e-011 7.071068e-011 7.071068e-011
7634234234.2342 -0.060370538 0.0036623075 -0.019491272 0.00236213 7.071068e-011 7.071068e-011 7.071068e-011 7.071068e-011
7642642642.6426 -0.027000068 0.091608278 0.0050439565 -0.018815896 7.071068e-011 7.071068e-011 7.071068e-011 7.071068e-011
7651051051.0511 0.037705462 0.042801991 0.015648974 0.01172042 7.071068e-011 7.071068e-011 7.071068e-011 7.071068e-011
7659459459.4595 -0.029641423 0.017905956 -0.0167583 0.010555393 7.071068e-011 7.071068e-011 7.071068e-011 7.071068e-011
7667867867.8679 -0.011755088 0.10234281 -0.0037979933 -0.019066421 7.071068e-011 7.071068e-011 7.071068e-011 7.071068e-011
7676276276.2763 0.073762678 0.059226755 0.01901222 0.0040254849 7.071068e-011 7.071068e-011 7.071068e-011 7.071068e-011
7684684684.6847 0.021710757 -0.0039000218 -0.010803233 0.016516216 7.071068e-011 7.071068e-011 7.071068e-011 7.071068e-011
7693093093.0931 0.00053035101 0.054050069 -0.011377126 -0.015961273 7.071068e-011 7.071068e-011 7.071068e-011 7.071068e-011
7701501501.5015 0.070836268 0.032899395 0.018981202 -0.0047472315 7.071068e-011 7.071068e-011 7.071068e-011 7.071068e-011
7709909909.9099 0.02374427 -0.042498313 -0.0026754413 0.019437585 7.071068e-011 7.071068e-011 7.071068e-011 7.071068e-011
7718318318.3183 -0.03337137 0.010545421 -0.017118257 -0.0096242744 7.071068e-011 7.071068e-011 7.071068e-011 7.071068e-011
7726726726.7267 0.024277311 0.028034212 0.015438628 -0.012135923 7.071068e-011 7.071068e-011 7.071068e-011 7.071068e-011
7735135135.1351 0.0030320131 -0.041209262 0.0058392454 0.018914124 7.071068e-011 7.071068e-011 7.071068e-011 7.071068e-011
7743543543.5435 -0.074896008 -0.00043149581 -0.019459633 -0.0015337054 7.071068e-011 7.071068e-011 7.071068e-011 7.071068e-011
7751951951.952 -0.030702924 0.064264752 0.0087680258 -0.017595103 7.071068e-011 7.071068e-011 7.071068e-011 7.071068e-011
7760360360.3604 -0.0025066675 0.01779558 0.013153871 0.014667081 7.071068e-011 7.071068e-011 7.071068e-011 7.071068e-011
7768768768.7688 -0.058071729 0.02813975 -0.018555788 0.0067792414 7.071068e-011 7.071068e-011 7.071068e-011 7.071068e-011
7777177177.1772 -0.027618939 0.095504269 0.00065945031 -0.019654857 7.071068e-011 7.071068e-011 7.071068e-011 7.071068e-011
7785585585.5856 0.03399558 0.058305647 0.018041646 0.0078544123 7.071068e-011 7.071068e-011 7.071068e-011 7.071068e-011
7793993993.994 -0.0054306635 0.027601663 -0.013906677 0.013595812 7.071068e-011 7.071068e-011 7.071068e-011 7.071068e-011
7802402402.4024 -0.00057705108 0.074814051 -0.0074795615 -0.018335905 7.071068e-011 7.071068e-011 7.071068e-011 7.071068e-011
7810810810.8108 0.057883546 0.049050882 0.01970733 -0.00037388515 7.071068e-011 7.071068e-011 7.071068e-011 7.071068e-011
7819219219.2192 0.026292728 -0.0063441591 -0.0071892994 0.018244106 7.071068e-011 7.071068e-011 7.071068e-011 7.071068e-011
7827627627.6276 -0.003701464 0.026507849 -0.014306653 -0.01347415 7.071068e-011 7.071068e-011 7.071068e-011 7.071068e-011
7836036036.036 0.037279747 0.026004495 0.017825408 -0.0082508679 7.071068e-011 7.071068e-011 7.071068e-011 7.071068e-011
7844444444.4444 0.016839722 -0.02373278 0.0010423418 0.019664656 7.071068e-011 7.071068e-011 7.071068e-011 7.071068e-011
7852852852.8529 -0.028383564 0.0027678369 -0.018712388 -0.0064040222 7.071068e-011 7.071068e-011 7.071068e-011 7.071068e-011
7861261261.2613 0.0015913303 0.029632643 0.012784437 -0.014954253 7.071068e-011 7.071068e-011 7.071068e-011 7.071068e-011
7869669669.6697 0.0055450713 -0.0091575803 0.0089213736 0.017532881 7.071068e-011 7.071068e-011 7.071068e-011 7.071068e-011
7878078078.0781 -0.040250052 0.0033157237 -0.019748792 0.0018795049 7.071068e-011 7.071068e-011 7.071068e-011 7.071068e-011
7886486486.4865 -0.024608308 0.046762213 0.005439111 -0.018932689 7.071068e-011 7.071068e-011 7.071068e-011 7.071068e-011
7894894894.8949 0.010872051 0.03058021 0.015308364 0.012008229 7.071068e-011 7.071068e-011 7.071068e-011 7.071068e-011
7903303303.3033 -0.013245897 0.010966051 -0.017074533 0.0095899347 7.071068e-011 7.071068e-011 7.071068e-011 7.071068e-011
7911711711.7117 -0.018039085 0.043812502 -0.0026797499 -0.019435585 7.071068e-011 7.071068e-011 7.071068e-011 7.071068e-011
7920120120.1201 0.023077358 0.045042556 0.018819787 0.0047830543 7.071068e-011 7.071068e-011 7.071068e-011 7.071068e-011
7928528528.5285 0.023710238 0.0019811527 -0.011484736 0.015633218 7.071068e-011 7.071068e-011 7.071068e-011 7.071068e-011
7936936936.9369 -0.0098649021 0.011042106 -0.010061291 -0.016372666 7.071068e-011 7.071068e-011 7.071068e-011 7.071068e-011
