!Keysight Technologies,N5235B,MY61252044,A.15.00.15
!Date: Friday, January 20, 2023 22:49:47
!Correction: S11(Off) 
!S21(Off) 
!S12(Off) 
!S22(Off) 
!S2P File: Measurements: S11, S21, S12, S22:
# Hz S  RI   R 50
6600000000 0.017885238 -0.17502244 0.015472131 -0.0030517436 7.071068e-011 7.071068e-011 7.071068e-011 7.071068e-011
6608408408.4084 -0.12398046 0.16621576 0.0053200643 0.010839259 7.071068e-011 7.071068e-011 7.071068e-011 7.071068e-011
6616816816.8168 0.30631584 0.09182658 -0.0089137172 0.003701403 7.071068e-011 7.071068e-011 7.071068e-011 7.071068e-011
6625225225.2252 0.023615958 -0.27290976 -0.0017919078 -0.0093080802 7.071068e-011 7.071068e-011 7.071068e-011 7.071068e-011
6633633633.6336 -0.16517864 0.16225289 0.0093404083 -0.0004001889 7.071068e-011 7.071068e-011 7.071068e-011 7.071068e-011
6642042042.042 0.29035836 0.11233607 -0.0018479087 0.0093235699 7.071068e-011 7.071068e-011 7.071068e-011 7.071068e-011
6650450450.4505 0.038216241 -0.25209901 -0.010730012 -0.0040826728 7.071068e-011 7.071068e-011 7.071068e-011 7.071068e-011
6658858858.8589 -0.14801635 0.13511911 0.0059686345 -0.011501209 7.071068e-011 7.071068e-011 7.071068e-011 7.071068e-011
6667267267.2673 0.22889563 0.10065866 0.012209455 0.0091611817 7.071068e-011 7.071068e-011 7.071068e-011 7.071068e-011
6675675675.6757 0.042292282 -0.15117173 -0.011527772 0.013836007 7.071068e-011 7.071068e-011 7.071068e-011 7.071068e-011
6684084084.0841 -0.044233911 0.084556065 -0.014608695 -0.013346486 7.071068e-011 7.071068e-011 7.071068e-011 7.071068e-011
6692492492.4925 0.10598585 0.047320019 0.014816256 -0.014932551 7.071068e-011 7.071068e-011 7.071068e-011 7.071068e-011
6700900900.9009 0.085901819 0.018168604 0.014782947 0.015411414 7.071068e-011 7.071068e-011 7.071068e-011 7.071068e-011
6709309309.3093 0.077000007 -0.041859888 -0.015550463 0.013126842 7.071068e-011 7.071068e-011 7.071068e-011 7.071068e-011
6717717717.7177 -0.031075995 0.034666374 -0.010161259 -0.016480321 7.071068e-011 7.071068e-011 7.071068e-011 7.071068e-011
6726126126.1261 0.15538569 0.11598509 0.016802363 -0.007104381 7.071068e-011 7.071068e-011 7.071068e-011 7.071068e-011
6734534534.5345 0.12813206 -0.14084478 0.0035776712 0.016236216 7.071068e-011 7.071068e-011 7.071068e-011 7.071068e-011
6742942942.9429 -0.10781848 0.027207619 -0.015920265 -0.00026171128 7.071068e-011 7.071068e-011 7.071068e-011 7.071068e-011
6751351351.3514 0.17199005 0.15226227 0.0036009513 -0.015381166 7.071068e-011 7.071068e-011 7.071068e-011 7.071068e-011
6759759759.7598 0.15016715 -0.17187515 0.013197212 0.0070548276 7.071068e-011 7.071068e-011 7.071068e-011 7.071068e-011
6768168168.1682 -0.14697292 -0.0048811124 -0.010849608 0.010426756 7.071068e-011 7.071068e-011 7.071068e-011 7.071068e-011
6776576576.5766 0.13460773 0.17867251 -0.0080216499 -0.013468266 7.071068e-011 7.071068e-011 7.071068e-011 7.071068e-011
6784984984.985 0.15072864 -0.14657372 0.014557248 -0.0040365811 7.071068e-011 7.071068e-011 7.071068e-011 7.071068e-011
6793393393.3934 -0.14753453 -0.0060305791 -0.00032901342 0.015527374 7.071068e-011 7.071068e-011 7.071068e-011 7.071068e-011
6801801801.8018 0.10206293 0.20252319 -0.015724694 -0.0042813118 7.071068e-011 7.071068e-011 7.071068e-011 7.071068e-011
6810210210.2102 0.1720814 -0.095330551 0.0086588264 -0.014447007 7.071068e-011 7.071068e-011 7.071068e-011 7.071068e-011
6818618618.6186 -0.10549931 -0.0098805567 0.012161648 0.013225153 7.071068e-011 7.071068e-011 7.071068e-011 7.071068e-011
6827027027.027 0.088279739 0.18541059 -0.015956391 0.0092257792 7.071068e-011 7.071068e-011 7.071068e-011 7.071068e-011
6835435435.4354 0.18125515 -0.049142111 -0.0045012673 -0.017894035 7.071068e-011 7.071068e-011 7.071068e-011 7.071068e-011
6843843843.8438 -0.045633208 -0.027719732 0.020176349 0.00022651537 7.071068e-011 7.071068e-011 7.071068e-011 7.071068e-011
6852252252.2523 0.075055793 0.1292671 -0.0045628389 0.020306699 7.071068e-011 7.071068e-011 7.071068e-011 7.071068e-011
6860660660.6607 0.14500476 -0.020522883 -0.018619295 -0.0095894597 7.071068e-011 7.071068e-011 7.071068e-011 7.071068e-011
6869069069.0691 0.0039983904 -0.026876321 0.014503946 -0.016110588 7.071068e-011 7.071068e-011 7.071068e-011 7.071068e-011
6877477477.4775 0.054200649 0.072599642 0.012702829 0.018084457 7.071068e-011 7.071068e-011 7.071068e-011 7.071068e-011
6885885885.8859 0.090359569 0.0067846254 -0.020447841 0.0077293785 7.071068e-011 7.071068e-011 7.071068e-011 7.071068e-011
6894294294.2943 0.047174629 -0.0010082918 -0.0023358322 -0.022018952 7.071068e-011 7.071068e-011 7.071068e-011 7.071068e-011
6902702702.7027 0.038225707 0.019419534 0.021996556 0.0032195582 7.071068e-011 7.071068e-011 7.071068e-011 7.071068e-011
6911111111.1111 0.031048976 0.037685797 -0.0087567866 0.020226248 7.071068e-011 7.071068e-011 7.071068e-011 7.071068e-011
6919519519.5195 0.07832253 0.04981311 -0.016965855 -0.01360356 7.071068e-011 7.071068e-011 7.071068e-011 7.071068e-011
6927927927.9279 0.05059224 -0.012400609 0.017234007 -0.012798693 7.071068e-011 7.071068e-011 7.071068e-011 7.071068e-011
6936336336.3363 -0.0020915831 0.062374443 0.0073003457 0.019471437 7.071068e-011 7.071068e-011 7.071068e-011 7.071068e-011
6944744744.7447 0.11259246 0.089165233 -0.020840831 0.0011754232 7.071068e-011 7.071068e-011 7.071068e-011 7.071068e-011
6953153153.1532 0.084022 -0.045628179 0.004463905 -0.020003723 7.071068e-011 7.071068e-011 7.071068e-011 7.071068e-011
6961561561.5616 -0.02826651 0.054747216 0.017354205 0.0099264653 7.071068e-011 7.071068e-011 7.071068e-011 7.071068e-011
6969969969.97 0.1249152 0.10566572 -0.014496597 0.013571541 7.071068e-011 7.071068e-011 7.071068e-011 7.071068e-011
6978378378.3784 0.101348 -0.070977338 -0.0084065171 -0.017362827 7.071068e-011 7.071068e-011 7.071068e-011 7.071068e-011
6986786786.7868 -0.064076655 0.03315115 0.018730944 -0.0023095645 7.071068e-011 7.071068e-011 7.071068e-011 7.071068e-011
6995195195.1952 0.10335983 0.13369854 -0.0035243814 0.018924722 7.071068e-011 7.071068e-011 7.071068e-011 7.071068e-011
7003603603.6036 0.10855205 -0.058160275 -0.016620338 -0.0088843405 7.071068e-011 7.071068e-011 7.071068e-011 7.071068e-011
7012012012.012 -0.072749384 0.03292124 0.014102663 -0.012494795 7.071068e-011 7.071068e-011 7.071068e-011 7.071068e-011
7020420420.4204 0.088465631 0.1612792 0.0078221932 0.017316163 7.071068e-011 7.071068e-011 7.071068e-011 7.071068e-011
7028828828.8288 0.13230307 -0.029363509 -0.018527357 0.0018577274 7.071068e-011 7.071068e-011 7.071068e-011 7.071068e-011
7037237237.2372 -0.054123554 0.031124325 0.0043907571 -0.018652661 7.071068e-011 7.071068e-011 7.071068e-011 7.071068e-011
7045645645.6456 0.090475053 0.17083016 0.016465871 0.0097735552 7.071068e-011 7.071068e-011 7.071068e-011 7.071068e-011
7054054054.0541 0.16737872 -0.0034626138 -0.014661204 0.012069849 7.071068e-011 7.071068e-011 7.071068e-011 7.071068e-011
7062462462.4625 -0.0083593354 -0.003653721 -0.0068655568 -0.01846798 7.071068e-011 7.071068e-011 7.071068e-011 7.071068e-011
7070870870.8709 0.078652881 0.14042881 0.019773083 -0.0012296228 7.071068e-011 7.071068e-011 7.071068e-011 7.071068e-011
7079279279.2793 0.16824307 0.0070111421 -0.0055216723 0.018809039 7.071068e-011 7.071068e-011 7.071068e-011 7.071068e-011
7087687687.6877 0.032273047 -0.026759822 -0.016669219 -0.011463545 7.071068e-011 7.071068e-011 7.071068e-011 7.071068e-011
7096096096.0961 0.059788901 0.089385323 0.015924122 -0.012511196 7.071068e-011 7.071068e-011 7.071068e-011 7.071068e-011
7104504504.5045 0.14777809 0.010115572 0.0065646437 0.019132251 7.071068e-011 7.071068e-011 7.071068e-011 7.071068e-011
7112912912.9129 0.050645109 -0.04456339 -0.020648027 -9.3115719e-005 7.071068e-011 7.071068e-011 7.071068e-011 7.071068e-011
7121321321.3213 0.034529023 0.032037605 0.0062761367 -0.019857291 7.071068e-011 7.071068e-011 7.071068e-011 7.071068e-011
7129729729.7297 0.0893865 0.014317418 0.016470956 0.012053959 7.071068e-011 7.071068e-011 7.071068e-011 7.071068e-011
7138138138.1381 0.043260418 -0.037829816 -0.017170474 0.01173167 7.071068e-011 7.071068e-011 7.071068e-011 7.071068e-011
7146546546.5465 -0.00050245825 0.013751989 -0.0058821547 -0.020115074 7.071068e-011 7.071068e-011 7.071068e-011 7.071068e-011
7154954954.955 0.030768428 0.04127742 0.020812554 0.00081825803 7.071068e-011 7.071068e-011 7.071068e-011 7.071068e-011
7163363363.3634 0.044895325 0.015642593 -0.0076310043 0.019118655 7.071068e-011 7.071068e-011 7.071068e-011 7.071068e-011
7171771771.7718 0.001113599 0.020345744 -0.015774135 -0.013457409 7.071068e-011 7.071068e-011 7.071068e-011 7.071068e-011
7180180180.1802 0.018565368 0.072585478 0.017608091 -0.010428472 7.071068e-011 7.071068e-011 7.071068e-011 7.071068e-011
7188588588.5886 0.067807354 0.056023937 0.0039165947 0.020449767 7.071068e-011 7.071068e-011 7.071068e-011 7.071068e-011
7196996996.997 0.039731752 0.010128433 -0.020619152 -0.0027075689 7.071068e-011 7.071068e-011 7.071068e-011 7.071068e-011
7205405405.4054 0.012374479 0.067261651 0.0095163463 -0.018021364 7.071068e-011 7.071068e-011 7.071068e-011 7.071068e-011
7213813813.8138 0.08331646 0.067112088 0.013875646 0.015173461 7.071068e-011 7.071068e-011 7.071068e-011 7.071068e-011
7222222222.2222 0.066061303 -0.0055486034 -0.018981239 0.0082575586 7.071068e-011 7.071068e-011 7.071068e-011 7.071068e-011
7230630630.6306 -0.0013030586 0.035310209 -0.0014765591 -0.020497885 7.071068e-011 7.071068e-011 7.071068e-011 7.071068e-011
7239039039.039 0.071695909 0.075512558 0.019969705 0.0058185668 7.071068e-011 7.071068e-011 7.071068e-011 7.071068e-011
7247447447.4474 0.075123154 -0.014931208 -0.01198768 0.017007129 7.071068e-011 7.071068e-011 7.071068e-011 7.071068e-011
7255855855.8559 -0.016667707 0.0075263339 -0.011631526 -0.017002529 7.071068e-011 7.071068e-011 7.071068e-011 7.071068e-011
7264264264.2643 0.035084639 0.084049255 0.02011901 -0.0053858943 7.071068e-011 7.071068e-011 7.071068e-011 7.071068e-011
7272672672.6727 0.074291766 0.0004617532 -0.0014817318 0.020546006 7.071068e-011 7.071068e-011 7.071068e-011 7.071068e-011
7281081081.0811 -0.029992716 0.00096438196 -0.018746272 -0.0084208222 7.071068e-011 7.071068e-011 7.071068e-011 7.071068e-011
7289489489.4895 0.00018472434 0.10766739 0.014677721 -0.014648065 7.071068e-011 7.071068e-011 7.071068e-011 7.071068e-011
7297897897.8979 0.084968828 0.05044622 0.0088395821 0.018819138 7.071068e-011 7.071068e-011 7.071068e-011 7.071068e-011
7306306306.3063 0.00088578294 0.0089538032 -0.020582838 0.0016178797 7.071068e-011 7.071068e-011 7.071068e-011 7.071068e-011
7314714714.7147 0.0042601465 0.11293977 0.0053621209 -0.020309057 7.071068e-011 7.071068e-011 7.071068e-011 7.071068e-011
7323123123.1231 0.11274832 0.07516221 0.017033109 0.011708099 7.071068e-011 7.071068e-011 7.071068e-011 7.071068e-011
7331531531.5315 0.051010914 -0.011814851 -0.017313289 0.011748731 7.071068e-011 7.071068e-011 7.071068e-011 7.071068e-011
7339939939.9399 0.0080187265 0.068842851 -0.0053593158 -0.020549223 7.071068e-011 7.071068e-011 7.071068e-011 7.071068e-011
7348348348.3483 0.10561288 0.063516736 0.020932557 0.0018896059 7.071068e-011 7.071068e-011 7.071068e-011 7.071068e-011
7356756756.7568 0.065975197 -0.037034549 -0.0091701644 0.018812202 7.071068e-011 7.071068e-011 7.071068e-011 7.071068e-011
7365165165.1652 -0.010196347 0.021063287 -0.014779302 -0.015171413 7.071068e-011 7.071068e-011 7.071068e-011 7.071068e-011
7373573573.5736 0.061706398 0.049736906 0.019003283 -0.0086045675 7.071068e-011 7.071068e-011 7.071068e-011 7.071068e-011
7381981981.982 0.043820553 -0.035485603 0.0011098477 0.021125149 7.071068e-011 7.071068e-011 7.071068e-011 7.071068e-011
7390390390.3904 -0.043123897 0.0098379133 -0.020352565 -0.0061216317 7.071068e-011 7.071068e-011 7.071068e-011 7.071068e-011
7398798798.7988 0.013144831 0.071178734 0.012863999 -0.016729871 7.071068e-011 7.071068e-011 7.071068e-011 7.071068e-011
7407207207.2072 0.027836872 0.0097136125 0.011229331 0.017966053 7.071068e-011 7.071068e-011 7.071068e-011 7.071068e-011
7415615615.6156 -0.041007575 0.035484068 -0.020872111 0.0044362964 7.071068e-011 7.071068e-011 7.071068e-011 7.071068e-011
7424024024.024 0.0069000018 0.10502626 0.0030185394 -0.021050699 7.071068e-011 7.071068e-011 7.071068e-011 7.071068e-011
7432432432.4324 0.054680567 0.054017235 0.018703314 0.01038193 7.071068e-011 7.071068e-011 7.071068e-011 7.071068e-011
7440840840.8408 0.0097136693 0.042409021 -0.016113058 0.014094319 7.071068e-011 7.071068e-011 7.071068e-011 7.071068e-011
7449249249.2492 0.030339805 0.087165944 -0.0073688924 -0.01986419 7.071068e-011 7.071068e-011 7.071068e-011 7.071068e-011
7457657657.6577 0.077966474 0.04889613 0.021264134 0.00012408329 7.071068e-011 7.071068e-011 7.071068e-011 7.071068e-011
7466066066.0661 0.041677583 0.014098682 -0.0074809971 0.0199605 7.071068e-011 7.071068e-011 7.071068e-011 7.071068e-011
7474474474.4745 0.030549387 0.03938603 -0.015970184 -0.013806022 7.071068e-011 7.071068e-011 7.071068e-011 7.071068e-011
7482882882.8829 0.059921961 0.029058183 0.018614266 -0.0098423846 7.071068e-011 7.071068e-011 7.071068e-011 7.071068e-011
7491291291.2913 0.038863044 -0.013407179 0.0026874174 0.020928495 7.071068e-011 7.071068e-011 7.071068e-011 7.071068e-011
7499699699.6997 -0.0033496937 0.0024637659 -0.020374442 -0.0048872186 7.071068e-011 7.071068e-011 7.071068e-011 7.071068e-011
7508108108.1081 0.0033626147 0.031949397 0.011715302 -0.017346706 7.071068e-011 7.071068e-011 7.071068e-011 7.071068e-011
7516516516.5165 0.019380519 0.011867553 0.012027139 0.016972005 7.071068e-011 7.071068e-011 7.071068e-011 7.071068e-011
7524924924.9249 -0.026468856 0.006635257 -0.020024179 0.0051108273 7.071068e-011 7.071068e-011 7.071068e-011 7.071068e-011
7533333333.3333 -0.029746583 0.066038571 0.002499315 -0.020506935 7.071068e-011 7.071068e-011 7.071068e-011 7.071068e-011
7541741741.7417 0.02788157 0.068794698 0.018271092 0.0094568068 7.071068e-011 7.071068e-011 7.071068e-011 7.071068e-011
7550150150.1502 0.012916093 0.020572165 -0.015197038 0.013245651 7.071068e-011 7.071068e-011 7.071068e-011 7.071068e-011
7558558558.5586 -0.015307001 0.068553485 -0.0068873041 -0.019027241 7.071068e-011 7.071068e-011 7.071068e-011 7.071068e-011
7566966966.967 0.055703189 0.078044325 0.020000309 0.00045522445 7.071068e-011 7.071068e-011 7.071068e-011 7.071068e-011
7575375375.3754 0.053471997 0.00090246962 -0.0078888359 0.018471204 7.071068e-011 7.071068e-011 7.071068e-011 7.071068e-011
7583783783.7838 -0.011891503 0.024150915 -0.014422446 -0.014057313 7.071068e-011 7.071068e-011 7.071068e-011 7.071068e-011
7592192192.1922 0.045613971 0.060595099 0.017995831 -0.008338863 7.071068e-011 7.071068e-011 7.071068e-011 7.071068e-011
7600600600.6006 0.051693697 -0.02442671 0.00089410483 0.01948528 7.071068e-011 7.071068e-011 7.071068e-011 7.071068e-011
7609009009.009 -0.038019098 -0.010674777 -0.018890558 -0.0065092486 7.071068e-011 7.071068e-011 7.071068e-011 7.071068e-011
7617417417.4174 -0.0050463253 0.058137041 0.012604669 -0.01533551 7.071068e-011 7.071068e-011 7.071068e-011 7.071068e-011
7625825825.8258 0.026362646 -0.0042006476 0.0094442219 0.017388418 7.071068e-011 7.071068e-011 7.071068e-011 7.071068e-011
7634234234.2342 -0.060719829 0.0040710755 -0.019544529 0.002473803 7.071068e-011 7.071068e-011 7.071068e-011 7.071068e-011
7642642642.6426 -0.026478572 0.091696158 0.004964401 -0.018907038 7.071068e-011 7.071068e-011 7.071068e-011 7.071068e-011
7651051051.0511 0.037536077 0.042366326 0.015763922 0.011687269 7.071068e-011 7.071068e-011 7.071068e-011 7.071068e-011
7659459459.4595 -0.029924257 0.018188365 -0.016764382 0.010687097 7.071068e-011 7.071068e-011 7.071068e-011 7.071068e-011
7667867867.8679 -0.01146859 0.1025211 -0.0039177262 -0.019115185 7.071068e-011 7.071068e-011 7.071068e-011 7.071068e-011
7676276276.2763 0.07386981 0.058913089 0.019099357 0.003941793 7.071068e-011 7.071068e-011 7.071068e-011 7.071068e-011
7684684684.6847 0.021314679 -0.0039001438 -0.010749823 0.016631667 7.071068e-011 7.071068e-011 7.071068e-011 7.071068e-011
7693093093.0931 0.00070519297 0.054479446 -0.011501913 -0.015951583 7.071068e-011 7.071068e-011 7.071068e-011 7.071068e-011
7701501501.5015 0.071132757 0.032522921 0.01901993 -0.0048566884 7.071068e-011 7.071068e-011 7.071068e-011 7.071068e-011
7709909909.9099 0.023255711 -0.042517334 -0.0025837747 0.019519776 7.071068e-011 7.071068e-011 7.071068e-011 7.071068e-011
7718318318.3183 -0.033161353 0.010964004 -0.017231988 -0.0095706005 7.071068e-011 7.071068e-011 7.071068e-011 7.071068e-011
7726726726.7267 0.024506329 0.027763516 0.015432382 -0.012261044 7.071068e-011 7.071068e-011 7.071068e-011 7.071068e-011
7735135135.1351 0.0027866012 -0.041338183 0.0059644529 0.018951679 7.071068e-011 7.071068e-011 7.071068e-011 7.071068e-011
7743543543.5435 -0.075019978 -0.00014420404 -0.01954022 -0.0014287365 7.071068e-011 7.071068e-011 7.071068e-011 7.071068e-011
7751951951.952 -0.030326983 0.064316437 0.0087040812 -0.017704858 7.071068e-011 7.071068e-011 7.071068e-011 7.071068e-011
7760360360.3604 -0.0026401435 0.017393753 0.013279463 0.01464406 7.071068e-011 7.071068e-011 7.071068e-011 7.071068e-011
7768768768.7688 -0.058374438 0.02846062 -0.01858205 0.0069026588 7.071068e-011 7.071068e-011 7.071068e-011 7.071068e-011
7777177177.1772 -0.027208727 0.095601842 0.00056160247 -0.019727616 7.071068e-011 7.071068e-011 7.071068e-011 7.071068e-011
7785585585.5856 0.033869106 0.057959408 0.01814731 0.0077908151 7.071068e-011 7.071068e-011 7.071068e-011 7.071068e-011
7793993993.994 -0.0056370189 0.027811358 -0.013889316 0.013721381 7.071068e-011 7.071068e-011 7.071068e-011 7.071068e-011
7802402402.4024 -0.00042557283 0.074958496 -0.0076062302 -0.018367503 7.071068e-011 7.071068e-011 7.071068e-011 7.071068e-011
7810810810.8108 0.05802891 0.048886027 0.019781129 -0.00048519575 7.071068e-011 7.071068e-011 7.071068e-011 7.071068e-011
7819219219.2192 0.025992585 -0.0064270985 -0.0071129175 0.018355111 7.071068e-011 7.071068e-011 7.071068e-011 7.071068e-011
7827627627.6276 -0.003640759 0.026885234 -0.014433514 -0.013439696 7.071068e-011 7.071068e-011 7.071068e-011 7.071068e-011
7836036036.036 0.03755518 0.025773071 0.017836958 -0.0083778454 7.071068e-011 7.071068e-011 7.071068e-011 7.071068e-011
7844444444.4444 0.016512388 -0.023808593 0.0011502496 0.019724572 7.071068e-011 7.071068e-011 7.071068e-011 7.071068e-011
7852852852.8529 -0.028295746 0.0030595525 -0.018809479 -0.0063256947 7.071068e-011 7.071068e-011 7.071068e-011 7.071068e-011
7861261261.2613 0.001756564 0.029510528 0.012749457 -0.015074362 7.071068e-011 7.071068e-011 7.071068e-011 7.071068e-011
7869669669.6697 0.0054599536 -0.0092774313 0.0090466104 0.017550027 7.071068e-011 7.071068e-011 7.071068e-011 7.071068e-011
7878078078.0781 -0.040419854 0.0034309819 -0.019814504 0.0019950643 7.071068e-011 7.071068e-011 7.071068e-011 7.071068e-011
7886486486.4865 -0.024396662 0.046949528 0.00535561 -0.019035028 7.071068e-011 7.071068e-011 7.071068e-011 7.071068e-011
7894894894.8949 0.010931253 0.030266616 0.015433714 0.011968682 7.071068e-011 7.071068e-011 7.071068e-011 7.071068e-011
7903303303.3033 -0.013550583 0.011091268 -0.017083557 0.0097255111 7.071068e-011 7.071068e-011 7.071068e-011 7.071068e-011
7911711711.7117 -0.017840885 0.043993548 -0.0027981093 -0.019490976 7.071068e-011 7.071068e-011 7.071068e-011 7.071068e-011
7920120120.1201 0.023127176 0.044882227 0.0189139 0.004696127 7.071068e-011 7.071068e-011 7.071068e-011 7.071068e-011
7928528528.5285 0.023582673 0.0019424132 -0.011437488 0.015749594 7.071068e-011 7.071068e-011 7.071068e-011 7.071068e-011
7936936936.9369 -0.0099661034 0.011222237 -0.010186576 -0.016376233 7.071068e-011 7.071068e-011 7.071068e-011 7.071068e-011
7945345345.3453 0.017869113 0.032124981 0.019024951 -0.0031189886 7.071068e-011 7.071068e-011 7.071068e-011 7.071068e-011
