!Keysight Technologies,N5235B,MY61252044,A.15.00.15
!Date: Saturday, January 21, 2023 00:05:33
!Correction: S11(Off) 
!S21(Off) 
!S12(Off) 
!S22(Off) 
!S2P File: Measurements: S11, S21, S12, S22:
# Hz S  RI   R 50
6600000000 0.018830694 -0.17532322 0.015260336 -0.0030146283 7.071068e-011 7.071068e-011 7.071068e-011 7.071068e-011
6608408408.4084 -0.1248822 0.16488062 0.0052375332 0.010708304 7.071068e-011 7.071068e-011 7.071068e-011 7.071068e-011
6616816816.8168 0.30552787 0.093503825 -0.0088106571 0.0036441351 7.071068e-011 7.071068e-011 7.071068e-011 7.071068e-011
6625225225.2252 0.025601516 -0.27302513 -0.0017573657 -0.0091954898 7.071068e-011 7.071068e-011 7.071068e-011 7.071068e-011
6633633633.6336 -0.16630656 0.16069053 0.0092241298 -0.00037719979 7.071068e-011 7.071068e-011 7.071068e-011 7.071068e-011
6642042042.042 0.28962576 0.11384378 -0.0018493746 0.0092035625 7.071068e-011 7.071068e-011 7.071068e-011 7.071068e-011
6650450450.4505 0.039726518 -0.25200483 -0.010597474 -0.0040700193 7.071068e-011 7.071068e-011 7.071068e-011 7.071068e-011
6658858858.8589 -0.14849612 0.13377275 0.0059328773 -0.011369434 7.071068e-011 7.071068e-011 7.071068e-011 7.071068e-011
6667267267.2673 0.22791208 0.10162655 0.012077574 0.0090844035 7.071068e-011 7.071068e-011 7.071068e-011 7.071068e-011
6675675675.6757 0.043570358 -0.15078552 -0.011405671 0.013684105 7.071068e-011 7.071068e-011 7.071068e-011 7.071068e-011
6684084084.0841 -0.044667713 0.083480269 -0.014432332 -0.013173625 7.071068e-011 7.071068e-011 7.071068e-011 7.071068e-011
6692492492.4925 0.10584308 0.047957659 0.014630474 -0.014702988 7.071068e-011 7.071068e-011 7.071068e-011 7.071068e-011
6700900900.9009 0.08567474 0.01817525 0.014542113 0.015252606 7.071068e-011 7.071068e-011 7.071068e-011 7.071068e-011
6709309309.3093 0.077777721 -0.041614108 -0.015407777 0.012919652 7.071068e-011 7.071068e-011 7.071068e-011 7.071068e-011
6717717717.7177 -0.031540863 0.033761855 -0.010001121 -0.0163242 7.071068e-011 7.071068e-011 7.071068e-011 7.071068e-011
6726126126.1261 0.15487424 0.11685625 0.01663089 -0.0069912625 7.071068e-011 7.071068e-011 7.071068e-011 7.071068e-011
6734534534.5345 0.12906338 -0.14069742 0.003509406 0.016056994 7.071068e-011 7.071068e-011 7.071068e-011 7.071068e-011
6742942942.9429 -0.10793624 0.026286896 -0.015728595 -0.00028291202 7.071068e-011 7.071068e-011 7.071068e-011 7.071068e-011
6751351351.3514 0.17099702 0.15269046 0.0035858776 -0.015185958 7.071068e-011 7.071068e-011 7.071068e-011 7.071068e-011
6759759759.7598 0.15112939 -0.1709401 0.013016157 0.0069990861 7.071068e-011 7.071068e-011 7.071068e-011 7.071068e-011
6768168168.1682 -0.14662835 -0.0064215488 -0.010740942 0.010270402 7.071068e-011 7.071068e-011 7.071068e-011 7.071068e-011
6776576576.5766 0.13307036 0.17933011 -0.0078845648 -0.013324194 7.071068e-011 7.071068e-011 7.071068e-011 7.071068e-011
6784984984.985 0.15204838 -0.14574774 0.014395141 -0.0039405534 7.071068e-011 7.071068e-011 7.071068e-011 7.071068e-011
6793393393.3934 -0.14752665 -0.0073225466 -0.00037744365 0.015342087 7.071068e-011 7.071068e-011 7.071068e-011 7.071068e-011
6801801801.8018 0.10108472 0.2028946 -0.015534913 -0.0042824717 7.071068e-011 7.071068e-011 7.071068e-011 7.071068e-011
6810210210.2102 0.17262834 -0.09450791 0.008610039 -0.01426193 7.071068e-011 7.071068e-011 7.071068e-011 7.071068e-011
6818618618.6186 -0.10486317 -0.010752284 0.011998133 0.013112704 7.071068e-011 7.071068e-011 7.071068e-011 7.071068e-011
6827027027.027 0.087103747 0.18522044 -0.015792809 0.0090933377 7.071068e-011 7.071068e-011 7.071068e-011 7.071068e-011
6835435435.4354 0.18172663 -0.047961537 -0.0044167591 -0.017691921 7.071068e-011 7.071068e-011 7.071068e-011 7.071068e-011
6843843843.8438 -0.045023292 -0.028805744 0.019922879 0.00026794645 7.071068e-011 7.071068e-011 7.071068e-011 7.071068e-011
6852252252.2523 0.074108519 0.12955007 -0.0045634876 0.020039471 7.071068e-011 7.071068e-011 7.071068e-011 7.071068e-011
6860660660.6607 0.14546752 -0.020245584 -0.018357046 -0.0095423805 7.071068e-011 7.071068e-011 7.071068e-011 7.071068e-011
6869069069.0691 0.0040893396 -0.026981255 0.014402254 -0.015874218 7.071068e-011 7.071068e-011 7.071068e-011 7.071068e-011
6877477477.4775 0.054153554 0.072260752 0.012512221 0.01792437 7.071068e-011 7.071068e-011 7.071068e-011 7.071068e-011
6885885885.8859 0.089989133 0.0071470626 -0.020245055 0.0075950581 7.071068e-011 7.071068e-011 7.071068e-011 7.071068e-011
6894294294.2943 0.047722459 -0.00096109376 -0.0022629078 -0.021770025 7.071068e-011 7.071068e-011 7.071068e-011 7.071068e-011
6902702702.7027 0.037881665 0.019110899 0.021725301 0.003223099 7.071068e-011 7.071068e-011 7.071068e-011 7.071068e-011
6911111111.1111 0.031223856 0.037898634 -0.0087015284 0.019943295 7.071068e-011 7.071068e-011 7.071068e-011 7.071068e-011
6919519519.5195 0.07797958 0.049736116 -0.016702933 -0.01349965 7.071068e-011 7.071068e-011 7.071068e-011 7.071068e-011
6927927927.9279 0.05111099 -0.012030718 0.017079087 -0.012583009 7.071068e-011 7.071068e-011 7.071068e-011 7.071068e-011
6936336336.3363 -0.0023490121 0.061615057 0.0071449964 0.019283436 7.071068e-011 7.071068e-011 7.071068e-011 7.071068e-011
6944744744.7447 0.11220927 0.089916684 -0.020620288 0.0010974607 7.071068e-011 7.071068e-011 7.071068e-011 7.071068e-011
6953153153.1532 0.084769979 -0.045749411 0.004461647 -0.019775422 7.071068e-011 7.071068e-011 7.071068e-011 7.071068e-011
6961561561.5616 -0.028682658 0.054328736 0.017130723 0.0098505877 7.071068e-011 7.071068e-011 7.071068e-011 7.071068e-011
6969969969.97 0.12470163 0.10596543 -0.014352861 0.013365846 7.071068e-011 7.071068e-011 7.071068e-011 7.071068e-011
6978378378.3784 0.10166653 -0.070594132 -0.0082503268 -0.017171325 7.071068e-011 7.071068e-011 7.071068e-011 7.071068e-011
6986786786.7868 -0.063724674 0.032398697 0.018511312 -0.0022078697 7.071068e-011 7.071068e-011 7.071068e-011 7.071068e-011
6995195195.1952 0.10232016 0.13392319 -0.0035612753 0.018690543 7.071068e-011 7.071068e-011 7.071068e-011 7.071068e-011
7003603603.6036 0.10945574 -0.057419665 -0.016399261 -0.0088510327 7.071068e-011 7.071068e-011 7.071068e-011 7.071068e-011
7012012012.012 -0.072746344 0.031773403 0.013997295 -0.012308215 7.071068e-011 7.071068e-011 7.071068e-011 7.071068e-011
7020420420.4204 0.08767812 0.16184773 0.00767997 0.017155629 7.071068e-011 7.071068e-011 7.071068e-011 7.071068e-011
7028828828.8288 0.13297398 -0.029024825 -0.018329544 0.0017840177 7.071068e-011 7.071068e-011 7.071068e-011 7.071068e-011
7037237237.2372 -0.054020725 0.03057793 0.0043969499 -0.018430753 7.071068e-011 7.071068e-011 7.071068e-011 7.071068e-011
7045645645.6456 0.08992485 0.17075087 0.016249323 0.0097099217 7.071068e-011 7.071068e-011 7.071068e-011 7.071068e-011
7054054054.0541 0.16744532 -0.0027033025 -0.01452187 0.011884332 7.071068e-011 7.071068e-011 7.071068e-011 7.071068e-011
7062462462.4625 -0.0075790468 -0.0042337598 -0.0067198006 -0.018268444 7.071068e-011 7.071068e-011 7.071068e-011 7.071068e-011
7070870870.8709 0.077639401 0.1401788 0.019539999 -0.0011406689 7.071068e-011 7.071068e-011 7.071068e-011 7.071068e-011
7079279279.2793 0.16866428 0.0079066111 -0.0055323886 0.018562883 7.071068e-011 7.071068e-011 7.071068e-011 7.071068e-011
7087687687.6877 0.032568414 -0.027472498 -0.016427901 -0.011409205 7.071068e-011 7.071068e-011 7.071068e-011 7.071068e-011
7096096096.0961 0.059371796 0.089482293 0.015807869 -0.012311932 7.071068e-011 7.071068e-011 7.071068e-011 7.071068e-011
7104504504.5045 0.14777261 0.01028211 0.006428679 0.018957345 7.071068e-011 7.071068e-011 7.071068e-011 7.071068e-011
7112912912.9129 0.050914254 -0.044433605 -0.020430313 -0.00015298973 7.071068e-011 7.071068e-011 7.071068e-011 7.071068e-011
7121321321.3213 0.034516659 0.031547021 0.0062594023 -0.019621551 7.071068e-011 7.071068e-011 7.071068e-011 7.071068e-011
7129729729.7297 0.088889562 0.014703009 0.016248483 0.011956448 7.071068e-011 7.071068e-011 7.071068e-011 7.071068e-011
7138138138.1381 0.043913424 -0.03772264 -0.016992578 0.011536184 7.071068e-011 7.071068e-011 7.071068e-011 7.071068e-011
7146546546.5465 -0.00088528835 0.01332543 -0.005733707 -0.019888483 7.071068e-011 7.071068e-011 7.071068e-011 7.071068e-011
7154954954.955 0.030854519 0.041620325 0.020553622 0.00090470753 7.071068e-011 7.071068e-011 7.071068e-011 7.071068e-011
7163363363.3634 0.044766925 0.015531532 -0.0076406775 0.018866597 7.071068e-011 7.071068e-011 7.071068e-011 7.071068e-011
7171771771.7718 0.0014097776 0.020523826 -0.015548987 -0.013388869 7.071068e-011 7.071068e-011 7.071068e-011 7.071068e-011
7180180180.1802 0.018325301 0.072131984 0.017470356 -0.010253417 7.071068e-011 7.071068e-011 7.071068e-011 7.071068e-011
7188588588.5886 0.067632295 0.056600269 0.0038117396 0.020246971 7.071068e-011 7.071068e-011 7.071068e-011 7.071068e-011
7196996996.997 0.040249601 0.0098652327 -0.020385975 -0.0027396167 7.071068e-011 7.071068e-011 7.071068e-011 7.071068e-011
7205405405.4054 0.011910873 0.067090988 0.0094581824 -0.017786635 7.071068e-011 7.071068e-011 7.071068e-011 7.071068e-011
7213813813.8138 0.083443604 0.067378245 0.013658114 0.015033241 7.071068e-011 7.071068e-011 7.071068e-011 7.071068e-011
7222222222.2222 0.066036649 -0.0055711404 -0.018781738 0.0080810655 7.071068e-011 7.071068e-011 7.071068e-011 7.071068e-011
7230630630.6306 -0.0010002512 0.035164401 -0.0013587152 -0.020267701 7.071068e-011 7.071068e-011 7.071068e-011 7.071068e-011
7239039039.039 0.071108267 0.075363815 0.019726021 0.0058463402 7.071068e-011 7.071068e-011 7.071068e-011 7.071068e-011
7247447447.4474 0.075535469 -0.014307921 -0.01193477 0.016777787 7.071068e-011 7.071068e-011 7.071068e-011 7.071068e-011
7255855855.8559 -0.01650957 0.0067624403 -0.011446792 -0.016870013 7.071068e-011 7.071068e-011 7.071068e-011 7.071068e-011
7264264264.2643 0.034478996 0.084394433 0.019920617 -0.0052640243 7.071068e-011 7.071068e-011 7.071068e-011 7.071068e-011
7272672672.6727 0.074749835 0.00064511859 -0.0015337466 0.020315852 7.071068e-011 7.071068e-011 7.071068e-011 7.071068e-011
7281081081.0811 -0.030010071 0.00073055777 -0.018499378 -0.0083928499 7.071068e-011 7.071068e-011 7.071068e-011 7.071068e-011
7289489489.4895 6.4023567e-005 0.10751496 0.014565404 -0.014422424 7.071068e-011 7.071068e-011 7.071068e-011 7.071068e-011
7297897897.8979 0.084662214 0.050816555 0.008656458 0.018644387 7.071068e-011 7.071068e-011 7.071068e-011 7.071068e-011
7306306306.3063 0.001581094 0.0089680916 -0.020368649 0.0015068211 7.071068e-011 7.071068e-011 7.071068e-011 7.071068e-011
7314714714.7147 0.0037284163 0.11230392 0.0053862683 -0.020074189 7.071068e-011 7.071068e-011 7.071068e-011 7.071068e-011
7323123123.1231 0.11262958 0.075974599 0.016809288 0.011646873 7.071068e-011 7.071068e-011 7.071068e-011 7.071068e-011
7331531531.5315 0.05158871 -0.012220476 -0.017167306 0.011560002 7.071068e-011 7.071068e-011 7.071068e-011 7.071068e-011
7339939939.9399 0.0075913994 0.068726443 -0.0052304445 -0.020338323 7.071068e-011 7.071068e-011 7.071068e-011 7.071068e-011
7348348348.3483 0.10560431 0.063644283 0.020685354 0.0019459696 7.071068e-011 7.071068e-011 7.071068e-011 7.071068e-011
7356756756.7568 0.066072658 -0.036810476 -0.0091471272 0.018560473 7.071068e-011 7.071068e-011 7.071068e-011 7.071068e-011
7365165165.1652 -0.0099306218 0.020635175 -0.014548543 -0.015063952 7.071068e-011 7.071068e-011 7.071068e-011 7.071068e-011
7373573573.5736 0.061023187 0.049804371 0.018837899 -0.0084292972 7.071068e-011 7.071068e-011 7.071068e-011 7.071068e-011
7381981981.982 0.044360608 -0.034970216 0.0010110545 0.02090721 7.071068e-011 7.071068e-011 7.071068e-011 7.071068e-011
7390390390.3904 -0.043152038 0.0090984153 -0.020111136 -0.0061346665 7.071068e-011 7.071068e-011 7.071068e-011 7.071068e-011
7398798798.7988 0.012738047 0.071643189 0.012790447 -0.016501084 7.071068e-011 7.071068e-011 7.071068e-011 7.071068e-011
7407207207.2072 0.028184323 0.0096506914 0.011039129 0.017815584 7.071068e-011 7.071068e-011 7.071068e-011 7.071068e-011
7415615615.6156 -0.041071668 0.035455246 -0.020661982 0.0043094587 7.071068e-011 7.071068e-011 7.071068e-011 7.071068e-011
7424024024.024 0.0068774414 0.10481078 0.0030677046 -0.020808319 7.071068e-011 7.071068e-011 7.071068e-011 7.071068e-011
7432432432.4324 0.054426283 0.054341115 0.018457057 0.010339588 7.071068e-011 7.071068e-011 7.071068e-011 7.071068e-011
7440840840.8408 0.010259189 0.042323448 -0.01598859 0.013871324 7.071068e-011 7.071068e-011 7.071068e-011 7.071068e-011
7449249249.2492 0.029857269 0.086801611 -0.007207592 -0.019673698 7.071068e-011 7.071068e-011 7.071068e-011 7.071068e-011
7457657657.6577 0.078090787 0.049439713 0.021026958 0.00021248235 7.071068e-011 7.071068e-011 7.071068e-011 7.071068e-011
7466066066.0661 0.041844558 0.013665295 -0.007485928 0.019711284 7.071068e-011 7.071068e-011 7.071068e-011 7.071068e-011
7474474474.4745 0.03035472 0.039562285 -0.015741587 -0.013726625 7.071068e-011 7.071068e-011 7.071068e-011 7.071068e-011
7482882882.8829 0.059959084 0.028883738 0.018460967 -0.0096608736 7.071068e-011 7.071068e-011 7.071068e-011 7.071068e-011
7491291291.2913 0.038752642 -0.013102134 0.0025785209 0.020719789 7.071068e-011 7.071068e-011 7.071068e-011 7.071068e-011
7499699699.6997 -0.0030013109 0.0021760126 -0.020143282 -0.0049102264 7.071068e-011 7.071068e-011 7.071068e-011 7.071068e-011
7508108108.1081 0.0028441444 0.031904634 0.011656468 -0.017116543 7.071068e-011 7.071068e-011 7.071068e-011 7.071068e-011
7516516516.5165 0.019693639 0.012240629 0.011833206 0.016830843 7.071068e-011 7.071068e-011 7.071068e-011 7.071068e-011
7524924924.9249 -0.026458306 0.0062318225 -0.019819902 0.0049782163 7.071068e-011 7.071068e-011 7.071068e-011 7.071068e-011
7533333333.3333 -0.029863607 0.066220909 0.0025648139 -0.02026701 7.071068e-011 7.071068e-011 7.071068e-011 7.071068e-011
7541741741.7417 0.027822986 0.068672985 0.018028749 0.0094354041 7.071068e-011 7.071068e-011 7.071068e-011 7.071068e-011
7550150150.1502 0.01305519 0.020915493 -0.015097125 0.013036664 7.071068e-011 7.071068e-011 7.071068e-011 7.071068e-011
7558558558.5586 -0.015163855 0.067997411 -0.0067273662 -0.018867081 7.071068e-011 7.071068e-011 7.071068e-011 7.071068e-011
7566966966.967 0.055158693 0.078389429 0.01979512 0.00052952935 7.071068e-011 7.071068e-011 7.071068e-011 7.071068e-011
7575375375.3754 0.054090008 0.0010460486 -0.007875694 0.018251127 7.071068e-011 7.071068e-011 7.071068e-011 7.071068e-011
7583783783.7838 -0.012146218 0.023650099 -0.014213977 -0.013962766 7.071068e-011 7.071068e-011 7.071068e-011 7.071068e-011
7592192192.1922 0.045452647 0.060947172 0.017827768 -0.0081806909 7.071068e-011 7.071068e-011 7.071068e-011 7.071068e-011
7600600600.6006 0.051860008 -0.024467805 0.00080776477 0.019266585 7.071068e-011 7.071068e-011 7.071068e-011 7.071068e-011
7609009009.009 -0.037903897 -0.010721696 -0.018649783 -0.0065276874 7.071068e-011 7.071068e-011 7.071068e-011 7.071068e-011
7617417417.4174 -0.0053069815 0.057834491 0.012541008 -0.015111931 7.071068e-011 7.071068e-011 7.071068e-011 7.071068e-011
7625825825.8258 0.026299004 -0.0036120107 0.0092751347 0.01725274 7.071068e-011 7.071068e-011 7.071068e-011 7.071068e-011
7634234234.2342 -0.060148519 0.0036134655 -0.019356398 0.0023670325 7.071068e-011 7.071068e-011 7.071068e-011 7.071068e-011
7642642642.6426 -0.027218517 0.091572449 0.0049824184 -0.018690506 7.071068e-011 7.071068e-011 7.071068e-011 7.071068e-011
7651051051.0511 0.037904076 0.042902254 0.015549264 0.011615319 7.071068e-011 7.071068e-011 7.071068e-011 7.071068e-011
7659459459.4595 -0.029807756 0.017736595 -0.016622161 0.010495878 7.071068e-011 7.071068e-011 7.071068e-011 7.071068e-011
7667867867.8679 -0.011675458 0.10255518 -0.0037885325 -0.018920811 7.071068e-011 7.071068e-011 7.071068e-011 7.071068e-011
7676276276.2763 0.073773414 0.059001178 0.018877609 0.0039870478 7.071068e-011 7.071068e-011 7.071068e-011 7.071068e-011
7684684684.6847 0.021583999 -0.0037139666 -0.01071459 0.016410602 7.071068e-011 7.071068e-011 7.071068e-011 7.071068e-011
7693093093.0931 0.00071567215 0.053931471 -0.011314851 -0.01584097 7.071068e-011 7.071068e-011 7.071068e-011 7.071068e-011
7701501501.5015 0.070616797 0.032932248 0.018845867 -0.0047370489 7.071068e-011 7.071068e-011 7.071068e-011 7.071068e-011
7709909909.9099 0.02396398 -0.042452503 -0.0026267355 0.019303884 7.071068e-011 7.071068e-011 7.071068e-011 7.071068e-011
7718318318.3183 -0.033572841 0.010430008 -0.017007979 -0.0095293829 7.071068e-011 7.071068e-011 7.071068e-011 7.071068e-011
7726726726.7267 0.024448216 0.028219037 0.015306905 -0.01206003 7.071068e-011 7.071068e-011 7.071068e-011 7.071068e-011
7735135135.1351 0.0029408147 -0.04144365 0.0058136978 0.018762993 7.071068e-011 7.071068e-011 7.071068e-011 7.071068e-011
7743543543.5435 -0.074898757 -0.00018566099 -0.019314656 -0.0015111592 7.071068e-011 7.071068e-011 7.071068e-011 7.071068e-011
7751951951.952 -0.030599199 0.064057425 0.0087012378 -0.01747627 7.071068e-011 7.071068e-011 7.071068e-011 7.071068e-011
7760360360.3604 -0.0026798842 0.017921461 0.01307433 0.014559272 7.071068e-011 7.071068e-011 7.071068e-011 7.071068e-011
7768768768.7688 -0.057872023 0.02809291 -0.0184283 0.0067544617 7.071068e-011 7.071068e-011 7.071068e-011 7.071068e-011
7777177177.1772 -0.02782795 0.095456511 0.00062747102 -0.019524634 7.071068e-011 7.071068e-011 7.071068e-011 7.071068e-011
7785585585.5856 0.034180753 0.058416311 0.017928133 0.0077716024 7.071068e-011 7.071068e-011 7.071068e-011 7.071068e-011
7793993993.994 -0.0055803373 0.027403196 -0.013782378 0.013517397 7.071068e-011 7.071068e-011 7.071068e-011 7.071068e-011
7802402402.4024 -0.00051001483 0.075062335 -0.0074480143 -0.018186165 7.071068e-011 7.071068e-011 7.071068e-011 7.071068e-011
7810810810.8108 0.057905011 0.048794791 0.01955492 -0.00038960887 7.071068e-011 7.071068e-011 7.071068e-011 7.071068e-011
7819219219.2192 0.026180588 -0.006128394 -0.0071262303 0.018112158 7.071068e-011 7.071068e-011 7.071068e-011 7.071068e-011
7827627627.6276 -0.0035286869 0.02637022 -0.014210504 -0.013370981 7.071068e-011 7.071068e-011 7.071068e-011 7.071068e-011
7836036036.036 0.037070379 0.02606108 0.017697997 -0.0082039209 7.071068e-011 7.071068e-011 7.071068e-011 7.071068e-011
7844444444.4444 0.017047428 -0.023700738 0.0010519397 0.019532548 7.071068e-011 7.071068e-011 7.071068e-011 7.071068e-011
7852852852.8529 -0.02857458 0.0026575623 -0.018593447 -0.0063371719 7.071068e-011 7.071068e-011 7.071068e-011 7.071068e-011
7861261261.2613 0.0017357764 0.02981665 0.012674456 -0.014867874 7.071068e-011 7.071068e-011 7.071068e-011 7.071068e-011
7869669669.6697 0.0054797609 -0.0093925288 0.0088797715 0.017391728 7.071068e-011 7.071068e-011 7.071068e-011 7.071068e-011
7878078078.0781 -0.040279262 0.0035536783 -0.019597175 0.001893634 7.071068e-011 7.071068e-011 7.071068e-011 7.071068e-011
7886486486.4865 -0.024486704 0.046557065 0.005378528 -0.018792013 7.071068e-011 7.071068e-011 7.071068e-011 7.071068e-011
7894894894.8949 0.010692381 0.030704135 0.015200586 0.011907854 7.071068e-011 7.071068e-011 7.071068e-011 7.071068e-011
7903303303.3033 -0.013030678 0.010913425 -0.016941436 0.0095325354 7.071068e-011 7.071068e-011 7.071068e-011 7.071068e-011
7911711711.7117 -0.018259276 0.043775897 -0.0026718252 -0.019297184 7.071068e-011 7.071068e-011 7.071068e-011 7.071068e-011
7920120120.1201 0.023280792 0.045156579 0.018691096 0.0047385506 7.071068e-011 7.071068e-011 7.071068e-011 7.071068e-011
7928528528.5285 0.023558808 0.0017927551 -0.01139017 0.015537786 7.071068e-011 7.071068e-011 7.071068e-011 7.071068e-011
7936936936.9369 -0.0098087201 0.011276327 -0.010010757 -0.016247746 7.071068e-011 7.071068e-011 7.071068e-011 7.071068e-011
7945345345.3453 0.017627951 0.031826302 0.018833339 -0.0030070036 7.071068e-011 7.071068e-011 7.071068e-011 7.071068e-011
