!Keysight Technologies,N5235B,MY61252044,A.15.00.15
!Date: Friday, January 20, 2023 22:51:24
!Correction: S11(Off) 
!S21(Off) 
!S12(Off) 
!S22(Off) 
!S2P File: Measurements: S11, S21, S12, S22:
# Hz S  RI   R 50
6600000000 0.017891441 -0.17498907 0.015416477 -0.0030279993 7.071068e-011 7.071068e-011 7.071068e-011 7.071068e-011
6608408408.4084 -0.12401266 0.16609775 0.0052902368 0.010807219 7.071068e-011 7.071068e-011 7.071068e-011 7.071068e-011
6616816816.8168 0.30625167 0.091964744 -0.0088847913 0.0036828425 7.071068e-011 7.071068e-011 7.071068e-011 7.071068e-011
6625225225.2252 0.023777969 -0.27293846 -0.0017775116 -0.0092763454 7.071068e-011 7.071068e-011 7.071068e-011 7.071068e-011
6633633633.6336 -0.16528876 0.16217586 0.0093059689 -0.00038974101 7.071068e-011 7.071068e-011 7.071068e-011 7.071068e-011
6642042042.042 0.29036337 0.11242604 -0.0018522453 0.0092881406 7.071068e-011 7.071068e-011 7.071068e-011 7.071068e-011
6650450450.4505 0.038271446 -0.25211173 -0.010690724 -0.0040846351 7.071068e-011 7.071068e-011 7.071068e-011 7.071068e-011
6658858858.8589 -0.14800799 0.13505454 0.0059622587 -0.011462062 7.071068e-011 7.071068e-011 7.071068e-011 7.071068e-011
6667267267.2673 0.22880548 0.10070494 0.012168841 0.0091418531 7.071068e-011 7.071068e-011 7.071068e-011 7.071068e-011
6675675675.6757 0.042421665 -0.1511188 -0.011496536 0.013784818 7.071068e-011 7.071068e-011 7.071068e-011 7.071068e-011
6684084084.0841 -0.044330388 0.084432624 -0.014547676 -0.013301494 7.071068e-011 7.071068e-011 7.071068e-011 7.071068e-011
6692492492.4925 0.10608242 0.047441307 0.014770529 -0.014857673 7.071068e-011 7.071068e-011 7.071068e-011 7.071068e-011
6700900900.9009 0.085797213 0.018107619 0.014704936 0.015378743 7.071068e-011 7.071068e-011 7.071068e-011 7.071068e-011
6709309309.3093 0.077136919 -0.041785445 -0.015519383 0.013062612 7.071068e-011 7.071068e-011 7.071068e-011 7.071068e-011
6717717717.7177 -0.031164899 0.034559269 -0.010114676 -0.016439466 7.071068e-011 7.071068e-011 7.071068e-011 7.071068e-011
6726126126.1261 0.15539603 0.11610118 0.016759278 -0.0070651202 7.071068e-011 7.071068e-011 7.071068e-011 7.071068e-011
6734534534.5345 0.12816843 -0.14089552 0.0035539542 0.01618644 7.071068e-011 7.071068e-011 7.071068e-011 7.071068e-011
6742942942.9429 -0.10781584 0.027218858 -0.015865322 -0.00026857803 7.071068e-011 7.071068e-011 7.071068e-011 7.071068e-011
6751351351.3514 0.17193958 0.1522263 0.0036015594 -0.015321351 7.071068e-011 7.071068e-011 7.071068e-011 7.071068e-011
6759759759.7598 0.15020315 -0.17176217 0.01314285 0.0070405616 7.071068e-011 7.071068e-011 7.071068e-011 7.071068e-011
6768168168.1682 -0.14690852 -0.0050218194 -0.010820447 0.010378839 7.071068e-011 7.071068e-011 7.071068e-011 7.071068e-011
6776576576.5766 0.13446353 0.17875981 -0.0079786396 -0.013427876 7.071068e-011 7.071068e-011 7.071068e-011 7.071068e-011
6784984984.985 0.15088414 -0.14655323 0.014511189 -0.0040040696 7.071068e-011 7.071068e-011 7.071068e-011 7.071068e-011
6793393393.3934 -0.14761193 -0.0060975207 -0.00034928374 0.015474228 7.071068e-011 7.071068e-011 7.071068e-011 7.071068e-011
6801801801.8018 0.10207523 0.20256978 -0.015671335 -0.0042827115 7.071068e-011 7.071068e-011 7.071068e-011 7.071068e-011
6810210210.2102 0.17205817 -0.095306687 0.0086501483 -0.014392194 7.071068e-011 7.071068e-011 7.071068e-011 7.071068e-011
6818618618.6186 -0.10541949 -0.0098910369 0.012112275 0.013194436 7.071068e-011 7.071068e-011 7.071068e-011 7.071068e-011
6827027027.027 0.088173173 0.18535602 -0.015905229 0.009186903 7.071068e-011 7.071068e-011 7.071068e-011 7.071068e-011
6835435435.4354 0.18130328 -0.04899152 -0.0044707269 -0.01783457 7.071068e-011 7.071068e-011 7.071068e-011 7.071068e-011
6843843843.8438 -0.045587022 -0.02787574 0.020099625 0.00024264758 7.071068e-011 7.071068e-011 7.071068e-011 7.071068e-011
6852252252.2523 0.074967436 0.12938935 -0.0045682909 0.020228652 7.071068e-011 7.071068e-011 7.071068e-011 7.071068e-011
6860660660.6607 0.14508952 -0.020593971 -0.018542007 -0.009585062 7.071068e-011 7.071068e-011 7.071068e-011 7.071068e-011
6869069069.0691 0.0039393301 -0.026807051 0.014481566 -0.016041042 7.071068e-011 7.071068e-011 7.071068e-011 7.071068e-011
6877477477.4775 0.054276749 0.072531253 0.012646949 0.018040722 7.071068e-011 7.071068e-011 7.071068e-011 7.071068e-011
6885885885.8859 0.090262249 0.0068390821 -0.020391366 0.0076889079 7.071068e-011 7.071068e-011 7.071068e-011 7.071068e-011
6894294294.2943 0.047298893 -0.0010021601 -0.0023105431 -0.021949548 7.071068e-011 7.071068e-011 7.071068e-011 7.071068e-011
6902702702.7027 0.038117856 0.019377636 0.021917854 0.0032221249 7.071068e-011 7.071068e-011 7.071068e-011 7.071068e-011
6911111111.1111 0.031153459 0.037757356 -0.0087470543 0.020142132 7.071068e-011 7.071068e-011 7.071068e-011 7.071068e-011
6919519519.5195 0.078231573 0.049745597 -0.016888183 -0.013578913 7.071068e-011 7.071068e-011 7.071068e-011 7.071068e-011
6927927927.9279 0.050679091 -0.01229015 0.017191833 -0.012734911 7.071068e-011 7.071068e-011 7.071068e-011 7.071068e-011
6936336336.3363 -0.0021341573 0.062245682 0.0072498093 0.019419959 7.071068e-011 7.071068e-011 7.071068e-011 7.071068e-011
6944744744.7447 0.11257183 0.089302786 -0.020777507 0.0011518798 7.071068e-011 7.071068e-011 7.071068e-011 7.071068e-011
6953153153.1532 0.084105149 -0.045711402 0.0044630938 -0.019939626 7.071068e-011 7.071068e-011 7.071068e-011 7.071068e-011
6961561561.5616 -0.028351512 0.054794475 0.01728694 0.0099072643 7.071068e-011 7.071068e-011 7.071068e-011 7.071068e-011
6969969969.97 0.12498543 0.10564378 -0.014455303 0.013508829 7.071068e-011 7.071068e-011 7.071068e-011 7.071068e-011
6978378378.3784 0.10129017 -0.070934884 -0.008359422 -0.017306924 7.071068e-011 7.071068e-011 7.071068e-011 7.071068e-011
6986786786.7868 -0.063973434 0.033111904 0.018669015 -0.0022773363 7.071068e-011 7.071068e-011 7.071068e-011 7.071068e-011
6995195195.1952 0.10322189 0.13369615 -0.0035395648 0.01885766 7.071068e-011 7.071068e-011 7.071068e-011 7.071068e-011
7003603603.6036 0.10867327 -0.058069505 -0.016554868 -0.0088741453 7.071068e-011 7.071068e-011 7.071068e-011 7.071068e-011
7012012012.012 -0.072796978 0.032791886 0.014073446 -0.012441684 7.071068e-011 7.071068e-011 7.071068e-011 7.071068e-011
7020420420.4204 0.088437952 0.16139922 0.007778578 0.017272845 7.071068e-011 7.071068e-011 7.071068e-011 7.071068e-011
7028828828.8288 0.13236636 -0.029416448 -0.018471347 0.0018355254 7.071068e-011 7.071068e-011 7.071068e-011 7.071068e-011
7037237237.2372 -0.054161549 0.031163769 0.0043929326 -0.018589141 7.071068e-011 7.071068e-011 7.071068e-011 7.071068e-011
7045645645.6456 0.090500042 0.17079054 0.016401444 0.0097583905 7.071068e-011 7.071068e-011 7.071068e-011 7.071068e-011
7054054054.0541 0.16731407 -0.0033880449 -0.014620228 0.012015495 7.071068e-011 7.071068e-011 7.071068e-011 7.071068e-011
7062462462.4625 -0.0082323542 -0.0036832653 -0.0068228748 -0.018407779 7.071068e-011 7.071068e-011 7.071068e-011 7.071068e-011
7070870870.8709 0.078515708 0.14039959 0.019704919 -0.0011997054 7.071068e-011 7.071068e-011 7.071068e-011 7.071068e-011
7079279279.2793 0.16835347 0.007120566 -0.0055251 0.018737754 7.071068e-011 7.071068e-011 7.071068e-011 7.071068e-011
7087687687.6877 0.032234497 -0.026871415 -0.016599579 -0.011451975 7.071068e-011 7.071068e-011 7.071068e-011 7.071068e-011
7096096096.0961 0.059799358 0.089479029 0.015894851 -0.012452024 7.071068e-011 7.071068e-011 7.071068e-011 7.071068e-011
7104504504.5045 0.14778778 0.010049947 0.0065267831 0.019083997 7.071068e-011 7.071068e-011 7.071068e-011 7.071068e-011
7112912912.9129 0.050632771 -0.0444858 -0.020587454 -0.00010973663 7.071068e-011 7.071068e-011 7.071068e-011 7.071068e-011
7121321321.3213 0.034584228 0.031959921 0.0062701064 -0.019786939 7.071068e-011 7.071068e-011 7.071068e-011 7.071068e-011
7129729729.7297 0.089284174 0.014370593 0.016405407 0.012024972 7.071068e-011 7.071068e-011 7.071068e-011 7.071068e-011
7138138138.1381 0.043385521 -0.037820801 -0.01711682 0.011673558 7.071068e-011 7.071068e-011 7.071068e-011 7.071068e-011
7146546546.5465 -0.00061537698 0.013703373 -0.0058365446 -0.020049343 7.071068e-011 7.071068e-011 7.071068e-011 7.071068e-011
7154954954.955 0.030859398 0.041352089 0.02073523 0.00084778509 7.071068e-011 7.071068e-011 7.071068e-011 7.071068e-011
7163363363.3634 0.044814982 0.015567283 -0.0076342719 0.019046655 7.071068e-011 7.071068e-011 7.071068e-011 7.071068e-011
7171771771.7718 0.0011718223 0.020439997 -0.015709911 -0.013440439 7.071068e-011 7.071068e-011 7.071068e-011 7.071068e-011
7180180180.1802 0.018536096 0.072477803 0.017570844 -0.010376934 7.071068e-011 7.071068e-011 7.071068e-011 7.071068e-011
7188588588.5886 0.067775011 0.056137338 0.0038907812 0.020390781 7.071068e-011 7.071068e-011 7.071068e-011 7.071068e-011
7196996996.997 0.039806388 0.010058302 -0.020553377 -0.0027170784 7.071068e-011 7.071068e-011 7.071068e-011 7.071068e-011
7205405405.4054 0.012275157 0.067288391 0.0094996821 -0.017953701 7.071068e-011 7.071068e-011 7.071068e-011 7.071068e-011
7213813813.8138 0.083407626 0.067123137 0.013815002 0.015130924 7.071068e-011 7.071068e-011 7.071068e-011 7.071068e-011
7222222222.2222 0.065969303 -0.0055726925 -0.018925147 0.0082040336 7.071068e-011 7.071068e-011 7.071068e-011 7.071068e-011
7230630630.6306 -0.0012027838 0.035352867 -0.0014394752 -0.02043137 7.071068e-011 7.071068e-011 7.071068e-011 7.071068e-011
7239039039.039 0.071602657 0.075438753 0.019901777 0.0058257096 7.071068e-011 7.071068e-011 7.071068e-011 7.071068e-011
7247447447.4474 0.075182825 -0.014812428 -0.011973584 0.016941369 7.071068e-011 7.071068e-011 7.071068e-011 7.071068e-011
7255855855.8559 -0.016664723 0.0074002435 -0.011578521 -0.016965091 7.071068e-011 7.071068e-011 7.071068e-011 7.071068e-011
7264264264.2643 0.035025705 0.084149957 0.020060157 -0.0053542545 7.071068e-011 7.071068e-011 7.071068e-011 7.071068e-011
7272672672.6727 0.074373454 0.00041429955 -0.0014944954 0.020481026 7.071068e-011 7.071068e-011 7.071068e-011 7.071068e-011
7281081081.0811 -0.030067196 0.00098726398 -0.018676642 -0.0084130345 7.071068e-011 7.071068e-011 7.071068e-011 7.071068e-011
7289489489.4895 0.00025950343 0.10765431 0.014645548 -0.014587449 7.071068e-011 7.071068e-011 7.071068e-011 7.071068e-011
7297897897.8979 0.084871724 0.050447658 0.008792378 0.018769281 7.071068e-011 7.071068e-011 7.071068e-011 7.071068e-011
7306306306.3063 0.00098600821 0.0090052839 -0.020523041 0.0015874801 7.071068e-011 7.071068e-011 7.071068e-011 7.071068e-011
7314714714.7147 0.004185468 0.11283426 0.0053663822 -0.02024545 7.071068e-011 7.071068e-011 7.071068e-011 7.071068e-011
7323123123.1231 0.1127573 0.0752986 0.016975993 0.011688297 7.071068e-011 7.071068e-011 7.071068e-011 7.071068e-011
7331531531.5315 0.051065259 -0.011919765 -0.017273409 0.011699993 7.071068e-011 7.071068e-011 7.071068e-011 7.071068e-011
7339939939.9399 0.0079509448 0.068910927 -0.005332238 -0.020491499 7.071068e-011 7.071068e-011 7.071068e-011 7.071068e-011
7348348348.3483 0.10568006 0.063478403 0.020865582 0.0018962909 7.071068e-011 7.071068e-011 7.071068e-011 7.071068e-011
7356756756.7568 0.065897599 -0.037000261 -0.0091538532 0.018747328 7.071068e-011 7.071068e-011 7.071068e-011 7.071068e-011
7365165165.1652 -0.010096752 0.021061663 -0.014723123 -0.015125512 7.071068e-011 7.071068e-011 7.071068e-011 7.071068e-011
7373573573.5736 0.061593506 0.04969253 0.018941762 -0.0085649043 7.071068e-011 7.071068e-011 7.071068e-011 7.071068e-011
7381981981.982 0.043912232 -0.035374898 0.0010924309 0.021049837 7.071068e-011 7.071068e-011 7.071068e-011 7.071068e-011
7390390390.3904 -0.043161634 0.0096956193 -0.020275725 -0.0061163027 7.071068e-011 7.071068e-011 7.071068e-011 7.071068e-011
7398798798.7988 0.01312151 0.071318068 0.012834235 -0.016658546 7.071068e-011 7.071068e-011 7.071068e-011 7.071068e-011
7407207207.2072 0.027883369 0.0096039511 0.01117302 0.017912146 7.071068e-011 7.071068e-011 7.071068e-011 7.071068e-011
7415615615.6156 -0.041069459 0.035564639 -0.020802304 0.0043990058 7.071068e-011 7.071068e-011 7.071068e-011 7.071068e-011
7424024024.024 0.0069746468 0.10495756 0.0030290093 -0.020971118 7.071068e-011 7.071068e-011 7.071068e-011 7.071068e-011
7432432432.4324 0.054577567 0.05405844 0.01862685 0.010364275 7.071068e-011 7.071068e-011 7.071068e-011 7.071068e-011
7440840840.8408 0.0098338826 0.042422123 -0.016070226 0.014025846 7.071068e-011 7.071068e-011 7.071068e-011 7.071068e-011
7449249249.2492 0.030235559 0.087096259 -0.0073204883 -0.019799655 7.071068e-011 7.071068e-011 7.071068e-011 7.071068e-011
7457657657.6577 0.078024641 0.049005993 0.021187874 0.00015095549 7.071068e-011 7.071068e-011 7.071068e-011 7.071068e-011
7466066066.0661 0.041659739 0.013978326 -0.0074794414 0.019881738 7.071068e-011 7.071068e-011 7.071068e-011 7.071068e-011
7474474474.4745 0.03053204 0.039496347 -0.01589974 -0.013778962 7.071068e-011 7.071068e-011 7.071068e-011 7.071068e-011
7482882882.8829 0.059960797 0.02896289 0.018567512 -0.0097882254 7.071068e-011 7.071068e-011 7.071068e-011 7.071068e-011
7491291291.2913 0.038793482 -0.013323402 0.0026562277 0.02086452 7.071068e-011 7.071068e-011 7.071068e-011 7.071068e-011
7499699699.6997 -0.0032512636 0.0024121529 -0.0203044 -0.004890095 7.071068e-011 7.071068e-011 7.071068e-011 7.071068e-011
7508108108.1081 0.0032514597 0.031946972 0.011695164 -0.017275846 7.071068e-011 7.071068e-011 7.071068e-011 7.071068e-011
7516516516.5165 0.019470247 0.011925073 0.011970514 0.016924864 7.071068e-011 7.071068e-011 7.071068e-011 7.071068e-011
7524924924.9249 -0.026526224 0.0065482347 -0.019959623 0.005072555 7.071068e-011 7.071068e-011 7.071068e-011 7.071068e-011
7533333333.3333 -0.029723637 0.066142678 0.0025204399 -0.020434098 7.071068e-011 7.071068e-011 7.071068e-011 7.071068e-011
7541741741.7417 0.027877968 0.068695955 0.018198166 0.0094474619 7.071068e-011 7.071068e-011 7.071068e-011 7.071068e-011
7550150150.1502 0.012896205 0.020685997 -0.015165919 0.013185836 7.071068e-011 7.071068e-011 7.071068e-011 7.071068e-011
7558558558.5586 -0.015246053 0.068452574 -0.0068402002 -0.018981067 7.071068e-011 7.071068e-011 7.071068e-011 7.071068e-011
7566966966.967 0.055603057 0.078109846 0.01994171 0.00047427751 7.071068e-011 7.071068e-011 7.071068e-011 7.071068e-011
7575375375.3754 0.05358322 0.00090076489 -0.0078797592 0.018407213 7.071068e-011 7.071068e-011 7.071068e-011 7.071068e-011
7583783783.7838 -0.01198077 0.024099562 -0.014358352 -0.014027645 7.071068e-011 7.071068e-011 7.071068e-011 7.071068e-011
7592192192.1922 0.045661911 0.060668081 0.017943982 -0.0082942005 7.071068e-011 7.071068e-011 7.071068e-011 7.071068e-011
7600600600.6006 0.051663786 -0.024505928 0.00087404839 0.019415751 7.071068e-011 7.071068e-011 7.071068e-011 7.071068e-011
7609009009.009 -0.038009245 -0.010592528 -0.018817183 -0.0065159998 7.071068e-011 7.071068e-011 7.071068e-011 7.071068e-011
7617417417.4174 -0.0050324495 0.058038518 0.012583674 -0.015270849 7.071068e-011 7.071068e-011 7.071068e-011 7.071068e-011
7625825825.8258 0.026304936 -0.0041048909 0.0093998443 0.017344752 7.071068e-011 7.071068e-011 7.071068e-011 7.071068e-011
7634234234.2342 -0.060617913 0.004005638 -0.019488994 0.0024410998 7.071068e-011 7.071068e-011 7.071068e-011 7.071068e-011
7642642642.6426 -0.026608208 0.09170147 0.0049667568 -0.018844664 7.071068e-011 7.071068e-011 7.071068e-011 7.071068e-011
7651051051.0511 0.037640996 0.042416655 0.015702931 0.011662436 7.071068e-011 7.071068e-011 7.071068e-011 7.071068e-011
7659459459.4595 -0.02998922 0.018116968 -0.016722461 0.01062999 7.071068e-011 7.071068e-011 7.071068e-011 7.071068e-011
7667867867.8679 -0.011436608 0.10258973 -0.0038824901 -0.019056087 7.071068e-011 7.071068e-011 7.071068e-011 7.071068e-011
7676276276.2763 0.073853478 0.058843505 0.019036196 0.0039516874 7.071068e-011 7.071068e-011 7.071068e-011 7.071068e-011
7684684684.6847 0.021303145 -0.003816358 -0.010740876 0.016566096 7.071068e-011 7.071068e-011 7.071068e-011 7.071068e-011
7693093093.0931 0.00075794995 0.054386929 -0.011448369 -0.015916161 7.071068e-011 7.071068e-011 7.071068e-011 7.071068e-011
7701501501.5015 0.071027517 0.032578073 0.018966937 -0.0048241154 7.071068e-011 7.071068e-011 7.071068e-011 7.071068e-011
7709909909.9099 0.023378329 -0.042519383 -0.0025970952 0.019455381 7.071068e-011 7.071068e-011 7.071068e-011 7.071068e-011
7718318318.3183 -0.033270434 0.01091156 -0.017167464 -0.0095569631 7.071068e-011 7.071068e-011 7.071068e-011 7.071068e-011
7726726726.7267 0.024579566 0.027841415 0.015396187 -0.012204303 7.071068e-011 7.071068e-011 7.071068e-011 7.071068e-011
7735135135.1351 0.0027458314 -0.04141593 0.0059185708 0.0188984 7.071068e-011 7.071068e-011 7.071068e-011 7.071068e-011
7743543543.5435 -0.074995443 -6.418836e-005 -0.019476041 -0.0014505502 7.071068e-011 7.071068e-011 7.071068e-011 7.071068e-011
7751951951.952 -0.030328134 0.064224027 0.0087000253 -0.017639259 7.071068e-011 7.071068e-011 7.071068e-011 7.071068e-011
7760360360.3604 -0.002688959 0.017484447 0.013220095 0.014617919 7.071068e-011 7.071068e-011 7.071068e-011 7.071068e-011
7768768768.7688 -0.058281884 0.028403213 -0.018535826 0.0068630292 7.071068e-011 7.071068e-011 7.071068e-011 7.071068e-011
7777177177.1772 -0.027325947 0.095599405 0.00057856151 -0.019667163 7.071068e-011 7.071068e-011 7.071068e-011 7.071068e-011
7785585585.5856 0.033964299 0.058012098 0.018082498 0.0077846581 7.071068e-011 7.071068e-011 7.071068e-011 7.071068e-011
7793993993.994 -0.0057026912 0.027730601 -0.013855744 0.013663628 7.071068e-011 7.071068e-011 7.071068e-011 7.071068e-011
7802402402.4024 -0.00038534714 0.075042903 -0.0075604348 -0.018313091 7.071068e-011 7.071068e-011 7.071068e-011 7.071068e-011
7810810810.8108 0.058006223 0.048796203 0.019716224 -0.00045537524 7.071068e-011 7.071068e-011 7.071068e-011 7.071068e-011
7819219219.2192 0.025985485 -0.0063308477 -0.0071146535 0.018286804 7.071068e-011 7.071068e-011 7.071068e-011 7.071068e-011
7827627627.6276 -0.0035910949 0.026793273 -0.014370075 -0.013419978 7.071068e-011 7.071068e-011 7.071068e-011 7.071068e-011
7836036036.036 0.037462667 0.025826791 0.017796928 -0.0083277235 7.071068e-011 7.071068e-011 7.071068e-011 7.071068e-011
7844444444.4444 0.016617874 -0.023811607 0.0011262136 0.01966924 7.071068e-011 7.071068e-011 7.071068e-011 7.071068e-011
7852852852.8529 -0.028388143 0.0030123773 -0.018748233 -0.0063282195 7.071068e-011 7.071068e-011 7.071068e-011 7.071068e-011
7861261261.2613 0.0018201692 0.029579967 0.01272636 -0.015015932 7.071068e-011 7.071068e-011 7.071068e-011 7.071068e-011
7869669669.6697 0.005419998 -0.009358516 0.0089995218 0.017501304 7.071068e-011 7.071068e-011 7.071068e-011 7.071068e-011
7878078078.0781 -0.040400639 0.0035179825 -0.019750703 0.0019668981 7.071068e-011 7.071068e-011 7.071068e-011 7.071068e-011
7886486486.4865 -0.024380682 0.046849616 0.00535936 -0.018966457 7.071068e-011 7.071068e-011 7.071068e-011 7.071068e-011
7894894894.8949 0.010870531 0.030350873 0.015367053 0.01194987 7.071068e-011 7.071068e-011 7.071068e-011 7.071068e-011
7903303303.3033 -0.013452002 0.011044734 -0.017040817 0.0096697463 7.071068e-011 7.071068e-011 7.071068e-011 7.071068e-011
7911711711.7117 -0.017944321 0.04398958 -0.0027657771 -0.019433457 7.071068e-011 7.071068e-011 7.071068e-011 7.071068e-011
7920120120.1201 0.023217119 0.044919625 0.018849107 0.0047071623 7.071068e-011 7.071068e-011 7.071068e-011 7.071068e-011
7928528528.5285 0.023516469 0.0018836204 -0.011422816 0.015692046 7.071068e-011 7.071068e-011 7.071068e-011 7.071068e-011
7936936936.9369 -0.0099195978 0.011297841 -0.010139163 -0.016338086 7.071068e-011 7.071068e-011 7.071068e-011 7.071068e-011
7945345345.3453 0.017848568 0.032029931 0.018967642 -0.0030879648 7.071068e-011 7.071068e-011 7.071068e-011 7.071068e-011
