!Keysight Technologies,N5235B,MY61252044,A.15.00.15
!Date: Friday, January 20, 2023 23:36:58
!Correction: S11(Off) 
!S21(Off) 
!S12(Off) 
!S22(Off) 
!S2P File: Measurements: S11, S21, S12, S22:
# Hz S  RI   R 50
6600000000 0.01841942 -0.17516188 0.015268706 -0.0030191129 7.071068e-011 7.071068e-011 7.071068e-011 7.071068e-011
6608408408.4084 -0.12451026 0.16529694 0.0052472712 0.010709974 7.071068e-011 7.071068e-011 7.071068e-011 7.071068e-011
6616816816.8168 0.30576435 0.092958279 -0.0088087702 0.0036533384 7.071068e-011 7.071068e-011 7.071068e-011 7.071068e-011
6625225225.2252 0.02497096 -0.27300164 -0.0017664254 -0.0091959164 7.071068e-011 7.071068e-011 7.071068e-011 7.071068e-011
6633633633.6336 -0.16598028 0.16124083 0.0092221424 -0.00038747938 7.071068e-011 7.071068e-011 7.071068e-011 7.071068e-011
6642042042.042 0.28995544 0.11333993 -0.0018381183 0.0092037758 7.071068e-011 7.071068e-011 7.071068e-011 7.071068e-011
6650450450.4505 0.039149258 -0.25205746 -0.01060051 -0.0040591066 7.071068e-011 7.071068e-011 7.071068e-011 7.071068e-011
6658858858.8589 -0.14827918 0.1342738 0.0059221289 -0.01137328 7.071068e-011 7.071068e-011 7.071068e-011 7.071068e-011
6667267267.2673 0.22820497 0.10126077 0.012085357 0.0090700546 7.071068e-011 7.071068e-011 7.071068e-011 7.071068e-011
6675675675.6757 0.04319207 -0.15085427 -0.011389892 0.013692948 7.071068e-011 7.071068e-011 7.071068e-011 7.071068e-011
6684084084.0841 -0.044590145 0.083749108 -0.014440618 -0.013159498 7.071068e-011 7.071068e-011 7.071068e-011 7.071068e-011
6692492492.4925 0.1060004 0.047882523 0.014614117 -0.01471494 7.071068e-011 7.071068e-011 7.071068e-011 7.071068e-011
6700900900.9009 0.085645944 0.018037898 0.014553529 0.015241457 7.071068e-011 7.071068e-011 7.071068e-011 7.071068e-011
6709309309.3093 0.077600673 -0.041571468 -0.015399064 0.012933373 7.071068e-011 7.071068e-011 7.071068e-011 7.071068e-011
6717717717.7177 -0.031431921 0.033968858 -0.010020734 -0.016316539 7.071068e-011 7.071068e-011 7.071068e-011 7.071068e-011
6726126126.1261 0.1550893 0.11665493 0.01662555 -0.0070115631 7.071068e-011 7.071068e-011 7.071068e-011 7.071068e-011
6734534534.5345 0.12873936 -0.14083257 0.0035280513 0.016055752 7.071068e-011 7.071068e-011 7.071068e-011 7.071068e-011
6742942942.9429 -0.10790867 0.026703672 -0.01573086 -0.00026292217 7.071068e-011 7.071068e-011 7.071068e-011 7.071068e-011
6751351351.3514 0.17138329 0.15245879 0.0035662139 -0.015191641 7.071068e-011 7.071068e-011 7.071068e-011 7.071068e-011
6759759759.7598 0.15074345 -0.17118943 0.013026581 0.0069821053 7.071068e-011 7.071068e-011 7.071068e-011 7.071068e-011
6768168168.1682 -0.14666648 -0.0059381933 -0.010727769 0.010284472 7.071068e-011 7.071068e-011 7.071068e-011 7.071068e-011
6776576576.5766 0.13350977 0.17914207 -0.0079022245 -0.013312834 7.071068e-011 7.071068e-011 7.071068e-011 7.071068e-011
6784984984.985 0.15170112 -0.14604336 0.014389035 -0.0039609242 7.071068e-011 7.071068e-011 7.071068e-011 7.071068e-011
6793393393.3934 -0.14763574 -0.0068873037 -0.00035792074 0.015342838 7.071068e-011 7.071068e-011 7.071068e-011 7.071068e-011
6801801801.8018 0.10152431 0.202829 -0.015541088 -0.0042632697 7.071068e-011 7.071068e-011 7.071068e-011 7.071068e-011
6810210210.2102 0.17237458 -0.09485662 0.008591406 -0.014274307 7.071068e-011 7.071068e-011 7.071068e-011 7.071068e-011
6818618618.6186 -0.10503265 -0.010368482 0.012015393 0.013098754 7.071068e-011 7.071068e-011 7.071068e-011 7.071068e-011
6827027027.027 0.087491661 0.18520004 -0.015781345 0.0091165546 7.071068e-011 7.071068e-011 7.071068e-011 7.071068e-011
6835435435.4354 0.18155508 -0.048258584 -0.0044403556 -0.017686227 7.071068e-011 7.071068e-011 7.071068e-011 7.071068e-011
6843843843.8438 -0.04518206 -0.028546154 0.01992248 0.00024104974 7.071068e-011 7.071068e-011 7.071068e-011 7.071068e-011
6852252252.2523 0.074357964 0.12958184 -0.0045378394 0.02004409 7.071068e-011 7.071068e-011 7.071068e-011 7.071068e-011
6860660660.6607 0.1454144 -0.02044674 -0.018367011 -0.0095213689 7.071068e-011 7.071068e-011 7.071068e-011 7.071068e-011
6869069069.0691 0.0039354726 -0.02686739 0.014382577 -0.015893921 7.071068e-011 7.071068e-011 7.071068e-011 7.071068e-011
6877477477.4775 0.054304227 0.072339021 0.012533909 0.017910222 7.071068e-011 7.071068e-011 7.071068e-011 7.071068e-011
6885885885.8859 0.08999978 0.0070271026 -0.02023863 0.0076225288 7.071068e-011 7.071068e-011 7.071068e-011 7.071068e-011
6894294294.2943 0.047653899 -0.00093702244 -0.0022945283 -0.021770792 7.071068e-011 7.071068e-011 7.071068e-011 7.071068e-011
6902702702.7027 0.037891477 0.0191462 0.021729503 0.0031942078 7.071068e-011 7.071068e-011 7.071068e-011 7.071068e-011
6911111111.1111 0.031273548 0.037941929 -0.008675239 0.019955166 7.071068e-011 7.071068e-011 7.071068e-011 7.071068e-011
6919519519.5195 0.0780202 0.049635906 -0.016721921 -0.013473091 7.071068e-011 7.071068e-011 7.071068e-011 7.071068e-011
6927927927.9279 0.050975572 -0.01201306 0.017063659 -0.012605045 7.071068e-011 7.071068e-011 7.071068e-011 7.071068e-011
6936336336.3363 -0.0022552968 0.061746851 0.0071699526 0.01927782 7.071068e-011 7.071068e-011 7.071068e-011 7.071068e-011
6944744744.7447 0.11230651 0.089781448 -0.020620773 0.0011273591 7.071068e-011 7.071068e-011 7.071068e-011 7.071068e-011
6953153153.1532 0.084593929 -0.04579692 0.0044350801 -0.019783022 7.071068e-011 7.071068e-011 7.071068e-011 7.071068e-011
6961561561.5616 -0.028642317 0.054545898 0.017145136 0.0098264674 7.071068e-011 7.071068e-011 7.071068e-011 7.071068e-011
6969969969.97 0.12489945 0.10584077 -0.014333123 0.013387666 7.071068e-011 7.071068e-011 7.071068e-011 7.071068e-011
6978378378.3784 0.10143539 -0.070729338 -0.0082732476 -0.017158808 7.071068e-011 7.071068e-011 7.071068e-011 7.071068e-011
6986786786.7868 -0.063721232 0.032701973 0.018508492 -0.0022359227 7.071068e-011 7.071068e-011 7.071068e-011 7.071068e-011
6995195195.1952 0.1025834 0.13378395 -0.003533527 0.018694881 7.071068e-011 7.071068e-011 7.071068e-011 7.071068e-011
7003603603.6036 0.10921614 -0.057577662 -0.016408969 -0.0088244136 7.071068e-011 7.071068e-011 7.071068e-011 7.071068e-011
7012012012.012 -0.072777741 0.032065853 0.013977151 -0.012328502 7.071068e-011 7.071068e-011 7.071068e-011 7.071068e-011
7020420420.4204 0.087944724 0.16177441 0.0077045048 0.017144376 7.071068e-011 7.071068e-011 7.071068e-011 7.071068e-011
7028828828.8288 0.13279581 -0.029237473 -0.018328361 0.00181154 7.071068e-011 7.071068e-011 7.071068e-011 7.071068e-011
7037237237.2372 -0.05413359 0.030852551 0.0043674884 -0.018438447 7.071068e-011 7.071068e-011 7.071068e-011 7.071068e-011
7045645645.6456 0.090214342 0.17073818 0.016264142 0.0096863406 7.071068e-011 7.071068e-011 7.071068e-011 7.071068e-011
7054054054.0541 0.16731668 -0.0029541648 -0.014504177 0.011907004 7.071068e-011 7.071068e-011 7.071068e-011 7.071068e-011
7062462462.4625 -0.0077374512 -0.0039927084 -0.0067517553 -0.018256113 7.071068e-011 7.071068e-011 7.071068e-011 7.071068e-011
7070870870.8709 0.077892818 0.14020306 0.01953597 -0.0011671482 7.071068e-011 7.071068e-011 7.071068e-011 7.071068e-011
7079279279.2793 0.16860433 0.0077069011 -0.005503837 0.018570362 7.071068e-011 7.071068e-011 7.071068e-011 7.071068e-011
7087687687.6877 0.0324159 -0.02735116 -0.016443927 -0.011383747 7.071068e-011 7.071068e-011 7.071068e-011 7.071068e-011
7096096096.0961 0.059535313 0.089586332 0.015792808 -0.012332703 7.071068e-011 7.071068e-011 7.071068e-011 7.071068e-011
7104504504.5045 0.14781253 0.0101145 0.0064574033 0.018949684 7.071068e-011 7.071068e-011 7.071068e-011 7.071068e-011
7112912912.9129 0.05075128 -0.044392116 -0.020434299 -0.00012172948 7.071068e-011 7.071068e-011 7.071068e-011 7.071068e-011
7121321321.3213 0.034621827 0.031672008 0.0062280237 -0.019634644 7.071068e-011 7.071068e-011 7.071068e-011 7.071068e-011
7129729729.7297 0.088951066 0.014584762 0.016270958 0.011930687 7.071068e-011 7.071068e-011 7.071068e-011 7.071068e-011
7138138138.1381 0.043808207 -0.037725713 -0.016974278 0.011564222 7.071068e-011 7.071068e-011 7.071068e-011 7.071068e-011
7146546546.5465 -0.00086698437 0.013409162 -0.0057642506 -0.019877847 7.071068e-011 7.071068e-011 7.071068e-011 7.071068e-011
7154954954.955 0.030923944 0.041610923 0.020552421 0.0008735148 7.071068e-011 7.071068e-011 7.071068e-011 7.071068e-011
7163363363.3634 0.04474555 0.015446289 -0.0076125464 0.018875666 7.071068e-011 7.071068e-011 7.071068e-011 7.071068e-011
7171771771.7718 0.0013296611 0.020601409 -0.015568826 -0.013365685 7.071068e-011 7.071068e-011 7.071068e-011 7.071068e-011
7180180180.1802 0.018431373 0.072166637 0.017457681 -0.010280222 7.071068e-011 7.071068e-011 7.071068e-011 7.071068e-011
7188588588.5886 0.067627609 0.056501046 0.0038427664 0.020245321 7.071068e-011 7.071068e-011 7.071068e-011 7.071068e-011
7196996996.997 0.040164094 0.0098939724 -0.020396173 -0.0027050772 7.071068e-011 7.071068e-011 7.071068e-011 7.071068e-011
7205405405.4054 0.011956581 0.067175969 0.0094299009 -0.01780354 7.071068e-011 7.071068e-011 7.071068e-011 7.071068e-011
7213813813.8138 0.083525486 0.067307688 0.01368379 0.015010434 7.071068e-011 7.071068e-011 7.071068e-011 7.071068e-011
7222222222.2222 0.0659253 -0.0056250803 -0.018765941 0.0081105335 7.071068e-011 7.071068e-011 7.071068e-011 7.071068e-011
7230630630.6306 -0.0010099735 0.035313565 -0.0013899333 -0.020264452 7.071068e-011 7.071068e-011 7.071068e-011 7.071068e-011
7239039039.039 0.071257271 0.075298473 0.019735156 0.0058177738 7.071068e-011 7.071068e-011 7.071068e-011 7.071068e-011
7247447447.4474 0.075399525 -0.014392641 -0.011911277 0.016796779 7.071068e-011 7.071068e-011 7.071068e-011 7.071068e-011
7255855855.8559 -0.016531676 0.0069083502 -0.011476028 -0.016851638 7.071068e-011 7.071068e-011 7.071068e-011 7.071068e-011
7264264264.2643 0.034617774 0.084376767 0.019911923 -0.0052941409 7.071068e-011 7.071068e-011 7.071068e-011 7.071068e-011
7272672672.6727 0.074695677 0.00051733706 -0.0015008075 0.020317653 7.071068e-011 7.071068e-011 7.071068e-011 7.071068e-011
7281081081.0811 -0.030128893 0.00083936949 -0.018515237 -0.0083615016 7.071068e-011 7.071068e-011 7.071068e-011 7.071068e-011
7289489489.4895 0.00023136739 0.10759132 0.014542477 -0.014445093 7.071068e-011 7.071068e-011 7.071068e-011 7.071068e-011
7297897897.8979 0.084657528 0.050625551 0.0086891763 0.018628208 7.071068e-011 7.071068e-011 7.071068e-011 7.071068e-011
7306306306.3063 0.0014163154 0.0090598399 -0.020365173 0.0015414382 7.071068e-011 7.071068e-011 7.071068e-011 7.071068e-011
7314714714.7147 0.0038754498 0.11241108 0.0053556859 -0.020081392 7.071068e-011 7.071068e-011 7.071068e-011 7.071068e-011
7323123123.1231 0.11266712 0.075817175 0.016830159 0.011620776 7.071068e-011 7.071068e-011 7.071068e-011 7.071068e-011
7331531531.5315 0.051444482 -0.012196767 -0.017149564 0.011589301 7.071068e-011 7.071068e-011 7.071068e-011 7.071068e-011
7339939939.9399 0.0076521346 0.068863459 -0.0052622124 -0.020332493 7.071068e-011 7.071068e-011 7.071068e-011 7.071068e-011
7348348348.3483 0.10572217 0.063538224 0.020692229 0.0019127302 7.071068e-011 7.071068e-011 7.071068e-011 7.071068e-011
7356756756.7568 0.065915115 -0.036871582 -0.0091150058 0.018579483 7.071068e-011 7.071068e-011 7.071068e-011 7.071068e-011
7365165165.1652 -0.0099091716 0.020823497 -0.014574355 -0.015040617 7.071068e-011 7.071068e-011 7.071068e-011 7.071068e-011
7373573573.5736 0.061166689 0.049708437 0.018821927 -0.0084610814 7.071068e-011 7.071068e-011 7.071068e-011 7.071068e-011
7381981981.982 0.044231735 -0.035038304 0.0010479444 0.020902999 7.071068e-011 7.071068e-011 7.071068e-011 7.071068e-011
7390390390.3904 -0.043163963 0.0092270225 -0.020119527 -0.006105267 7.071068e-011 7.071068e-011 7.071068e-011 7.071068e-011
7398798798.7988 0.012853351 0.071619898 0.012763043 -0.01652321 7.071068e-011 7.071068e-011 7.071068e-011 7.071068e-011
7407207207.2072 0.028131003 0.0095582437 0.0110696 0.017795864 7.071068e-011 7.071068e-011 7.071068e-011 7.071068e-011
7415615615.6156 -0.04115181 0.035548739 -0.020658836 0.0043397034 7.071068e-011 7.071068e-011 7.071068e-011 7.071068e-011
7424024024.024 0.0070024058 0.10485286 0.0030306699 -0.02081402 7.071068e-011 7.071068e-011 7.071068e-011 7.071068e-011
7432432432.4324 0.054400973 0.054221459 0.01847698 0.010309354 7.071068e-011 7.071068e-011 7.071068e-011 7.071068e-011
7440840840.8408 0.010173789 0.042415891 -0.015969295 0.013898662 7.071068e-011 7.071068e-011 7.071068e-011 7.071068e-011
7449249249.2492 0.029949602 0.086833693 -0.0072435788 -0.019660983 7.071068e-011 7.071068e-011 7.071068e-011 7.071068e-011
7457657657.6577 0.078091502 0.049375035 0.021025706 0.00017919885 7.071068e-011 7.071068e-011 7.071068e-011 7.071068e-011
7466066066.0661 0.041785616 0.013684652 -0.0074566612 0.019722704 7.071068e-011 7.071068e-011 7.071068e-011 7.071068e-011
7474474474.4745 0.030377394 0.039623067 -0.015766922 -0.013699776 7.071068e-011 7.071068e-011 7.071068e-011 7.071068e-011
7482882882.8829 0.06002979 0.028851727 0.018448645 -0.0096902009 7.071068e-011 7.071068e-011 7.071068e-011 7.071068e-011
7491291291.2913 0.038679272 -0.013153171 0.0026101284 0.020718196 7.071068e-011 7.071068e-011 7.071068e-011 7.071068e-011
7499699699.6997 -0.003007838 0.0022638477 -0.020154171 -0.0048736501 7.071068e-011 7.071068e-011 7.071068e-011 7.071068e-011
7508108108.1081 0.00291848 0.031884428 0.011626768 -0.017137447 7.071068e-011 7.071068e-011 7.071068e-011 7.071068e-011
7516516516.5165 0.019664314 0.012187696 0.011862022 0.016810993 7.071068e-011 7.071068e-011 7.071068e-011 7.071068e-011
7524924924.9249 -0.026506299 0.0062607285 -0.019808136 0.0050148326 7.071068e-011 7.071068e-011 7.071068e-011 7.071068e-011
7533333333.3333 -0.029821046 0.066284046 0.0025285489 -0.020268772 7.071068e-011 7.071068e-011 7.071068e-011 7.071068e-011
7541741741.7417 0.027882142 0.068590015 0.018040894 0.0094070723 7.071068e-011 7.071068e-011 7.071068e-011 7.071068e-011
7550150150.1502 0.012933682 0.020909045 -0.0150738 0.013060929 7.071068e-011 7.071068e-011 7.071068e-011 7.071068e-011
7558558558.5586 -0.015115359 0.068120234 -0.0067588137 -0.018854864 7.071068e-011 7.071068e-011 7.071068e-011 7.071068e-011
7566966966.967 0.055240329 0.078298092 0.019797282 0.00050006888 7.071068e-011 7.071068e-011 7.071068e-011 7.071068e-011
7575375375.3754 0.053980209 0.0010173661 -0.0078422129 0.018266931 7.071068e-011 7.071068e-011 7.071068e-011 7.071068e-011
7583783783.7838 -0.012146145 0.023759019 -0.014239194 -0.013940151 7.071068e-011 7.071068e-011 7.071068e-011 7.071068e-011
7592192192.1922 0.045554955 0.060916543 0.017814869 -0.0082118157 7.071068e-011 7.071068e-011 7.071068e-011 7.071068e-011
7600600600.6006 0.051788803 -0.024564555 0.00084323756 0.019263454 7.071068e-011 7.071068e-011 7.071068e-011 7.071068e-011
7609009009.009 -0.037981 -0.010593354 -0.018661125 -0.0064953752 7.071068e-011 7.071068e-011 7.071068e-011 7.071068e-011
7617417417.4174 -0.0051440909 0.05783888 0.012515417 -0.015131528 7.071068e-011 7.071068e-011 7.071068e-011 7.071068e-011
7625825825.8258 0.026217902 -0.0037512491 0.009302672 0.017234392 7.071068e-011 7.071068e-011 7.071068e-011 7.071068e-011
7634234234.2342 -0.060232561 0.0037475799 -0.019353678 0.0023961314 7.071068e-011 7.071068e-011 7.071068e-011 7.071068e-011
7642642642.6426 -0.027079431 0.091589302 0.0049540484 -0.018701226 7.071068e-011 7.071068e-011 7.071068e-011 7.071068e-011
7651051051.0511 0.037873823 0.042779725 0.015570811 0.011587741 7.071068e-011 7.071068e-011 7.071068e-011 7.071068e-011
7659459459.4595 -0.029919367 0.017797805 -0.016603418 0.010525425 7.071068e-011 7.071068e-011 7.071068e-011 7.071068e-011
7667867867.8679 -0.011579907 0.10264873 -0.0038198719 -0.018914534 7.071068e-011 7.071068e-011 7.071068e-011 7.071068e-011
7676276276.2763 0.073823489 0.058863167 0.018882278 0.0039530522 7.071068e-011 7.071068e-011 7.071068e-011 7.071068e-011
7684684684.6847 0.021422626 -0.0036933732 -0.010685972 0.016426539 7.071068e-011 7.071068e-011 7.071068e-011 7.071068e-011
7693093093.0931 0.00080683199 0.054061428 -0.011341065 -0.015819851 7.071068e-011 7.071068e-011 7.071068e-011 7.071068e-011
7701501501.5015 0.070679255 0.032799527 0.018834632 -0.0047693248 7.071068e-011 7.071068e-011 7.071068e-011 7.071068e-011
7709909909.9099 0.02383448 -0.04245076 -0.002596702 0.019307246 7.071068e-011 7.071068e-011 7.071068e-011 7.071068e-011
7718318318.3183 -0.033535354 0.010540708 -0.017022597 -0.0094995545 7.071068e-011 7.071068e-011 7.071068e-011 7.071068e-011
7726726726.7267 0.024541343 0.028159015 0.015285081 -0.012087403 7.071068e-011 7.071068e-011 7.071068e-011 7.071068e-011
7735135135.1351 0.002854276 -0.041523334 0.0058438308 0.018753272 7.071068e-011 7.071068e-011 7.071068e-011 7.071068e-011
7743543543.5435 -0.074953526 -5.9739792e-005 -0.01931821 -0.0014780763 7.071068e-011 7.071068e-011 7.071068e-011 7.071068e-011
7751951951.952 -0.030448455 0.064049639 0.0086702676 -0.017490245 7.071068e-011 7.071068e-011 7.071068e-011 7.071068e-011
7760360360.3604 -0.0027567307 0.017795812 0.013099612 0.014538076 7.071068e-011 7.071068e-011 7.071068e-011 7.071068e-011
7768768768.7688 -0.057940103 0.02820397 -0.018416101 0.0067868903 7.071068e-011 7.071068e-011 7.071068e-011 7.071068e-011
7777177177.1772 -0.027723677 0.095478646 0.00059328158 -0.019526571 7.071068e-011 7.071068e-011 7.071068e-011 7.071068e-011
7785585585.5856 0.03416504 0.058327571 0.017942037 0.007743069 7.071068e-011 7.071068e-011 7.071068e-011 7.071068e-011
7793993993.994 -0.0056635826 0.02743618 -0.013760401 0.013543832 7.071068e-011 7.071068e-011 7.071068e-011 7.071068e-011
7802402402.4024 -0.00045469694 0.075147353 -0.0074818139 -0.018173685 7.071068e-011 7.071068e-011 7.071068e-011 7.071068e-011
7810810810.8108 0.057966471 0.048700552 0.019554883 -0.00042272441 7.071068e-011 7.071068e-011 7.071068e-011 7.071068e-011
7819219219.2192 0.026053129 -0.0061374395 -0.0070958822 0.01812491 7.071068e-011 7.071068e-011 7.071068e-011 7.071068e-011
7827627627.6276 -0.0034754956 0.026482211 -0.014235634 -0.013346256 7.071068e-011 7.071068e-011 7.071068e-011 7.071068e-011
7836036036.036 0.03713074 0.025980193 0.017684668 -0.0082349936 7.071068e-011 7.071068e-011 7.071068e-011 7.071068e-011
7844444444.4444 0.016968997 -0.023718271 0.0010844478 0.019531585 7.071068e-011 7.071068e-011 7.071068e-011 7.071068e-011
7852852852.8529 -0.028573195 0.0027270389 -0.018606767 -0.0063063749 7.071068e-011 7.071068e-011 7.071068e-011 7.071068e-011
7861261261.2613 0.0018037827 0.029809179 0.012648303 -0.014892317 7.071068e-011 7.071068e-011 7.071068e-011 7.071068e-011
7869669669.6697 0.0054529184 -0.0094770119 0.0089097125 0.017379673 7.071068e-011 7.071068e-011 7.071068e-011 7.071068e-011
7878078078.0781 -0.040356014 0.003622835 -0.019596975 0.0019283883 7.071068e-011 7.071068e-011 7.071068e-011 7.071068e-011
7886486486.4865 -0.024391862 0.046594229 0.0053434996 -0.018804882 7.071068e-011 7.071068e-011 7.071068e-011 7.071068e-011
7894894894.8949 0.010681617 0.030606594 0.01522287 0.011882339 7.071068e-011 7.071068e-011 7.071068e-011 7.071068e-011
7903303303.3033 -0.013100143 0.010958327 -0.016926799 0.0095620705 7.071068e-011 7.071068e-011 7.071068e-011 7.071068e-011
7911711711.7117 -0.018225534 0.043820642 -0.0027075671 -0.019293293 7.071068e-011 7.071068e-011 7.071068e-011 7.071068e-011
7920120120.1201 0.023327935 0.045127489 0.018701881 0.0047087721 7.071068e-011 7.071068e-011 7.071068e-011 7.071068e-011
7928528528.5285 0.023504529 0.0017402549 -0.011367326 0.015559975 7.071068e-011 7.071068e-011 7.071068e-011 7.071068e-011
7936936936.9369 -0.0098445918 0.011369934 -0.010043096 -0.016232803 7.071068e-011 7.071068e-011 7.071068e-011 7.071068e-011
7945345345.3453 0.017740022 0.031815238 0.018831912 -0.0030389898 7.071068e-011 7.071068e-011 7.071068e-011 7.071068e-011
