!Keysight Technologies,N5235B,MY61252044,A.15.00.15
!Date: Friday, January 20, 2023 22:48:18
!Correction: S11(Off) 
!S21(Off) 
!S12(Off) 
!S22(Off) 
!S2P File: Measurements: S11, S21, S12, S22:
# Hz S  RI   R 50
6600000000 0.017536625 -0.17490798 0.015282834 -0.0030391368 7.071068e-011 7.071068e-011 7.071068e-011 7.071068e-011
6608408408.4084 -0.12376483 0.16618064 0.005273188 0.010710313 7.071068e-011 7.071068e-011 7.071068e-011 7.071068e-011
6616816816.8168 0.30625269 0.091806985 -0.0088095004 0.0036745311 7.071068e-011 7.071068e-011 7.071068e-011 7.071068e-011
6625225225.2252 0.023643347 -0.27296212 -0.0017889934 -0.0091978824 7.071068e-011 7.071068e-011 7.071068e-011 7.071068e-011
6633633633.6336 -0.16528955 0.16237074 0.0092252493 -0.00041014649 7.071068e-011 7.071068e-011 7.071068e-011 7.071068e-011
6642042042.042 0.29060397 0.1122563 -0.0018206916 0.0092111835 7.071068e-011 7.071068e-011 7.071068e-011 7.071068e-011
6650450450.4505 0.037922215 -0.2521669 -0.010610978 -0.004039444 7.071068e-011 7.071068e-011 7.071068e-011 7.071068e-011
6658858858.8589 -0.14779231 0.13530283 0.0058963355 -0.011389273 7.071068e-011 7.071068e-011 7.071068e-011 7.071068e-011
6667267267.2673 0.22879325 0.10046379 0.012105547 0.0090495544 7.071068e-011 7.071068e-011 7.071068e-011 7.071068e-011
6675675675.6757 0.042381171 -0.1509777 -0.011368062 0.013718252 7.071068e-011 7.071068e-011 7.071068e-011 7.071068e-011
6684084084.0841 -0.044390336 0.084289737 -0.014473846 -0.013130218 7.071068e-011 7.071068e-011 7.071068e-011 7.071068e-011
6692492492.4925 0.10627449 0.047686789 0.014597805 -0.014745747 7.071068e-011 7.071068e-011 7.071068e-011 7.071068e-011
6700900900.9009 0.085601881 0.017806998 0.014589889 0.015226388 7.071068e-011 7.071068e-011 7.071068e-011 7.071068e-011
6709309309.3093 0.077259436 -0.041552737 -0.015378876 0.012976423 7.071068e-011 7.071068e-011 7.071068e-011 7.071068e-011
6717717717.7177 -0.031281006 0.034422513 -0.010060467 -0.016309252 7.071068e-011 7.071068e-011 7.071068e-011 7.071068e-011
6726126126.1261 0.15557177 0.11624674 0.016627053 -0.0070492956 7.071068e-011 7.071068e-011 7.071068e-011 7.071068e-011
6734534534.5345 0.12804456 -0.14115991 0.0035720463 0.01605944 7.071068e-011 7.071068e-011 7.071068e-011 7.071068e-011
6742942942.9429 -0.10785749 0.02756341 -0.015744595 -0.00022681338 7.071068e-011 7.071068e-011 7.071068e-011 7.071068e-011
6751351351.3514 0.17216392 0.15197505 0.0035347554 -0.015209292 7.071068e-011 7.071068e-011 7.071068e-011 7.071068e-011
6759759759.7598 0.14993608 -0.17171133 0.013052773 0.0069515118 7.071068e-011 7.071068e-011 7.071068e-011 7.071068e-011
6768168168.1682 -0.14676267 -0.0049580289 -0.010708609 0.010317448 7.071068e-011 7.071068e-011 7.071068e-011 7.071068e-011
6776576576.5766 0.13441922 0.1787543 -0.0079363659 -0.013302191 7.071068e-011 7.071068e-011 7.071068e-011 7.071068e-011
6784984984.985 0.15096521 -0.14666006 0.014384676 -0.003997359 7.071068e-011 7.071068e-011 7.071068e-011 7.071068e-011
6793393393.3934 -0.1478577 -0.0059931907 -0.00032087034 0.015351315 7.071068e-011 7.071068e-011 7.071068e-011 7.071068e-011
6801801801.8018 0.10241333 0.20262387 -0.015557815 -0.0042303642 7.071068e-011 7.071068e-011 7.071068e-011 7.071068e-011
6810210210.2102 0.17180705 -0.095568515 0.008560665 -0.014302359 7.071068e-011 7.071068e-011 7.071068e-011 7.071068e-011
6818618618.6186 -0.1053728 -0.0095892344 0.012055147 0.01307452 7.071068e-011 7.071068e-011 7.071068e-011 7.071068e-011
6827027027.027 0.08826834 0.18514304 -0.015767371 0.0091577154 7.071068e-011 7.071068e-011 7.071068e-011 7.071068e-011
6835435435.4354 0.18119752 -0.048888113 -0.0044848956 -0.01768312 7.071068e-011 7.071068e-011 7.071068e-011 7.071068e-011
6843843843.8438 -0.045527112 -0.028011773 0.019930968 0.00018989733 7.071068e-011 7.071068e-011 7.071068e-011 7.071068e-011
6852252252.2523 0.074877784 0.12961619 -0.0044936687 0.020062033 7.071068e-011 7.071068e-011 7.071068e-011 7.071068e-011
6860660660.6607 0.14528134 -0.020864768 -0.01839871 -0.0094805313 7.071068e-011 7.071068e-011 7.071068e-011 7.071068e-011
6869069069.0691 0.0036406443 -0.026613666 0.014352578 -0.015939141 7.071068e-011 7.071068e-011 7.071068e-011 7.071068e-011
6877477477.4775 0.054596044 0.072459146 0.012581528 0.017893225 7.071068e-011 7.071068e-011 7.071068e-011 7.071068e-011
6885885885.8859 0.090000078 0.0068100821 -0.020231672 0.0076777004 7.071068e-011 7.071068e-011 7.071068e-011 7.071068e-011
6894294294.2943 0.047527596 -0.00091297395 -0.0023522472 -0.02177999 7.071068e-011 7.071068e-011 7.071068e-011 7.071068e-011
6902702702.7027 0.037896089 0.019214308 0.021751083 0.0031423043 7.071068e-011 7.071068e-011 7.071068e-011 7.071068e-011
6911111111.1111 0.031354927 0.038008746 -0.0086269602 0.019989368 7.071068e-011 7.071068e-011 7.071068e-011 7.071068e-011
6919519519.5195 0.078110136 0.049448002 -0.016766207 -0.013441432 7.071068e-011 7.071068e-011 7.071068e-011 7.071068e-011
6927927927.9279 0.050708555 -0.012009029 0.017043747 -0.012652374 7.071068e-011 7.071068e-011 7.071068e-011 7.071068e-011
6936336336.3363 -0.0021142778 0.062021524 0.0072237365 0.019271035 7.071068e-011 7.071068e-011 7.071068e-011 7.071068e-011
6944744744.7447 0.11254159 0.089497179 -0.020631548 0.0011827195 7.071068e-011 7.071068e-011 7.071068e-011 7.071068e-011
6953153153.1532 0.084198244 -0.045922745 0.0043887198 -0.019808274 7.071068e-011 7.071068e-011 7.071068e-011 7.071068e-011
6961561561.5616 -0.028561587 0.054996401 0.017184058 0.0097883334 7.071068e-011 7.071068e-011 7.071068e-011 7.071068e-011
6969969969.97 0.12530908 0.1055439 -0.014306796 0.013435043 7.071068e-011 7.071068e-011 7.071068e-011 7.071068e-011
6978378378.3784 0.10095032 -0.071005307 -0.0083241351 -0.017148105 7.071068e-011 7.071068e-011 7.071068e-011 7.071068e-011
6986786786.7868 -0.063741155 0.033301216 0.018514208 -0.0022843967 7.071068e-011 7.071068e-011 7.071068e-011 7.071068e-011
6995195195.1952 0.10312678 0.13351181 -0.0034867411 0.018715926 7.071068e-011 7.071068e-011 7.071068e-011 7.071068e-011
7003603603.6036 0.10872966 -0.057939213 -0.016444353 -0.0087871421 7.071068e-011 7.071068e-011 7.071068e-011 7.071068e-011
7012012012.012 -0.072869144 0.032659899 0.013953363 -0.012371392 7.071068e-011 7.071068e-011 7.071068e-011 7.071068e-011
7020420420.4204 0.088510767 0.16159821 0.0077545568 0.017133424 7.071068e-011 7.071068e-011 7.071068e-011 7.071068e-011
7028828828.8288 0.13240226 -0.02969873 -0.018335035 0.0018613449 7.071068e-011 7.071068e-011 7.071068e-011 7.071068e-011
7037237237.2372 -0.054359607 0.031423293 0.0043228208 -0.018462222 7.071068e-011 7.071068e-011 7.071068e-011 7.071068e-011
7045645645.6456 0.090797305 0.17069745 0.016297955 0.0096461345 7.071068e-011 7.071068e-011 7.071068e-011 7.071068e-011
7054054054.0541 0.16705142 -0.0034697107 -0.014480109 0.011952359 7.071068e-011 7.071068e-011 7.071068e-011 7.071068e-011
7062462462.4625 -0.0080682524 -0.0035270983 -0.0068033952 -0.018246427 7.071068e-011 7.071068e-011 7.071068e-011 7.071068e-011
7070870870.8709 0.078403324 0.14026034 0.019542241 -0.0012209134 7.071068e-011 7.071068e-011 7.071068e-011 7.071068e-011
7079279279.2793 0.16847558 0.00726764 -0.0054601897 0.018594818 7.071068e-011 7.071068e-011 7.071068e-011 7.071068e-011
7087687687.6877 0.032093398 -0.027087267 -0.016485291 -0.011349422 7.071068e-011 7.071068e-011 7.071068e-011 7.071068e-011
7096096096.0961 0.059874214 0.089765266 0.015768155 -0.012383369 7.071068e-011 7.071068e-011 7.071068e-011 7.071068e-011
7104504504.5045 0.14785703 0.0097614788 0.0065105893 0.018945692 7.071068e-011 7.071068e-011 7.071068e-011 7.071068e-011
7112912912.9129 0.050450902 -0.044293687 -0.020449746 -6.775833e-005 7.071068e-011 7.071068e-011 7.071068e-011 7.071068e-011
7121321321.3213 0.034815818 0.031884957 0.0061777141 -0.019661168 7.071068e-011 7.071068e-011 7.071068e-011 7.071068e-011
7129729729.7297 0.089083456 0.014356221 0.016312722 0.011892729 7.071068e-011 7.071068e-011 7.071068e-011 7.071068e-011
7138138138.1381 0.043597065 -0.037757292 -0.016951777 0.011615404 7.071068e-011 7.071068e-011 7.071068e-011 7.071068e-011
7146546546.5465 -0.00083555497 0.013571186 -0.0058217593 -0.019870684 7.071068e-011 7.071068e-011 7.071068e-011 7.071068e-011
7154954954.955 0.031071585 0.041572306 0.020565983 0.00081877242 7.071068e-011 7.071068e-011 7.071068e-011 7.071068e-011
7163363363.3634 0.044683784 0.01528255 -0.007567903 0.018907461 7.071068e-011 7.071068e-011 7.071068e-011 7.071068e-011
7171771771.7718 0.0011953652 0.020731937 -0.015613798 -0.013333608 7.071068e-011 7.071068e-011 7.071068e-011 7.071068e-011
7180180180.1802 0.018605996 0.072241977 0.017440381 -0.010334456 7.071068e-011 7.071068e-011 7.071068e-011 7.071068e-011
7188588588.5886 0.06766165 0.056312066 0.0039022681 0.020246577 7.071068e-011 7.071068e-011 7.071068e-011 7.071068e-011
7196996996.997 0.03996256 0.0099236695 -0.020414744 -0.0026512539 7.071068e-011 7.071068e-011 7.071068e-011 7.071068e-011
7205405405.4054 0.012066566 0.067363247 0.0093822489 -0.01784219 7.071068e-011 7.071068e-011 7.071068e-011 7.071068e-011
7213813813.8138 0.083678775 0.067151211 0.013733788 0.014980431 7.071068e-011 7.071068e-011 7.071068e-011 7.071068e-011
7222222222.2222 0.065705307 -0.0057384321 -0.018755805 0.0081668738 7.071068e-011 7.071068e-011 7.071068e-011 7.071068e-011
7230630630.6306 -0.0010161465 0.035611253 -0.0014509031 -0.020268682 7.071068e-011 7.071068e-011 7.071068e-011 7.071068e-011
7239039039.039 0.071542703 0.075168923 0.019762026 0.0057652979 7.071068e-011 7.071068e-011 7.071068e-011 7.071068e-011
7247447447.4474 0.075176418 -0.014580732 -0.011872335 0.016839551 7.071068e-011 7.071068e-011 7.071068e-011 7.071068e-011
7255855855.8559 -0.016617522 0.0071981293 -0.011529684 -0.01683178 7.071068e-011 7.071068e-011 7.071068e-011 7.071068e-011
7264264264.2643 0.034934271 0.084349394 0.019909585 -0.005354227 7.071068e-011 7.071068e-011 7.071068e-011 7.071068e-011
7272672672.6727 0.074560836 0.00023292015 -0.0014426648 0.020333705 7.071068e-011 7.071068e-011 7.071068e-011 7.071068e-011
7281081081.0811 -0.030351624 0.0010736331 -0.018550165 -0.0083133299 7.071068e-011 7.071068e-011 7.071068e-011 7.071068e-011
7289489489.4895 0.00055877253 0.10772393 0.014509971 -0.0144979 7.071068e-011 7.071068e-011 7.071068e-011 7.071068e-011
7297897897.8979 0.084652171 0.050254051 0.0087475572 0.018614631 7.071068e-011 7.071068e-011 7.071068e-011 7.071068e-011
7306306306.3063 0.0010910226 0.0092251934 -0.020371944 0.0016004983 7.071068e-011 7.071068e-011 7.071068e-011 7.071068e-011
7314714714.7147 0.0041543585 0.11262637 0.0053033996 -0.020108663 7.071068e-011 7.071068e-011 7.071068e-011 7.071068e-011
7323123123.1231 0.1127572 0.075495094 0.016873391 0.011579941 7.071068e-011 7.071068e-011 7.071068e-011 7.071068e-011
7331531531.5315 0.051116347 -0.012164748 -0.017125815 0.011646423 7.071068e-011 7.071068e-011 7.071068e-011 7.071068e-011
7339939939.9399 0.0077971802 0.069167145 -0.005321688 -0.020331163 7.071068e-011 7.071068e-011 7.071068e-011 7.071068e-011
7348348348.3483 0.10594505 0.063305832 0.020709118 0.0018538613 7.071068e-011 7.071068e-011 7.071068e-011 7.071068e-011
7356756756.7568 0.065609008 -0.036971845 -0.0090641985 0.01861871 7.071068e-011 7.071068e-011 7.071068e-011 7.071068e-011
7365165165.1652 -0.0098590953 0.021166984 -0.01462737 -0.01501069 7.071068e-011 7.071068e-011 7.071068e-011 7.071068e-011
7373573573.5736 0.061455525 0.04953346 0.018806769 -0.0085223522 7.071068e-011 7.071068e-011 7.071068e-011 7.071068e-011
7381981981.982 0.043987181 -0.035203125 0.0011114668 0.020911211 7.071068e-011 7.071068e-011 7.071068e-011 7.071068e-011
7390390390.3904 -0.04319758 0.0094975978 -0.020149348 -0.0060528517 7.071068e-011 7.071068e-011 7.071068e-011 7.071068e-011
7398798798.7988 0.013107361 0.071550116 0.012723272 -0.016569966 7.071068e-011 7.071068e-011 7.071068e-011 7.071068e-011
7407207207.2072 0.027996015 0.0093561839 0.0111303 0.017774181 7.071068e-011 7.071068e-011 7.071068e-011 7.071068e-011
7415615615.6156 -0.041287545 0.035748299 -0.020655628 0.0044029863 7.071068e-011 7.071068e-011 7.071068e-011 7.071068e-011
7424024024.024 0.0072465348 0.10490052 0.002973919 -0.020835239 7.071068e-011 7.071068e-011 7.071068e-011 7.071068e-011
7432432432.4324 0.054338761 0.053993028 0.018520305 0.010258213 7.071068e-011 7.071068e-011 7.071068e-011 7.071068e-011
7440840840.8408 0.01001134 0.042562135 -0.015936423 0.013955222 7.071068e-011 7.071068e-011 7.071068e-011 7.071068e-011
7449249249.2492 0.03012077 0.086926222 -0.0073012714 -0.019651391 7.071068e-011 7.071068e-011 7.071068e-011 7.071068e-011
7457657657.6577 0.078098252 0.049222693 0.021038674 0.00011311044 7.071068e-011 7.071068e-011 7.071068e-011 7.071068e-011
7466066066.0661 0.041660465 0.013734129 -0.0074017509 0.01975327 7.071068e-011 7.071068e-011 7.071068e-011 7.071068e-011
7474474474.4745 0.030442504 0.039757047 -0.015811158 -0.013664773 7.071068e-011 7.071068e-011 7.071068e-011 7.071068e-011
7482882882.8829 0.06015496 0.028765451 0.018430695 -0.0097524431 7.071068e-011 7.071068e-011 7.071068e-011 7.071068e-011
7491291291.2913 0.038558263 -0.01322424 0.0026757093 0.020722255 7.071068e-011 7.071068e-011 7.071068e-011 7.071068e-011
7499699699.6997 -0.0030267795 0.0024125525 -0.020180121 -0.0048214807 7.071068e-011 7.071068e-011 7.071068e-011 7.071068e-011
7508108108.1081 0.0030664015 0.03187234 0.0115809 -0.017183157 7.071068e-011 7.071068e-011 7.071068e-011 7.071068e-011
7516516516.5165 0.019622525 0.01205535 0.011922586 0.016782219 7.071068e-011 7.071068e-011 7.071068e-011 7.071068e-011
7524924924.9249 -0.026630215 0.0063402429 -0.01980464 0.0050736228 7.071068e-011 7.071068e-011 7.071068e-011 7.071068e-011
7533333333.3333 -0.029706344 0.06640701 0.002471271 -0.020286776 7.071068e-011 7.071068e-011 7.071068e-011 7.071068e-011
7541741741.7417 0.027982039 0.068424493 0.018079098 0.009355532 7.071068e-011 7.071068e-011 7.071068e-011 7.071068e-011
7550150150.1502 0.012700806 0.020887394 -0.015046942 0.013109327 7.071068e-011 7.071068e-011 7.071068e-011 7.071068e-011
7558558558.5586 -0.015030945 0.068348937 -0.0068190922 -0.018847007 7.071068e-011 7.071068e-011 7.071068e-011 7.071068e-011
7566966966.967 0.055401754 0.078139074 0.019814553 0.00043849775 7.071068e-011 7.071068e-011 7.071068e-011 7.071068e-011
7575375375.3754 0.053762749 0.00093152752 -0.0077952305 0.018301131 7.071068e-011 7.071068e-011 7.071068e-011 7.071068e-011
7583783783.7838 -0.012160609 0.024017157 -0.014291661 -0.013902799 7.071068e-011 7.071068e-011 7.071068e-011 7.071068e-011
7592192192.1922 0.04580697 0.060850304 0.01779905 -0.0082720155 7.071068e-011 7.071068e-011 7.071068e-011 7.071068e-011
7600600600.6006 0.051624399 -0.024763459 0.00089947344 0.019273009 7.071068e-011 7.071068e-011 7.071068e-011 7.071068e-011
7609009009.009 -0.0380992 -0.010329029 -0.018693333 -0.0064402507 7.071068e-011 7.071068e-011 7.071068e-011 7.071068e-011
7617417417.4174 -0.0048349877 0.057850607 0.012475532 -0.015178555 7.071068e-011 7.071068e-011 7.071068e-011 7.071068e-011
7625825825.8258 0.026081262 -0.0040253196 0.0093588615 0.017217249 7.071068e-011 7.071068e-011 7.071068e-011 7.071068e-011
7634234234.2342 -0.060410663 0.004004539 -0.019357136 0.0024586129 7.071068e-011 7.071068e-011 7.071068e-011 7.071068e-011
7642642642.6426 -0.026792258 0.091660552 0.0048989775 -0.018727627 7.071068e-011 7.071068e-011 7.071068e-011 7.071068e-011
7651051051.0511 0.037830561 0.042510834 0.015614668 0.011550627 7.071068e-011 7.071068e-011 7.071068e-011 7.071068e-011
7659459459.4595 -0.030167306 0.017953087 -0.016581226 0.010584551 7.071068e-011 7.071068e-011 7.071068e-011 7.071068e-011
7667867867.8679 -0.011351759 0.10283583 -0.003882366 -0.018913466 7.071068e-011 7.071068e-011 7.071068e-011 7.071068e-011
7676276276.2763 0.073900476 0.058592085 0.018907452 0.0039007408 7.071068e-011 7.071068e-011 7.071068e-011 7.071068e-011
7684684684.6847 0.021129396 -0.0036349508 -0.010639574 0.01647169 7.071068e-011 7.071068e-011 7.071068e-011 7.071068e-011
7693093093.0931 0.00097310421 0.054322317 -0.011396754 -0.015793527 7.071068e-011 7.071068e-011 7.071068e-011 7.071068e-011
7701501501.5015 0.070825122 0.032570332 0.018832276 -0.0048273518 7.071068e-011 7.071068e-011 7.071068e-011 7.071068e-011
7709909909.9099 0.023573248 -0.042457514 -0.0025362987 0.019327534 7.071068e-011 7.071068e-011 7.071068e-011 7.071068e-011
7718318318.3183 -0.033452217 0.010805015 -0.01706236 -0.0094537381 7.071068e-011 7.071068e-011 7.071068e-011 7.071068e-011
7726726726.7267 0.024757802 0.028026704 0.015258701 -0.012140471 7.071068e-011 7.071068e-011 7.071068e-011 7.071068e-011
7735135135.1351 0.0026565159 -0.041678511 0.005907096 0.018746907 7.071068e-011 7.071068e-011 7.071068e-011 7.071068e-011
7743543543.5435 -0.075036272 0.0002056393 -0.019334577 -0.0014173657 7.071068e-011 7.071068e-011 7.071068e-011 7.071068e-011
7751951951.952 -0.030174997 0.064032227 0.0086220903 -0.017527595 7.071068e-011 7.071068e-011 7.071068e-011 7.071068e-011
7760360360.3604 -0.0028871153 0.017571611 0.013154864 0.014505115 7.071068e-011 7.071068e-011 7.071068e-011 7.071068e-011
7768768768.7688 -0.05809677 0.028399015 -0.018405719 0.0068488782 7.071068e-011 7.071068e-011 7.071068e-011 7.071068e-011
7777177177.1772 -0.027512111 0.095550932 0.00053773914 -0.019539675 7.071068e-011 7.071068e-011 7.071068e-011 7.071068e-011
7785585585.5856 0.034140952 0.058129288 0.017979503 0.0076902411 7.071068e-011 7.071068e-011 7.071068e-011 7.071068e-011
7793993993.994 -0.0058539864 0.02753015 -0.013724611 0.013595921 7.071068e-011 7.071068e-011 7.071068e-011 7.071068e-011
7802402402.4024 -0.00032808507 0.075320572 -0.0075390395 -0.018160338 7.071068e-011 7.071068e-011 7.071068e-011 7.071068e-011
7810810810.8108 0.058064461 0.048528291 0.019563776 -0.00048613027 7.071068e-011 7.071068e-011 7.071068e-011 7.071068e-011
7819219219.2192 0.025831798 -0.0061258371 -0.0070416676 0.018160781 7.071068e-011 7.071068e-011 7.071068e-011 7.071068e-011
7827627627.6276 -0.0033916002 0.026700638 -0.014285655 -0.013309514 7.071068e-011 7.071068e-011 7.071068e-011 7.071068e-011
7836036036.036 0.037268121 0.02585726 0.017669903 -0.0082958061 7.071068e-011 7.071068e-011 7.071068e-011 7.071068e-011
7844444444.4444 0.016811693 -0.023763493 0.0011478477 0.019540349 7.071068e-011 7.071068e-011 7.071068e-011 7.071068e-011
7852852852.8529 -0.028569577 0.0029020074 -0.018640084 -0.0062524825 7.071068e-011 7.071068e-011 7.071068e-011 7.071068e-011
7861261261.2613 0.0019648094 0.029779002 0.012610089 -0.014942341 7.071068e-011 7.071068e-011 7.071068e-011 7.071068e-011
7869669669.6697 0.0053677517 -0.0096153766 0.0089728655 0.017361032 7.071068e-011 7.071068e-011 7.071068e-011 7.071068e-011
7878078078.0781 -0.040472399 0.0037678536 -0.019603362 0.0019925204 7.071068e-011 7.071068e-011 7.071068e-011 7.071068e-011
7886486486.4865 -0.024224283 0.04666885 0.0052875071 -0.018833997 7.071068e-011 7.071068e-011 7.071068e-011 7.071068e-011
7894894894.8949 0.010677267 0.030445166 0.015270851 0.011839683 7.071068e-011 7.071068e-011 7.071068e-011 7.071068e-011
7903303303.3033 -0.013249238 0.011023278 -0.016906662 0.0096234325 7.071068e-011 7.071068e-011 7.071068e-011 7.071068e-011
7911711711.7117 -0.018161494 0.043949597 -0.0027693301 -0.019295821 7.071068e-011 7.071068e-011 7.071068e-011 7.071068e-011
7920120120.1201 0.023421014 0.045057345 0.018727899 0.0046513192 7.071068e-011 7.071068e-011 7.071068e-011 7.071068e-011
7928528528.5285 0.023376817 0.0016750448 -0.011324044 0.015604863 7.071068e-011 7.071068e-011 7.071068e-011 7.071068e-011
7936936936.9369 -0.0098923799 0.011559382 -0.010101339 -0.016210627 7.071068e-011 7.071068e-011 7.071068e-011 7.071068e-011
7945345345.3453 0.017933911 0.031809993 0.018832074 -0.0031035892 7.071068e-011 7.071068e-011 7.071068e-011 7.071068e-011
