!Keysight Technologies,N5235B,MY61252044,A.15.00.15
!Date: Saturday, January 21, 2023 00:06:57
!Correction: S11(Off) 
!S21(Off) 
!S12(Off) 
!S22(Off) 
!S2P File: Measurements: S11, S21, S12, S22:
# Hz S  RI   R 50
6600000000 0.019088775 -0.17545557 0.015447149 -0.0030281635 7.071068e-011 7.071068e-011 7.071068e-011 7.071068e-011
6608408408.4084 -0.12503399 0.16501537 0.0052868011 0.010836761 7.071068e-011 7.071068e-011 7.071068e-011 7.071068e-011
6616816816.8168 0.30564547 0.093409769 -0.0089139491 0.0036733027 7.071068e-011 7.071068e-011 7.071068e-011 7.071068e-011
6625225225.2252 0.025459502 -0.27295271 -0.0017595413 -0.0093066311 7.071068e-011 7.071068e-011 7.071068e-011 7.071068e-011
6633633633.6336 -0.16614029 0.16065893 0.009338174 -0.00036770882 7.071068e-011 7.071068e-011 7.071068e-011 7.071068e-011
6642042042.042 0.28943074 0.11383973 -0.0018745973 0.0093160989 7.071068e-011 7.071068e-011 7.071068e-011 7.071068e-011
6650450450.4505 0.039919477 -0.25195977 -0.010716137 -0.0041182046 7.071068e-011 7.071068e-011 7.071068e-011 7.071068e-011
6658858858.8589 -0.14868169 0.13370158 0.0060046106 -0.011485281 7.071068e-011 7.071068e-011 7.071068e-011 7.071068e-011
6667267267.2673 0.2280665 0.10172417 0.012187279 0.0091940882 7.071068e-011 7.071068e-011 7.071068e-011 7.071068e-011
6675675675.6757 0.043393992 -0.15095717 -0.011566937 0.013800184 7.071068e-011 7.071068e-011 7.071068e-011 7.071068e-011
6684084084.0841 -0.044464637 0.083756238 -0.01457129 -0.013382053 7.071068e-011 7.071068e-011 7.071068e-011 7.071068e-011
6692492492.4925 0.10554685 0.047601249 0.014845907 -0.014889637 7.071068e-011 7.071068e-011 7.071068e-011 7.071068e-011
6700900900.9009 0.08600539 0.018507741 0.014730944 0.015440186 7.071068e-011 7.071068e-011 7.071068e-011 7.071068e-011
6709309309.3093 0.077467456 -0.041903153 -0.015577918 0.013070952 7.071068e-011 7.071068e-011 7.071068e-011 7.071068e-011
6717717717.7177 -0.031307846 0.034030497 -0.010102984 -0.016496181 7.071068e-011 7.071068e-011 7.071068e-011 7.071068e-011
6726126126.1261 0.15472205 0.11658929 0.016809905 -0.0070452169 7.071068e-011 7.071068e-011 7.071068e-011 7.071068e-011
6734534534.5345 0.1291196 -0.14042187 0.0035174959 0.016234621 7.071068e-011 7.071068e-011 7.071068e-011 7.071068e-011
6742942942.9429 -0.10792657 0.026009396 -0.015906608 -0.00031484253 7.071068e-011 7.071068e-011 7.071068e-011 7.071068e-011
6751351351.3514 0.17091987 0.15294647 0.0036516311 -0.015359431 7.071068e-011 7.071068e-011 7.071068e-011 7.071068e-011
6759759759.7598 0.15127079 -0.17115895 0.013161778 0.0070990259 7.071068e-011 7.071068e-011 7.071068e-011 7.071068e-011
6768168168.1682 -0.14682758 -0.0062483586 -0.010879934 0.010378928 7.071068e-011 7.071068e-011 7.071068e-011 7.071068e-011
6776576576.5766 0.13331896 0.17919713 -0.00796971 -0.013488944 7.071068e-011 7.071068e-011 7.071068e-011 7.071068e-011
6784984984.985 0.15175785 -0.14568992 0.01456569 -0.0039783702 7.071068e-011 7.071068e-011 7.071068e-011 7.071068e-011
6793393393.3934 -0.14721869 -0.0073085208 -0.00038585174 0.015517685 7.071068e-011 7.071068e-011 7.071068e-011 7.071068e-011
6801801801.8018 0.10079947 0.20280716 -0.015704883 -0.0043331571 7.071068e-011 7.071068e-011 7.071068e-011 7.071068e-011
6810210210.2102 0.17287011 -0.094346203 0.0087126344 -0.014406738 7.071068e-011 7.071068e-011 7.071068e-011 7.071068e-011
6818618618.6186 -0.10504097 -0.010961721 0.012108291 0.013264263 7.071068e-011 7.071068e-011 7.071068e-011 7.071068e-011
6827027027.027 0.087198101 0.185473 -0.015979435 0.0091696139 7.071068e-011 7.071068e-011 7.071068e-011 7.071068e-011
6835435435.4354 0.18170953 -0.048256032 -0.0044319616 -0.017903449 7.071068e-011 7.071068e-011 7.071068e-011 7.071068e-011
6843843843.8438 -0.045123469 -0.028461814 0.020165572 0.0002995446 7.071068e-011 7.071068e-011 7.071068e-011 7.071068e-011
6852252252.2523 0.07428892 0.12918931 -0.0046302783 0.020285247 7.071068e-011 7.071068e-011 7.071068e-011 7.071068e-011
6860660660.6607 0.14519265 -0.019910149 -0.01857407 -0.0096526686 7.071068e-011 7.071068e-011 7.071068e-011 7.071068e-011
6869069069.0691 0.0044004396 -0.027244313 0.014554213 -0.016048443 7.071068e-011 7.071068e-011 7.071068e-011 7.071068e-011
6877477477.4775 0.053795528 0.07243976 0.012633776 0.018117968 7.071068e-011 7.071068e-011 7.071068e-011 7.071068e-011
6885885885.8859 0.090340234 0.0070713758 -0.020462297 0.0076481272 7.071068e-011 7.071068e-011 7.071068e-011 7.071068e-011
6894294294.2943 0.047362622 -0.0010183364 -0.0022530844 -0.022012869 7.071068e-011 7.071068e-011 7.071068e-011 7.071068e-011
6902702702.7027 0.038226016 0.019284699 0.021974437 0.0032958926 7.071068e-011 7.071068e-011 7.071068e-011 7.071068e-011
6911111111.1111 0.030900713 0.037617739 -0.0088276668 0.020180279 7.071068e-011 7.071068e-011 7.071068e-011 7.071068e-011
6919519519.5195 0.078237914 0.050072894 -0.016903535 -0.013656814 7.071068e-011 7.071068e-011 7.071068e-011 7.071068e-011
6927927927.9279 0.050937895 -0.012408519 0.017268078 -0.012727705 7.071068e-011 7.071068e-011 7.071068e-011 7.071068e-011
6936336336.3363 -0.0022819513 0.061989214 0.0072187316 0.019488666 7.071068e-011 7.071068e-011 7.071068e-011 7.071068e-011
6944744744.7447 0.1122518 0.089565963 -0.020830678 0.0010965479 7.071068e-011 7.071068e-011 7.071068e-011 7.071068e-011
6953153153.1532 0.084602259 -0.04545651 0.0045349188 -0.01997599 7.071068e-011 7.071068e-011 7.071068e-011 7.071068e-011
6961561561.5616 -0.028412258 0.054102235 0.017301504 0.0099907434 7.071068e-011 7.071068e-011 7.071068e-011 7.071068e-011
6969969969.97 0.12436166 0.106107 -0.014539029 0.013505445 7.071068e-011 7.071068e-011 7.071068e-011 7.071068e-011
6978378378.3784 0.10202622 -0.070624948 -0.0083353277 -0.017384904 7.071068e-011 7.071068e-011 7.071068e-011 7.071068e-011
6986786786.7868 -0.06407886 0.032335583 0.018726349 -0.0022333313 7.071068e-011 7.071068e-011 7.071068e-011 7.071068e-011
6995195195.1952 0.10262246 0.13408199 -0.0035987659 0.018900549 7.071068e-011 7.071068e-011 7.071068e-011 7.071068e-011
7003603603.6036 0.10922626 -0.057651017 -0.016575053 -0.0089466805 7.071068e-011 7.071068e-011 7.071068e-011 7.071068e-011
7012012012.012 -0.072610341 0.032066517 0.014144962 -0.01243169 7.071068e-011 7.071068e-011 7.071068e-011 7.071068e-011
7020420420.4204 0.087641098 0.16152519 0.0077472753 0.017339807 7.071068e-011 7.071068e-011 7.071068e-011 7.071068e-011
7028828828.8288 0.1328762 -0.028712515 -0.018523647 0.0017827764 7.071068e-011 7.071068e-011 7.071068e-011 7.071068e-011
7037237237.2372 -0.053834729 0.030305108 0.0044637453 -0.018623663 7.071068e-011 7.071068e-011 7.071068e-011 7.071068e-011
7045645645.6456 0.089659818 0.1709016 0.016416416 0.0098392684 7.071068e-011 7.071068e-011 7.071068e-011 7.071068e-011
7054054054.0541 0.16772956 -0.0027634865 -0.014698526 0.012005281 7.071068e-011 7.071068e-011 7.071068e-011 7.071068e-011
7062462462.4625 -0.007902259 -0.004287608 -0.0067855874 -0.018484345 7.071068e-011 7.071068e-011 7.071068e-011 7.071068e-011
7070870870.8709 0.07793761 0.14032587 0.019769462 -0.0011471849 7.071068e-011 7.071068e-011 7.071068e-011 7.071068e-011
7079279279.2793 0.16839553 0.0076501672 -0.0055897511 0.018776162 7.071068e-011 7.071068e-011 7.071068e-011 7.071068e-011
7087687687.6877 0.03275219 -0.027133923 -0.016608952 -0.011526431 7.071068e-011 7.071068e-011 7.071068e-011 7.071068e-011
7096096096.0961 0.059277121 0.089127779 0.015967177 -0.012440745 7.071068e-011 7.071068e-011 7.071068e-011 7.071068e-011
7104504504.5045 0.14773948 0.010621138 0.0064875004 0.019148022 7.071068e-011 7.071068e-011 7.071068e-011 7.071068e-011
7112912912.9129 0.051053818 -0.044707488 -0.020632723 -0.00018104678 7.071068e-011 7.071068e-011 7.071068e-011 7.071068e-011
7121321321.3213 0.034267835 0.031743862 0.0063507259 -0.019820135 7.071068e-011 7.071068e-011 7.071068e-011 7.071068e-011
7129729729.7297 0.089190677 0.014618644 0.016410882 0.012115915 7.071068e-011 7.071068e-011 7.071068e-011 7.071068e-011
7138138138.1381 0.043565013 -0.03775429 -0.017209301 0.011652532 7.071068e-011 7.071068e-011 7.071068e-011 7.071068e-011
7146546546.5465 -0.00053945789 0.013481202 -0.0058002849 -0.020127142 7.071068e-011 7.071068e-011 7.071068e-011 7.071068e-011
7154954954.955 0.030535605 0.041354306 0.020794896 0.00090659875 7.071068e-011 7.071068e-011 7.071068e-011 7.071068e-011
7163363363.3634 0.045003261 0.01586194 -0.0077054971 0.019073622 7.071068e-011 7.071068e-011 7.071068e-011 7.071068e-011
7171771771.7718 0.0012799907 0.02015846 -0.01571195 -0.013513515 7.071068e-011 7.071068e-011 7.071068e-011 7.071068e-011
7180180180.1802 0.018328195 0.072484247 0.017641654 -0.010344354 7.071068e-011 7.071068e-011 7.071068e-011 7.071068e-011
7188588588.5886 0.067742869 0.056284815 0.0038300431 0.020451758 7.071068e-011 7.071068e-011 7.071068e-011 7.071068e-011
7196996996.997 0.040028375 0.0100986 -0.020596756 -0.0027897807 7.071068e-011 7.071068e-011 7.071068e-011 7.071068e-011
7205405405.4054 0.01220658 0.066972211 0.0095907906 -0.017968548 7.071068e-011 7.071068e-011 7.071068e-011 7.071068e-011
7213813813.8138 0.083088502 0.067362845 0.013805598 0.015216855 7.071068e-011 7.071068e-011 7.071068e-011 7.071068e-011
7222222222.2222 0.066380352 -0.0054271687 -0.019002603 0.0081740608 7.071068e-011 7.071068e-011 7.071068e-011 7.071068e-011
7230630630.6306 -0.0013109178 0.034919664 -0.0013812422 -0.020492926 7.071068e-011 7.071068e-011 7.071068e-011 7.071068e-011
7239039039.039 0.071320422 0.075678192 0.019934045 0.0058930796 7.071068e-011 7.071068e-011 7.071068e-011 7.071068e-011
7247447447.4474 0.075419933 -0.014666318 -0.012054098 0.016943948 7.071068e-011 7.071068e-011 7.071068e-011 7.071068e-011
7255855855.8559 -0.01653129 0.0071169254 -0.011547998 -0.017044574 7.071068e-011 7.071068e-011 7.071068e-011 7.071068e-011
7264264264.2643 0.034620646 0.084077165 0.02012893 -0.0053010979 7.071068e-011 7.071068e-011 7.071068e-011 7.071068e-011
7272672672.6727 0.074493192 0.00087694079 -0.0015702087 0.020528391 7.071068e-011 7.071068e-011 7.071068e-011 7.071068e-011
7281081081.0811 -0.029686136 0.00060276716 -0.01869886 -0.0084982757 7.071068e-011 7.071068e-011 7.071068e-011 7.071068e-011
7289489489.4895 -0.00028225948 0.10750501 0.01472974 -0.014576741 7.071068e-011 7.071068e-011 7.071068e-011 7.071068e-011
7297897897.8979 0.08498507 0.050938122 0.0087523395 0.018843981 7.071068e-011 7.071068e-011 7.071068e-011 7.071068e-011
7306306306.3063 0.0013197643 0.008737403 -0.02057695 0.0015262644 7.071068e-011 7.071068e-011 7.071068e-011 7.071068e-011
7314714714.7147 0.0038856647 0.11261281 0.0054467665 -0.020273825 7.071068e-011 7.071068e-011 7.071068e-011 7.071068e-011
7323123123.1231 0.11258516 0.075623192 0.016973328 0.011772229 7.071068e-011 7.071068e-011 7.071068e-011 7.071068e-011
7331531531.5315 0.051490169 -0.011859256 -0.017353794 0.011663653 7.071068e-011 7.071068e-011 7.071068e-011 7.071068e-011
7339939939.9399 0.0077902037 0.068407625 -0.0052665137 -0.020559629 7.071068e-011 7.071068e-011 7.071068e-011 7.071068e-011
7348348348.3483 0.1053047 0.06387496 0.020909991 0.0019771082 7.071068e-011 7.071068e-011 7.071068e-011 7.071068e-011
7356756756.7568 0.066408232 -0.036913846 -0.0092473328 0.018759992 7.071068e-011 7.071068e-011 7.071068e-011 7.071068e-011
7365165165.1652 -0.01026953 0.020603703 -0.014700572 -0.015227344 7.071068e-011 7.071068e-011 7.071068e-011 7.071068e-011
7373573573.5736 0.061320044 0.049967632 0.019031713 -0.0085177561 7.071068e-011 7.071068e-011 7.071068e-011 7.071068e-011
7381981981.982 0.044148661 -0.035242591 0.0010152771 0.021118708 7.071068e-011 7.071068e-011 7.071068e-011 7.071068e-011
7390390390.3904 -0.043042764 0.0094420882 -0.020313779 -0.006205379 7.071068e-011 7.071068e-011 7.071068e-011 7.071068e-011
7398798798.7988 0.012754736 0.071266033 0.012929338 -0.016662892 7.071068e-011 7.071068e-011 7.071068e-011 7.071068e-011
7407207207.2072 0.028048459 0.010004438 0.011143123 0.018006029 7.071068e-011 7.071068e-011 7.071068e-011 7.071068e-011
7415615615.6156 -0.040831584 0.035176914 -0.020879302 0.0043402114 7.071068e-011 7.071068e-011 7.071068e-011 7.071068e-011
7424024024.024 0.0065642684 0.10497773 0.0031081105 -0.021024868 7.071068e-011 7.071068e-011 7.071068e-011 7.071068e-011
7432432432.4324 0.054759089 0.054308936 0.018645352 0.010457285 7.071068e-011 7.071068e-011 7.071068e-011 7.071068e-011
7440840840.8408 0.0099353418 0.042219091 -0.016166262 0.014012888 7.071068e-011 7.071068e-011 7.071068e-011 7.071068e-011
7449249249.2492 0.030113684 0.087026753 -0.0072777094 -0.019884046 7.071068e-011 7.071068e-011 7.071068e-011 7.071068e-011
7457657657.6577 0.077926159 0.049124587 0.021250494 0.00021948881 7.071068e-011 7.071068e-011 7.071068e-011 7.071068e-011
7466066066.0661 0.041888498 0.014029532 -0.007563273 0.019912111 7.071068e-011 7.071068e-011 7.071068e-011 7.071068e-011
7474474474.4745 0.030432351 0.039197914 -0.015901823 -0.013865719 7.071068e-011 7.071068e-011 7.071068e-011 7.071068e-011
7482882882.8829 0.059770785 0.029197091 0.018649571 -0.0097524496 7.071068e-011 7.071068e-011 7.071068e-011 7.071068e-011
7491291291.2913 0.03903082 -0.013319432 0.0025929851 0.020928212 7.071068e-011 7.071068e-011 7.071068e-011 7.071068e-011
7499699699.6997 -0.0033161149 0.0022742001 -0.020340439 -0.0049719661 7.071068e-011 7.071068e-011 7.071068e-011 7.071068e-011
7508108108.1081 0.003157089 0.03194214 0.011789965 -0.017281214 7.071068e-011 7.071068e-011 7.071068e-011 7.071068e-011
7516516516.5165 0.019426599 0.012077493 0.011945658 0.017014576 7.071068e-011 7.071068e-011 7.071068e-011 7.071068e-011
7524924924.9249 -0.026276248 0.0065076938 -0.020034373 0.0050188592 7.071068e-011 7.071068e-011 7.071068e-011 7.071068e-011
7533333333.3333 -0.029935285 0.065874539 0.0025933504 -0.02048165 7.071068e-011 7.071068e-011 7.071068e-011 7.071068e-011
7541741741.7417 0.027767692 0.069032624 0.018218141 0.0095308032 7.071068e-011 7.071068e-011 7.071068e-011 7.071068e-011
7550150150.1502 0.013215761 0.020581111 -0.015244653 0.013171762 7.071068e-011 7.071068e-011 7.071068e-011 7.071068e-011
7558558558.5586 -0.015413839 0.068246447 -0.006793336 -0.019048303 7.071068e-011 7.071068e-011 7.071068e-011 7.071068e-011
7566966966.967 0.055451892 0.078247786 0.01998686 0.00054432935 7.071068e-011 7.071068e-011 7.071068e-011 7.071068e-011
7575375375.3754 0.05377087 0.0010501411 -0.0079657407 0.018425249 7.071068e-011 7.071068e-011 7.071068e-011 7.071068e-011
7583783783.7838 -0.011864404 0.023769785 -0.014345726 -0.01411775 7.071068e-011 7.071068e-011 7.071068e-011 7.071068e-011
7592192192.1922 0.045247026 0.060714319 0.018023899 -0.008252712 7.071068e-011 7.071068e-011 7.071068e-011 7.071068e-011
7600600600.6006 0.05195054 -0.024159007 0.0008106429 0.019476498 7.071068e-011 7.071068e-011 7.071068e-011 7.071068e-011
7609009009.009 -0.037874486 -0.01104754 -0.018848322 -0.0065969871 7.071068e-011 7.071068e-011 7.071068e-011 7.071068e-011
7617417417.4174 -0.0054602409 0.058137376 0.01266853 -0.015269086 7.071068e-011 7.071068e-011 7.071068e-011 7.071068e-011
7625825825.8258 0.026542047 -0.0038366409 0.0093647176 0.017419463 7.071068e-011 7.071068e-011 7.071068e-011 7.071068e-011
7634234234.2342 -0.060456976 0.0037295369 -0.019547068 0.0023794575 7.071068e-011 7.071068e-011 7.071068e-011 7.071068e-011
7642642642.6426 -0.026890542 0.091577314 0.0050505316 -0.018872976 7.071068e-011 7.071068e-011 7.071068e-011 7.071068e-011
7651051051.0511 0.037589196 0.042772707 0.015702201 0.011749103 7.071068e-011 7.071068e-011 7.071068e-011 7.071068e-011
7659459459.4595 -0.029561924 0.017956786 -0.016805358 0.010601557 7.071068e-011 7.071068e-011 7.071068e-011 7.071068e-011
7667867867.8679 -0.011814542 0.10226747 -0.0038247234 -0.019124281 7.071068e-011 7.071068e-011 7.071068e-011 7.071068e-011
7676276276.2763 0.073777914 0.059302848 0.019069966 0.0040225065 7.071068e-011 7.071068e-011 7.071068e-011 7.071068e-011
7684684684.6847 0.021707695 -0.0039879256 -0.010820699 0.016571768 7.071068e-011 7.071068e-011 7.071068e-011 7.071068e-011
7693093093.0931 0.00048423556 0.054137092 -0.011416352 -0.015998058 7.071068e-011 7.071068e-011 7.071068e-011 7.071068e-011
7701501501.5015 0.070914343 0.032836266 0.019029558 -0.0047698636 7.071068e-011 7.071068e-011 7.071068e-011 7.071068e-011
7709909909.9099 0.02363034 -0.042469218 -0.0026732774 0.01949507 7.071068e-011 7.071068e-011 7.071068e-011 7.071068e-011
7718318318.3183 -0.033258341 0.010574901 -0.017173721 -0.0096485456 7.071068e-011 7.071068e-011 7.071068e-011 7.071068e-011
7726726726.7267 0.024188112 0.027974175 0.015479428 -0.012185194 7.071068e-011 7.071068e-011 7.071068e-011 7.071068e-011
7735135135.1351 0.0030959877 -0.041132588 0.0058723222 0.018969037 7.071068e-011 7.071068e-011 7.071068e-011 7.071068e-011
7743543543.5435 -0.074930333 -0.00052414829 -0.019519994 -0.0015208351 7.071068e-011 7.071068e-011 7.071068e-011 7.071068e-011
7751951951.952 -0.030699531 0.064351007 0.0087782498 -0.017654182 7.071068e-011 7.071068e-011 7.071068e-011 7.071068e-011
7760360360.3604 -0.0024737902 0.01769818 0.013201297 0.014699395 7.071068e-011 7.071068e-011 7.071068e-011 7.071068e-011
7768768768.7688 -0.058150105 0.02819836 -0.018602081 0.0068084649 7.071068e-011 7.071068e-011 7.071068e-011 7.071068e-011
7777177177.1772 -0.027521919 0.095473476 0.00065051782 -0.019710731 7.071068e-011 7.071068e-011 7.071068e-011 7.071068e-011
7785585585.5856 0.033887833 0.058276318 0.018096896 0.0078731496 7.071068e-011 7.071068e-011 7.071068e-011 7.071068e-011
7793993993.994 -0.0053577512 0.02766322 -0.013947255 0.013643796 7.071068e-011 7.071068e-011 7.071068e-011 7.071068e-011
7802402402.4024 -0.0006442407 0.074732706 -0.0075174388 -0.018391462 7.071068e-011 7.071068e-011 7.071068e-011 7.071068e-011
7810810810.8108 0.057912912 0.049148947 0.019771788 -0.00038896539 7.071068e-011 7.071068e-011 7.071068e-011 7.071068e-011
7819219219.2192 0.026285309 -0.0064424132 -0.0071962392 0.01830731 7.071068e-011 7.071068e-011 7.071068e-011 7.071068e-011
7827627627.6276 -0.0037442122 0.02660284 -0.014362129 -0.013498631 7.071068e-011 7.071068e-011 7.071068e-011 7.071068e-011
7836036036.036 0.037354924 0.025939154 0.017868049 -0.0082859593 7.071068e-011 7.071068e-011 7.071068e-011 7.071068e-011
7844444444.4444 0.016742351 -0.023708895 0.001054395 0.019715765 7.071068e-011 7.071068e-011 7.071068e-011 7.071068e-011
7852852852.8529 -0.028284922 0.0027892701 -0.01876886 -0.0064086951 7.071068e-011 7.071068e-011 7.071068e-011 7.071068e-011
7861261261.2613 0.0015116426 0.029572871 0.012815224 -0.015002818 7.071068e-011 7.071068e-011 7.071068e-011 7.071068e-011
7869669669.6697 0.0056025526 -0.0090818806 0.0089533133 0.017580707 7.071068e-011 7.071068e-011 7.071068e-011 7.071068e-011
7878078078.0781 -0.040276732 0.003223371 -0.019807298 0.0019014537 7.071068e-011 7.071068e-011 7.071068e-011 7.071068e-011
7886486486.4865 -0.024612285 0.0468578 0.0054418645 -0.018993357 7.071068e-011 7.071068e-011 7.071068e-011 7.071068e-011
7894894894.8949 0.010915661 0.030484792 0.015361057 0.012034884 7.071068e-011 7.071068e-011 7.071068e-011 7.071068e-011
7903303303.3033 -0.013331892 0.011023384 -0.017114779 0.0096371612 7.071068e-011 7.071068e-011 7.071068e-011 7.071068e-011
7911711711.7117 -0.017939661 0.043791324 -0.002703083 -0.019488964 7.071068e-011 7.071068e-011 7.071068e-011 7.071068e-011
7920120120.1201 0.022977205 0.045017038 0.018873472 0.0047851857 7.071068e-011 7.071068e-011 7.071068e-011 7.071068e-011
7928528528.5285 0.023783194 0.0020308001 -0.011501948 0.015682647 7.071068e-011 7.071068e-011 7.071068e-011 7.071068e-011
7936936936.9369 -0.0099253692 0.0109702 -0.010099596 -0.016413504 7.071068e-011 7.071068e-011 7.071068e-011 7.071068e-011
7945345345.3453 0.017618379 0.032151088 0.019026306 -0.0030226384 7.071068e-011 7.071068e-011 7.071068e-011 7.071068e-011
