!Keysight Technologies,N5235B,MY61252044,A.15.00.15
!Date: Friday, January 20, 2023 23:42:01
!Correction: S11(Off) 
!S21(Off) 
!S12(Off) 
!S22(Off) 
!S2P File: Measurements: S11, S21, S12, S22:
# Hz S  RI   R 50
6600000000 0.018715242 -0.17531411 0.015455133 -0.0030325451 7.071068e-011 7.071068e-011 7.071068e-011 7.071068e-011
6608408408.4084 -0.1247036 0.1653959 0.0052946289 0.010837381 7.071068e-011 7.071068e-011 7.071068e-011 7.071068e-011
6616816816.8168 0.3058553 0.092912301 -0.0089116581 0.0036813067 7.071068e-011 7.071068e-011 7.071068e-011 7.071068e-011
6625225225.2252 0.024888683 -0.27295309 -0.001767235 -0.0093079526 7.071068e-011 7.071068e-011 7.071068e-011 7.071068e-011
6633633633.6336 -0.16584152 0.16116349 0.0093383286 -0.00037803155 7.071068e-011 7.071068e-011 7.071068e-011 7.071068e-011
6642042042.042 0.28973484 0.1133761 -0.001866852 0.00931786 7.071068e-011 7.071068e-011 7.071068e-011 7.071068e-011
6650450450.4505 0.039391667 -0.25201595 -0.010718605 -0.004110116 7.071068e-011 7.071068e-011 7.071068e-011 7.071068e-011
6658858858.8589 -0.14848126 0.13415761 0.0059928857 -0.011489783 7.071068e-011 7.071068e-011 7.071068e-011 7.071068e-011
6667267267.2673 0.22835352 0.10140792 0.012192745 0.0091842702 7.071068e-011 7.071068e-011 7.071068e-011 7.071068e-011
6675675675.6757 0.043057095 -0.15103692 -0.01155914 0.013808681 7.071068e-011 7.071068e-011 7.071068e-011 7.071068e-011
6684084084.0841 -0.044398226 0.084015369 -0.014583494 -0.013370329 7.071068e-011 7.071068e-011 7.071068e-011 7.071068e-011
6692492492.4925 0.10570442 0.047515158 0.014838746 -0.014899627 7.071068e-011 7.071068e-011 7.071068e-011 7.071068e-011
6700900900.9009 0.085978091 0.018397512 0.014744777 0.015433677 7.071068e-011 7.071068e-011 7.071068e-011 7.071068e-011
6709309309.3093 0.077323996 -0.041886784 -0.015567633 0.013086332 7.071068e-011 7.071068e-011 7.071068e-011 7.071068e-011
6717717717.7177 -0.03122507 0.034233388 -0.010117606 -0.016492909 7.071068e-011 7.071068e-011 7.071068e-011 7.071068e-011
6726126126.1261 0.15493977 0.11640628 0.016809195 -0.0070633194 7.071068e-011 7.071068e-011 7.071068e-011 7.071068e-011
6734534534.5345 0.1288199 -0.14055964 0.003534483 0.016237041 7.071068e-011 7.071068e-011 7.071068e-011 7.071068e-011
6742942942.9429 -0.10789255 0.026384549 -0.015910842 -0.0003003852 7.071068e-011 7.071068e-011 7.071068e-011 7.071068e-011
6751351351.3514 0.17126532 0.15274137 0.0036361315 -0.01536456 7.071068e-011 7.071068e-011 7.071068e-011 7.071068e-011
6759759759.7598 0.15094019 -0.17139436 0.013170698 0.0070876307 7.071068e-011 7.071068e-011 7.071068e-011 7.071068e-011
6768168168.1682 -0.14687948 -0.005815438 -0.010870409 0.01039404 7.071068e-011 7.071068e-011 7.071068e-011 7.071068e-011
6776576576.5766 0.13373554 0.17904867 -0.0079836994 -0.013483137 7.071068e-011 7.071068e-011 7.071068e-011 7.071068e-011
6784984984.985 0.15144995 -0.14598046 0.014562971 -0.0039938642 7.071068e-011 7.071068e-011 7.071068e-011 7.071068e-011
6793393393.3934 -0.14732599 -0.0069050868 -0.00036737742 0.015520441 7.071068e-011 7.071068e-011 7.071068e-011 7.071068e-011
6801801801.8018 0.10120774 0.20274004 -0.015711017 -0.0043190001 7.071068e-011 7.071068e-011 7.071068e-011 7.071068e-011
6810210210.2102 0.17264117 -0.094665892 0.0086971596 -0.014417659 7.071068e-011 7.071068e-011 7.071068e-011 7.071068e-011
6818618618.6186 -0.10519093 -0.010619595 0.012123602 0.013252975 7.071068e-011 7.071068e-011 7.071068e-011 7.071068e-011
6827027027.027 0.087547287 0.18547113 -0.015973071 0.0091838846 7.071068e-011 7.071068e-011 7.071068e-011 7.071068e-011
6835435435.4354 0.18158233 -0.048537303 -0.0044521452 -0.017900595 7.071068e-011 7.071068e-011 7.071068e-011 7.071068e-011
6843843843.8438 -0.04528711 -0.028231572 0.020169321 0.00027854298 7.071068e-011 7.071068e-011 7.071068e-011 7.071068e-011
6852252252.2523 0.074541278 0.12922758 -0.0046128007 0.020291395 7.071068e-011 7.071068e-011 7.071068e-011 7.071068e-011
6860660660.6607 0.14514536 -0.020106919 -0.018588776 -0.0096353376 7.071068e-011 7.071068e-011 7.071068e-011 7.071068e-011
6869069069.0691 0.0042762845 -0.0271302 0.014540853 -0.016064404 7.071068e-011 7.071068e-011 7.071068e-011 7.071068e-011
6877477477.4775 0.053929396 0.07249973 0.012652528 0.01810704 7.071068e-011 7.071068e-011 7.071068e-011 7.071068e-011
6885885885.8859 0.090360157 0.0069813267 -0.020458141 0.007674152 7.071068e-011 7.071068e-011 7.071068e-011 7.071068e-011
6894294294.2943 0.047304779 -0.0010131598 -0.0022745272 -0.022015521 7.071068e-011 7.071068e-011 7.071068e-011 7.071068e-011
6902702702.7027 0.038229123 0.019331809 0.021979053 0.0032737763 7.071068e-011 7.071068e-011 7.071068e-011 7.071068e-011
6911111111.1111 0.030953649 0.037640963 -0.0088052414 0.020194113 7.071068e-011 7.071068e-011 7.071068e-011 7.071068e-011
6919519519.5195 0.078265272 0.049992193 -0.016920071 -0.013645157 7.071068e-011 7.071068e-011 7.071068e-011 7.071068e-011
6927927927.9279 0.050833777 -0.012404663 0.017256759 -0.012747999 7.071068e-011 7.071068e-011 7.071068e-011 7.071068e-011
6936336336.3363 -0.0022168208 0.062113062 0.0072438912 0.019480782 7.071068e-011 7.071068e-011 7.071068e-011 7.071068e-011
6944744744.7447 0.11236829 0.08944048 -0.020833138 0.001115303 7.071068e-011 7.071068e-011 7.071068e-011 7.071068e-011
6953153153.1532 0.084423766 -0.045513172 0.0045130309 -0.019984066 7.071068e-011 7.071068e-011 7.071068e-011 7.071068e-011
6961561561.5616 -0.028360926 0.054309424 0.017317992 0.0099713411 7.071068e-011 7.071068e-011 7.071068e-011 7.071068e-011
6969969969.97 0.12454741 0.10597413 -0.01452937 0.013521688 7.071068e-011 7.071068e-011 7.071068e-011 7.071068e-011
6978378378.3784 0.10181535 -0.070734911 -0.0083574634 -0.017375031 7.071068e-011 7.071068e-011 7.071068e-011 7.071068e-011
6986786786.7868 -0.064073272 0.032594241 0.018727627 -0.002254707 7.071068e-011 7.071068e-011 7.071068e-011 7.071068e-011
6995195195.1952 0.10285763 0.13396674 -0.003579834 0.018906768 7.071068e-011 7.071068e-011 7.071068e-011 7.071068e-011
7003603603.6036 0.10902164 -0.057814095 -0.01658725 -0.0089231534 7.071068e-011 7.071068e-011 7.071068e-011 7.071068e-011
7012012012.012 -0.072655879 0.032341633 0.014132501 -0.012449334 7.071068e-011 7.071068e-011 7.071068e-011 7.071068e-011
7020420420.4204 0.087914087 0.16146164 0.0077670952 0.017332837 7.071068e-011 7.071068e-011 7.071068e-011 7.071068e-011
7028828828.8288 0.13270754 -0.028919242 -0.01852449 0.0018052058 7.071068e-011 7.071068e-011 7.071068e-011 7.071068e-011
7037237237.2372 -0.053924918 0.030566698 0.0044439547 -0.018632984 7.071068e-011 7.071068e-011 7.071068e-011 7.071068e-011
7045645645.6456 0.089928664 0.1708969 0.016430914 0.0098207667 7.071068e-011 7.071068e-011 7.071068e-011 7.071068e-011
7054054054.0541 0.16763392 -0.0029847308 -0.014686606 0.012023464 7.071068e-011 7.071068e-011 7.071068e-011 7.071068e-011
7062462462.4625 -0.0080457516 -0.0040891166 -0.0068083764 -0.018477039 7.071068e-011 7.071068e-011 7.071068e-011 7.071068e-011
7070870870.8709 0.078173526 0.1403657 0.019769717 -0.0011708903 7.071068e-011 7.071068e-011 7.071068e-011 7.071068e-011
7079279279.2793 0.16836035 0.0074434122 -0.0055709952 0.018785123 7.071068e-011 7.071068e-011 7.071068e-011 7.071068e-011
7087687687.6877 0.032602511 -0.027021559 -0.016627636 -0.01150678 7.071068e-011 7.071068e-011 7.071068e-011 7.071068e-011
7096096096.0961 0.059446149 0.08921577 0.015955882 -0.012459557 7.071068e-011 7.071068e-011 7.071068e-011 7.071068e-011
7104504504.5045 0.14775974 0.01045696 0.0065100859 0.019143557 7.071068e-011 7.071068e-011 7.071068e-011 7.071068e-011
7112912912.9129 0.050926477 -0.044668268 -0.020638498 -0.00015241939 7.071068e-011 7.071068e-011 7.071068e-011 7.071068e-011
7121321321.3213 0.034354791 0.031840663 0.0063313707 -0.01983263 7.071068e-011 7.071068e-011 7.071068e-011 7.071068e-011
7129729729.7297 0.089254968 0.014523619 0.016429598 0.012097191 7.071068e-011 7.071068e-011 7.071068e-011 7.071068e-011
7138138138.1381 0.043467656 -0.037780661 -0.017197369 0.011674971 7.071068e-011 7.071068e-011 7.071068e-011 7.071068e-011
7146546546.5465 -0.00052823842 0.013572454 -0.0058255736 -0.020122806 7.071068e-011 7.071068e-011 7.071068e-011 7.071068e-011
7154954954.955 0.030612513 0.041330826 0.020799201 0.00088444853 7.071068e-011 7.071068e-011 7.071068e-011 7.071068e-011
7163363363.3634 0.044971481 0.015794164 -0.0076812287 0.019087497 7.071068e-011 7.071068e-011 7.071068e-011 7.071068e-011
7171771771.7718 0.0012263949 0.020221427 -0.01573053 -0.013493625 7.071068e-011 7.071068e-011 7.071068e-011 7.071068e-011
7180180180.1802 0.01840917 0.072521843 0.017634463 -0.01036391 7.071068e-011 7.071068e-011 7.071068e-011 7.071068e-011
7188588588.5886 0.067766994 0.056204319 0.0038595805 0.020448251 7.071068e-011 7.071068e-011 7.071068e-011 7.071068e-011
7196996996.997 0.039938044 0.010108956 -0.020600231 -0.0027672977 7.071068e-011 7.071068e-011 7.071068e-011 7.071068e-011
7205405405.4054 0.012260183 0.067064852 0.0095689371 -0.017981237 7.071068e-011 7.071068e-011 7.071068e-011 7.071068e-011
7213813813.8138 0.083164729 0.067279741 0.01382732 0.015202445 7.071068e-011 7.071068e-011 7.071068e-011 7.071068e-011
7222222222.2222 0.06628032 -0.0054603745 -0.018996894 0.0081951916 7.071068e-011 7.071068e-011 7.071068e-011 7.071068e-011
7230630630.6306 -0.0013090533 0.035040747 -0.0014111855 -0.020492064 7.071068e-011 7.071068e-011 7.071068e-011 7.071068e-011
7239039039.039 0.071441591 0.075627677 0.019942325 0.0058728396 7.071068e-011 7.071068e-011 7.071068e-011 7.071068e-011
7247447447.4474 0.075326525 -0.014751652 -0.012032201 0.016960511 7.071068e-011 7.071068e-011 7.071068e-011 7.071068e-011
7255855855.8559 -0.01657447 0.0072472161 -0.01157348 -0.01702833 7.071068e-011 7.071068e-011 7.071068e-011 7.071068e-011
7264264264.2643 0.034766588 0.084069446 0.020123633 -0.0053232778 7.071068e-011 7.071068e-011 7.071068e-011 7.071068e-011
7272672672.6727 0.074435569 0.00074713497 -0.0015430433 0.020533355 7.071068e-011 7.071068e-011 7.071068e-011 7.071068e-011
7281081081.0811 -0.029784216 0.00072019617 -0.018711749 -0.0084759211 7.071068e-011 7.071068e-011 7.071068e-011 7.071068e-011
7289489489.4895 -0.0001320931 0.10756008 0.014713089 -0.01459798 7.071068e-011 7.071068e-011 7.071068e-011 7.071068e-011
7297897897.8979 0.084981546 0.050785206 0.0087773595 0.018835688 7.071068e-011 7.071068e-011 7.071068e-011 7.071068e-011
7306306306.3063 0.0011844452 0.0088061653 -0.02057489 0.001551296 7.071068e-011 7.071068e-011 7.071068e-011 7.071068e-011
7314714714.7147 0.004007143 0.11271654 0.0054205367 -0.020282488 7.071068e-011 7.071068e-011 7.071068e-011 7.071068e-011
7323123123.1231 0.11263961 0.075472705 0.016988814 0.011753774 7.071068e-011 7.071068e-011 7.071068e-011 7.071068e-011
7331531531.5315 0.051341057 -0.01184824 -0.017341658 0.011688901 7.071068e-011 7.071068e-011 7.071068e-011 7.071068e-011
7339939939.9399 0.0078656264 0.068544753 -0.0052951416 -0.020556606 7.071068e-011 7.071068e-011 7.071068e-011 7.071068e-011
7348348348.3483 0.10541104 0.063757606 0.020918367 0.001951961 7.071068e-011 7.071068e-011 7.071068e-011 7.071068e-011
7356756756.7568 0.06626939 -0.036954701 -0.0092268074 0.018773394 7.071068e-011 7.071068e-011 7.071068e-011 7.071068e-011
7365165165.1652 -0.010247909 0.020750089 -0.014724465 -0.015208604 7.071068e-011 7.071068e-011 7.071068e-011 7.071068e-011
7373573573.5736 0.061442178 0.049893465 0.019022977 -0.0085433703 7.071068e-011 7.071068e-011 7.071068e-011 7.071068e-011
7381981981.982 0.044046927 -0.035320163 0.0010428269 0.021119274 7.071068e-011 7.071068e-011 7.071068e-011 7.071068e-011
7390390390.3904 -0.043073017 0.0095704095 -0.020325271 -0.0061807805 7.071068e-011 7.071068e-011 7.071068e-011 7.071068e-011
7398798798.7988 0.012880201 0.071241133 0.012909539 -0.016682914 7.071068e-011 7.071068e-011 7.071068e-011 7.071068e-011
7407207207.2072 0.027981713 0.0099129239 0.011167097 0.017996576 7.071068e-011 7.071068e-011 7.071068e-011 7.071068e-011
7415615615.6156 -0.040888142 0.035277903 -0.020877333 0.0043679904 7.071068e-011 7.071068e-011 7.071068e-011 7.071068e-011
7424024024.024 0.0066761314 0.10499926 0.0030807157 -0.021031771 7.071068e-011 7.071068e-011 7.071068e-011 7.071068e-011
7432432432.4324 0.054744344 0.054215975 0.018663121 0.010437439 7.071068e-011 7.071068e-011 7.071068e-011 7.071068e-011
7440840840.8408 0.0098671596 0.042283949 -0.016149618 0.014036099 7.071068e-011 7.071068e-011 7.071068e-011 7.071068e-011
7449249249.2492 0.030190859 0.087070651 -0.0073046447 -0.019876277 7.071068e-011 7.071068e-011 7.071068e-011 7.071068e-011
7457657657.6577 0.077950403 0.049051717 0.021253193 0.00019308578 7.071068e-011 7.071068e-011 7.071068e-011 7.071068e-011
7466066066.0661 0.041821815 0.014048005 -0.0075387508 0.019924827 7.071068e-011 7.071068e-011 7.071068e-011 7.071068e-011
7474474474.4745 0.030470772 0.039255332 -0.015920063 -0.013848837 7.071068e-011 7.071068e-011 7.071068e-011 7.071068e-011
7482882882.8829 0.059821643 0.029152764 0.018639142 -0.0097783869 7.071068e-011 7.071068e-011 7.071068e-011 7.071068e-011
7491291291.2913 0.038975716 -0.013351479 0.0026188714 0.020927323 7.071068e-011 7.071068e-011 7.071068e-011 7.071068e-011
7499699699.6997 -0.0033289564 0.0023349021 -0.020351728 -0.0049468339 7.071068e-011 7.071068e-011 7.071068e-011 7.071068e-011
7508108108.1081 0.0032210017 0.031946145 0.011767784 -0.017299332 7.071068e-011 7.071068e-011 7.071068e-011 7.071068e-011
7516516516.5165 0.019410813 0.012011304 0.011966379 0.01700208 7.071068e-011 7.071068e-011 7.071068e-011 7.071068e-011
7524924924.9249 -0.026338564 0.0065491227 -0.020030081 0.0050472352 7.071068e-011 7.071068e-011 7.071068e-011 7.071068e-011
7533333333.3333 -0.029878475 0.065935105 0.0025660722 -0.020489048 7.071068e-011 7.071068e-011 7.071068e-011 7.071068e-011
7541741741.7417 0.027807802 0.068960391 0.018232344 0.0095097199 7.071068e-011 7.071068e-011 7.071068e-011 7.071068e-011
7550150150.1502 0.013123252 0.020582914 -0.015228927 0.013194489 7.071068e-011 7.071068e-011 7.071068e-011 7.071068e-011
7558558558.5586 -0.015381774 0.068344146 -0.0068167434 -0.019042214 7.071068e-011 7.071068e-011 7.071068e-011 7.071068e-011
7566966966.967 0.055540074 0.078183003 0.019990753 0.00051755039 7.071068e-011 7.071068e-011 7.071068e-011 7.071068e-011
7575375375.3754 0.053680386 0.00099979225 -0.007940067 0.01843771 7.071068e-011 7.071068e-011 7.071068e-011 7.071068e-011
7583783783.7838 -0.011873142 0.023887714 -0.014365421 -0.014100606 7.071068e-011 7.071068e-011 7.071068e-011 7.071068e-011
7592192192.1922 0.045363363 0.060673833 0.01801504 -0.0082772924 7.071068e-011 7.071068e-011 7.071068e-011 7.071068e-011
7600600600.6006 0.051870309 -0.02424816 0.00083619356 0.019477088 7.071068e-011 7.071068e-011 7.071068e-011 7.071068e-011
7609009009.009 -0.037924245 -0.010929961 -0.018857786 -0.0065729222 7.071068e-011 7.071068e-011 7.071068e-011 7.071068e-011
7617417417.4174 -0.0053266785 0.058136251 0.012646652 -0.015288765 7.071068e-011 7.071068e-011 7.071068e-011 7.071068e-011
7625825825.8258 0.026485581 -0.0039529153 0.0093887709 0.017408948 7.071068e-011 7.071068e-011 7.071068e-011 7.071068e-011
7634234234.2342 -0.060545914 0.0038372541 -0.019544933 0.0024048744 7.071068e-011 7.071068e-011 7.071068e-011 7.071068e-011
7642642642.6426 -0.026759431 0.0916178 0.0050220927 -0.018882291 7.071068e-011 7.071068e-011 7.071068e-011 7.071068e-011
7651051051.0511 0.037573766 0.042644024 0.015720837 0.011730356 7.071068e-011 7.071068e-011 7.071068e-011 7.071068e-011
7659459459.4595 -0.029675918 0.018028421 -0.016793266 0.010622052 7.071068e-011 7.071068e-011 7.071068e-011 7.071068e-011
7667867867.8679 -0.01170369 0.10235083 -0.0038536838 -0.019118357 7.071068e-011 7.071068e-011 7.071068e-011 7.071068e-011
7676276276.2763 0.073813774 0.059180759 0.019076144 0.0039983676 7.071068e-011 7.071068e-011 7.071068e-011 7.071068e-011
7684684684.6847 0.02158297 -0.0039637471 -0.0108026 0.016583892 7.071068e-011 7.071068e-011 7.071068e-011 7.071068e-011
7693093093.0931 0.00055491377 0.054241687 -0.011442631 -0.01598181 7.071068e-011 7.071068e-011 7.071068e-011 7.071068e-011
7701501501.5015 0.070985466 0.032732897 0.019026844 -0.0047946074 7.071068e-011 7.071068e-011 7.071068e-011 7.071068e-011
7709909909.9099 0.023510525 -0.04249328 -0.0026496914 0.019499997 7.071068e-011 7.071068e-011 7.071068e-011 7.071068e-011
7718318318.3183 -0.033232167 0.010696184 -0.017189726 -0.0096217226 7.071068e-011 7.071068e-011 7.071068e-011 7.071068e-011
7726726726.7267 0.024288787 0.027905082 0.015464462 -0.012205832 7.071068e-011 7.071068e-011 7.071068e-011 7.071068e-011
7735135135.1351 0.0029941858 -0.04120123 0.0058979895 0.018962016 7.071068e-011 7.071068e-011 7.071068e-011 7.071068e-011
7743543543.5435 -0.074962735 -0.0004029221 -0.019523589 -0.0014931395 7.071068e-011 7.071068e-011 7.071068e-011 7.071068e-011
7751951951.952 -0.030579686 0.064342812 0.0087556029 -0.017664425 7.071068e-011 7.071068e-011 7.071068e-011 7.071068e-011
7760360360.3604 -0.0025285368 0.017601039 0.013222664 0.014679451 7.071068e-011 7.071068e-011 7.071068e-011 7.071068e-011
7768768768.7688 -0.058220439 0.028281111 -0.018592101 0.0068352646 7.071068e-011 7.071068e-011 7.071068e-011 7.071068e-011
7777177177.1772 -0.027419746 0.095519409 0.00062634284 -0.019715339 7.071068e-011 7.071068e-011 7.071068e-011 7.071068e-011
7785585585.5856 0.033886299 0.058175329 0.018110771 0.0078468686 7.071068e-011 7.071068e-011 7.071068e-011 7.071068e-011
7793993993.994 -0.0054438678 0.027705327 -0.013928143 0.013665359 7.071068e-011 7.071068e-011 7.071068e-011 7.071068e-011
7802402402.4024 -0.00057125458 0.074803703 -0.0075396178 -0.018382138 7.071068e-011 7.071068e-011 7.071068e-011 7.071068e-011
7810810810.8108 0.057954304 0.049063466 0.019773226 -0.00041853421 7.071068e-011 7.071068e-011 7.071068e-011 7.071068e-011
7819219219.2192 0.026193585 -0.0064456281 -0.0071700099 0.018320156 7.071068e-011 7.071068e-011 7.071068e-011 7.071068e-011
7827627627.6276 -0.0037111084 0.026687792 -0.014378013 -0.01348222 7.071068e-011 7.071068e-011 7.071068e-011 7.071068e-011
7836036036.036 0.037415605 0.025880458 0.017855147 -0.0083131902 7.071068e-011 7.071068e-011 7.071068e-011 7.071068e-011
7844444444.4444 0.016670724 -0.023746492 0.0010837148 0.019716093 7.071068e-011 7.071068e-011 7.071068e-011 7.071068e-011
7852852852.8529 -0.028289631 0.0028732971 -0.018777626 -0.0063879485 7.071068e-011 7.071068e-011 7.071068e-011 7.071068e-011
7861261261.2613 0.001588587 0.029550597 0.012794043 -0.015024299 7.071068e-011 7.071068e-011 7.071068e-011 7.071068e-011
7869669669.6697 0.0055582635 -0.0091478536 0.008981226 0.017570544 7.071068e-011 7.071068e-011 7.071068e-011 7.071068e-011
7878078078.0781 -0.0403235 0.0032851372 -0.019808136 0.0019249584 7.071068e-011 7.071068e-011 7.071068e-011 7.071068e-011
7886486486.4865 -0.024546146 0.046886556 0.0054155081 -0.01900705 7.071068e-011 7.071068e-011 7.071068e-011 7.071068e-011
7894894894.8949 0.010921389 0.030411823 0.015382376 0.012015036 7.071068e-011 7.071068e-011 7.071068e-011 7.071068e-011
7903303303.3033 -0.013400137 0.011041657 -0.017104885 0.009659417 7.071068e-011 7.071068e-011 7.071068e-011 7.071068e-011
7911711711.7117 -0.01791052 0.043851856 -0.002733273 -0.019487474 7.071068e-011 7.071068e-011 7.071068e-011 7.071068e-011
7920120120.1201 0.023026776 0.044969842 0.018884083 0.0047565117 7.071068e-011 7.071068e-011 7.071068e-011 7.071068e-011
7928528528.5285 0.023719465 0.0019986168 -0.011482902 0.015699374 7.071068e-011 7.071068e-011 7.071068e-011 7.071068e-011
7936936936.9369 -0.0099377725 0.011043419 -0.010122789 -0.016400147 7.071068e-011 7.071068e-011 7.071068e-011 7.071068e-011
7945345345.3453 0.01769723 0.032135133 0.019021872 -0.0030521278 7.071068e-011 7.071068e-011 7.071068e-011 7.071068e-011
