!Keysight Technologies,N5235B,MY61252044,A.15.00.15
!Date: Saturday, January 21, 2023 00:10:01
!Correction: S11(Off) 
!S21(Off) 
!S12(Off) 
!S22(Off) 
!S2P File: Measurements: S11, S21, S12, S22:
# Hz S  RI   R 50
6600000000 0.019157702 -0.17548855 0.015446125 -0.003029119 7.071068e-011 7.071068e-011 7.071068e-011 7.071068e-011
6608408408.4084 -0.12510285 0.16496031 0.0052832966 0.010838827 7.071068e-011 7.071068e-011 7.071068e-011 7.071068e-011
6616816816.8168 0.30562788 0.093509808 -0.0089161629 0.0036696766 7.071068e-011 7.071068e-011 7.071068e-011 7.071068e-011
6625225225.2252 0.025568921 -0.27298293 -0.0017604451 -0.0093075 7.071068e-011 7.071068e-011 7.071068e-011 7.071068e-011
6633633633.6336 -0.16620681 0.16057526 0.0093382252 -0.00036364209 7.071068e-011 7.071068e-011 7.071068e-011 7.071068e-011
6642042042.042 0.28939718 0.11393675 -0.0018785782 0.0093169063 7.071068e-011 7.071068e-011 7.071068e-011 7.071068e-011
6650450450.4505 0.040020887 -0.2519674 -0.010716281 -0.0041181105 7.071068e-011 7.071068e-011 7.071068e-011 7.071068e-011
6658858858.8589 -0.14872704 0.13362449 0.0060107531 -0.011482936 7.071068e-011 7.071068e-011 7.071068e-011 7.071068e-011
6667267267.2673 0.2280335 0.10179932 0.012186941 0.0091955326 7.071068e-011 7.071068e-011 7.071068e-011 7.071068e-011
6675675675.6757 0.043464355 -0.15095659 -0.01157048 0.013799729 7.071068e-011 7.071068e-011 7.071068e-011 7.071068e-011
6684084084.0841 -0.044483263 0.083718412 -0.01456803 -0.013386415 7.071068e-011 7.071068e-011 7.071068e-011 7.071068e-011
6692492492.4925 0.10553694 0.047620971 0.01484859 -0.014887987 7.071068e-011 7.071068e-011 7.071068e-011 7.071068e-011
6700900900.9009 0.086021326 0.018527221 0.014726493 0.015444697 7.071068e-011 7.071068e-011 7.071068e-011 7.071068e-011
6709309309.3093 0.077501401 -0.041912079 -0.015579149 0.013067401 7.071068e-011 7.071068e-011 7.071068e-011 7.071068e-011
6717717717.7177 -0.031318758 0.033991747 -0.010097879 -0.016498586 7.071068e-011 7.071068e-011 7.071068e-011 7.071068e-011
6726126126.1261 0.15469177 0.11662892 0.016813006 -0.0070425253 7.071068e-011 7.071068e-011 7.071068e-011 7.071068e-011
6734534534.5345 0.12918313 -0.14040299 0.0035139471 0.016236097 7.071068e-011 7.071068e-011 7.071068e-011 7.071068e-011
6742942942.9429 -0.1079321 0.025933107 -0.015907148 -0.00031958957 7.071068e-011 7.071068e-011 7.071068e-011 7.071068e-011
6751351351.3514 0.17085528 0.15298919 0.0036560069 -0.015357753 7.071068e-011 7.071068e-011 7.071068e-011 7.071068e-011
6759759759.7598 0.15134485 -0.17112847 0.013160521 0.0071047642 7.071068e-011 7.071068e-011 7.071068e-011 7.071068e-011
6768168168.1682 -0.1468263 -0.0063271676 -0.010883367 0.010377245 7.071068e-011 7.071068e-011 7.071068e-011 7.071068e-011
6776576576.5766 0.13325211 0.17924221 -0.0079665147 -0.013491495 7.071068e-011 7.071068e-011 7.071068e-011 7.071068e-011
6784984984.985 0.15182546 -0.14564255 0.014568464 -0.0039734901 7.071068e-011 7.071068e-011 7.071068e-011 7.071068e-011
6793393393.3934 -0.1472034 -0.0073852143 -0.00039008513 0.015518453 7.071068e-011 7.071068e-011 7.071068e-011 7.071068e-011
6801801801.8018 0.10072692 0.2028302 -0.015705174 -0.0043372987 7.071068e-011 7.071068e-011 7.071068e-011 7.071068e-011
6810210210.2102 0.17292346 -0.094293877 0.0087160859 -0.014405513 7.071068e-011 7.071068e-011 7.071068e-011 7.071068e-011
6818618618.6186 -0.10501537 -0.011026305 0.012104784 0.013266907 7.071068e-011 7.071068e-011 7.071068e-011 7.071068e-011
6827027027.027 0.087142877 0.18548428 -0.015981488 0.0091650188 7.071068e-011 7.071068e-011 7.071068e-011 7.071068e-011
6835435435.4354 0.1817455 -0.048205473 -0.0044285338 -0.017903339 7.071068e-011 7.071068e-011 7.071068e-011 7.071068e-011
6843843843.8438 -0.045092382 -0.028506905 0.020164717 0.00030394812 7.071068e-011 7.071068e-011 7.071068e-011 7.071068e-011
6852252252.2523 0.074244678 0.12918669 -0.0046379045 0.02028317 7.071068e-011 7.071068e-011 7.071068e-011 7.071068e-011
6860660660.6607 0.14521341 -0.019874711 -0.018572308 -0.0096569369 7.071068e-011 7.071068e-011 7.071068e-011 7.071068e-011
6869069069.0691 0.0044241459 -0.027269669 0.014559558 -0.016043354 7.071068e-011 7.071068e-011 7.071068e-011 7.071068e-011
6877477477.4775 0.053773515 0.072435535 0.012626532 0.018121829 7.071068e-011 7.071068e-011 7.071068e-011 7.071068e-011
6885885885.8859 0.090343699 0.0070897504 -0.020465286 0.0076460056 7.071068e-011 7.071068e-011 7.071068e-011 7.071068e-011
6894294294.2943 0.04737604 -0.0010184578 -0.0022457947 -0.022014683 7.071068e-011 7.071068e-011 7.071068e-011 7.071068e-011
6902702702.7027 0.038229153 0.019277383 0.021970874 0.0033034452 7.071068e-011 7.071068e-011 7.071068e-011 7.071068e-011
6911111111.1111 0.030891908 0.03761312 -0.0088319397 0.02017621 7.071068e-011 7.071068e-011 7.071068e-011 7.071068e-011
6919519519.5195 0.078231737 0.050085723 -0.016898084 -0.013661024 7.071068e-011 7.071068e-011 7.071068e-011 7.071068e-011
6927927927.9279 0.050962068 -0.012409901 0.017272541 -0.012721627 7.071068e-011 7.071068e-011 7.071068e-011 7.071068e-011
6936336336.3363 -0.0022899578 0.061963204 0.0072143525 0.019487889 7.071068e-011 7.071068e-011 7.071068e-011 7.071068e-011
6944744744.7447 0.11223463 0.089585185 -0.020829637 0.0010904613 7.071068e-011 7.071068e-011 7.071068e-011 7.071068e-011
6953153153.1532 0.084638231 -0.045448978 0.0045416621 -0.019971125 7.071068e-011 7.071068e-011 7.071068e-011 7.071068e-011
6961561561.5616 -0.028416542 0.054062128 0.0172983 0.009994179 7.071068e-011 7.071068e-011 7.071068e-011 7.071068e-011
6969969969.97 0.12433108 0.10612807 -0.014543321 0.013500689 7.071068e-011 7.071068e-011 7.071068e-011 7.071068e-011
6978378378.3784 0.1020593 -0.070598796 -0.0083291624 -0.017385313 7.071068e-011 7.071068e-011 7.071068e-011 7.071068e-011
6986786786.7868 -0.064073406 0.032284565 0.018727235 -0.0022275241 7.071068e-011 7.071068e-011 7.071068e-011 7.071068e-011
6995195195.1952 0.10257559 0.13409746 -0.0036045094 0.018898159 7.071068e-011 7.071068e-011 7.071068e-011 7.071068e-011
7003603603.6036 0.10925557 -0.057616711 -0.016570935 -0.0089481361 7.071068e-011 7.071068e-011 7.071068e-011 7.071068e-011
7012012012.012 -0.072595567 0.032019768 0.014148636 -0.012426684 7.071068e-011 7.071068e-011 7.071068e-011 7.071068e-011
7020420420.4204 0.087595575 0.1615295 0.0077426494 0.017340364 7.071068e-011 7.071068e-011 7.071068e-011 7.071068e-011
7028828828.8288 0.13290593 -0.028673908 -0.018522104 0.0017760724 7.071068e-011 7.071068e-011 7.071068e-011 7.071068e-011
7037237237.2372 -0.053812049 0.030254465 0.0044698068 -0.018621782 7.071068e-011 7.071068e-011 7.071068e-011 7.071068e-011
7045645645.6456 0.089622729 0.17091744 0.016414253 0.0098430431 7.071068e-011 7.071068e-011 7.071068e-011 7.071068e-011
7054054054.0541 0.1677531 -0.0027205674 -0.014703237 0.01200022 7.071068e-011 7.071068e-011 7.071068e-011 7.071068e-011
7062462462.4625 -0.0078717759 -0.0043278169 -0.0067804768 -0.018484941 7.071068e-011 7.071068e-011 7.071068e-011 7.071068e-011
7070870870.8709 0.077897571 0.14031796 0.019768294 -0.0011397372 7.071068e-011 7.071068e-011 7.071068e-011 7.071068e-011
7079279279.2793 0.16840428 0.0076816203 -0.0055957753 0.01877288 7.071068e-011 7.071068e-011 7.071068e-011 7.071068e-011
7087687687.6877 0.032783896 -0.027157784 -0.016608 -0.011529019 7.071068e-011 7.071068e-011 7.071068e-011 7.071068e-011
7096096096.0961 0.05924803 0.089113869 0.015972529 -0.012432406 7.071068e-011 7.071068e-011 7.071068e-011 7.071068e-011
7104504504.5045 0.14773127 0.010647624 0.0064812209 0.01914683 7.071068e-011 7.071068e-011 7.071068e-011 7.071068e-011
7112912912.9129 0.051080436 -0.044718731 -0.020632407 -0.0001823129 7.071068e-011 7.071068e-011 7.071068e-011 7.071068e-011
7121321321.3213 0.034254085 0.03172747 0.0063620871 -0.019815156 7.071068e-011 7.071068e-011 7.071068e-011 7.071068e-011
7129729729.7297 0.089180849 0.01463429 0.016407073 0.012119571 7.071068e-011 7.071068e-011 7.071068e-011 7.071068e-011
7138138138.1381 0.043582179 -0.037751645 -0.017211761 0.011648485 7.071068e-011 7.071068e-011 7.071068e-011 7.071068e-011
7146546546.5465 -0.00054164208 0.01346702 -0.0057915691 -0.020130062 7.071068e-011 7.071068e-011 7.071068e-011 7.071068e-011
7154954954.955 0.030527141 0.041360289 0.020793373 0.00091317703 7.071068e-011 7.071068e-011 7.071068e-011 7.071068e-011
7163363363.3634 0.04501335 0.015873982 -0.0077105691 0.019070776 7.071068e-011 7.071068e-011 7.071068e-011 7.071068e-011
7171771771.7718 0.0012943081 0.020147089 -0.015706128 -0.013518371 7.071068e-011 7.071068e-011 7.071068e-011 7.071068e-011
7180180180.1802 0.018319206 0.07247825 0.017646629 -0.010339344 7.071068e-011 7.071068e-011 7.071068e-011 7.071068e-011
7188588588.5886 0.06774465 0.056296315 0.0038257004 0.020451471 7.071068e-011 7.071068e-011 7.071068e-011 7.071068e-011
7196996996.997 0.040047463 0.010098204 -0.020593079 -0.0027987268 7.071068e-011 7.071068e-011 7.071068e-011 7.071068e-011
7205405405.4054 0.012202676 0.066952065 0.0095935604 -0.017965218 7.071068e-011 7.071068e-011 7.071068e-011 7.071068e-011
7213813813.8138 0.083079144 0.067376085 0.013799537 0.015221113 7.071068e-011 7.071068e-011 7.071068e-011 7.071068e-011
7222222222.2222 0.066399947 -0.0054204445 -0.019006237 0.0081633059 7.071068e-011 7.071068e-011 7.071068e-011 7.071068e-011
7230630630.6306 -0.0013110444 0.034898769 -0.0013811506 -0.02049152 7.071068e-011 7.071068e-011 7.071068e-011 7.071068e-011
7239039039.039 0.071294762 0.075682707 0.019930029 0.0059014861 7.071068e-011 7.071068e-011 7.071068e-011 7.071068e-011
7247447447.4474 0.075441211 -0.014650876 -0.0120626 0.016937159 7.071068e-011 7.071068e-011 7.071068e-011 7.071068e-011
7255855855.8559 -0.016525535 0.0070939292 -0.011546119 -0.017043069 7.071068e-011 7.071068e-011 7.071068e-011 7.071068e-011
7264264264.2643 0.034596067 0.084073879 0.02012879 -0.0052918419 7.071068e-011 7.071068e-011 7.071068e-011 7.071068e-011
7272672672.6727 0.074506812 0.00090312399 -0.0015800815 0.020525128 7.071068e-011 7.071068e-011 7.071068e-011 7.071068e-011
7281081081.0811 -0.029663846 0.0005823953 -0.01869542 -0.0085013397 7.071068e-011 7.071068e-011 7.071068e-011 7.071068e-011
7289489489.4895 -0.00030714026 0.10750045 0.014732908 -0.014571711 7.071068e-011 7.071068e-011 7.071068e-011 7.071068e-011
7297897897.8979 0.084994808 0.05096947 0.0087420391 0.018849496 7.071068e-011 7.071068e-011 7.071068e-011 7.071068e-011
7306306306.3063 0.0013489018 0.0087273419 -0.020576937 0.0015221332 7.071068e-011 7.071068e-011 7.071068e-011 7.071068e-011
7314714714.7147 0.0038663815 0.11258665 0.0054523032 -0.020271894 7.071068e-011 7.071068e-011 7.071068e-011 7.071068e-011
7323123123.1231 0.11257949 0.075647168 0.016966751 0.011781283 7.071068e-011 7.071068e-011 7.071068e-011 7.071068e-011
7331531531.5315 0.05151986 -0.011865145 -0.017355254 0.011660815 7.071068e-011 7.071068e-011 7.071068e-011 7.071068e-011
7339939939.9399 0.0077802185 0.068379737 -0.0052600196 -0.020561269 7.071068e-011 7.071068e-011 7.071068e-011 7.071068e-011
7348348348.3483 0.10528711 0.063889377 0.020909695 0.0019884871 7.071068e-011 7.071068e-011 7.071068e-011 7.071068e-011
7356756756.7568 0.066429563 -0.036905885 -0.0092484849 0.018755911 7.071068e-011 7.071068e-011 7.071068e-011 7.071068e-011
7365165165.1652 -0.010274301 0.020575322 -0.014695216 -0.015228669 7.071068e-011 7.071068e-011 7.071068e-011 7.071068e-011
7373573573.5736 0.061294079 0.049979556 0.019034224 -0.0085074697 7.071068e-011 7.071068e-011 7.071068e-011 7.071068e-011
7381981981.982 0.044167865 -0.03522376 0.0010114411 0.021115711 7.071068e-011 7.071068e-011 7.071068e-011 7.071068e-011
7390390390.3904 -0.043039482 0.0094214017 -0.020310882 -0.0062140995 7.071068e-011 7.071068e-011 7.071068e-011 7.071068e-011
7398798798.7988 0.01273186 0.071277045 0.012938367 -0.016654726 7.071068e-011 7.071068e-011 7.071068e-011 7.071068e-011
7407207207.2072 0.028063642 0.01002489 0.011140597 0.018004345 7.071068e-011 7.071068e-011 7.071068e-011 7.071068e-011
7415615615.6156 -0.040819619 0.035162468 -0.020878075 0.0043302206 7.071068e-011 7.071068e-011 7.071068e-011 7.071068e-011
7424024024.024 0.0065474464 0.10497932 0.0031202233 -0.021019928 7.071068e-011 7.071068e-011 7.071068e-011 7.071068e-011
7432432432.4324 0.05476838 0.054329231 0.018642278 0.010458468 7.071068e-011 7.071068e-011 7.071068e-011 7.071068e-011
7440840840.8408 0.0099489437 0.042209093 -0.01617031 0.01400313 7.071068e-011 7.071068e-011 7.071068e-011 7.071068e-011
7449249249.2492 0.030100424 0.087018341 -0.0072653089 -0.01988587 7.071068e-011 7.071068e-011 7.071068e-011 7.071068e-011
7457657657.6577 0.077922046 0.049137913 0.021247307 0.00022269289 7.071068e-011 7.071068e-011 7.071068e-011 7.071068e-011
7466066066.0661 0.041902386 0.014024659 -0.0075701685 0.019906858 7.071068e-011 7.071068e-011 7.071068e-011 7.071068e-011
7474474474.4745 0.030423993 0.039187621 -0.015891757 -0.013873099 7.071068e-011 7.071068e-011 7.071068e-011 7.071068e-011
7482882882.8829 0.059759181 0.029202029 0.01864823 -0.0097468589 7.071068e-011 7.071068e-011 7.071068e-011 7.071068e-011
7491291291.2913 0.039037988 -0.013312909 0.0025831878 0.02092682 7.071068e-011 7.071068e-011 7.071068e-011 7.071068e-011
7499699699.6997 -0.0033166017 0.0022627984 -0.020337919 -0.0049809585 7.071068e-011 7.071068e-011 7.071068e-011 7.071068e-011
7508108108.1081 0.0031444312 0.031942159 0.011793735 -0.017277712 7.071068e-011 7.071068e-011 7.071068e-011 7.071068e-011
7516516516.5165 0.019428806 0.012092143 0.011938298 0.017018933 7.071068e-011 7.071068e-011 7.071068e-011 7.071068e-011
7524924924.9249 -0.026265463 0.0064994283 -0.020034399 0.0050117197 7.071068e-011 7.071068e-011 7.071068e-011 7.071068e-011
7533333333.3333 -0.029948365 0.065868542 0.0026030873 -0.020481879 7.071068e-011 7.071068e-011 7.071068e-011 7.071068e-011
7541741741.7417 0.027763594 0.069053993 0.018214019 0.0095356833 7.071068e-011 7.071068e-011 7.071068e-011 7.071068e-011
7550150150.1502 0.01323533 0.020581566 -0.015249264 0.013165441 7.071068e-011 7.071068e-011 7.071068e-011 7.071068e-011
7558558558.5586 -0.015417894 0.068227999 -0.0067862598 -0.019049488 7.071068e-011 7.071068e-011 7.071068e-011 7.071068e-011
7566966966.967 0.05544091 0.078264028 0.019987624 0.00055088359 7.071068e-011 7.071068e-011 7.071068e-011 7.071068e-011
7575375375.3754 0.053794324 0.0010589481 -0.0079710754 0.018421916 7.071068e-011 7.071068e-011 7.071068e-011 7.071068e-011
7583783783.7838 -0.011864655 0.023745861 -0.01433947 -0.014122267 7.071068e-011 7.071068e-011 7.071068e-011 7.071068e-011
7592192192.1922 0.045225576 0.060724143 0.018024571 -0.0082464293 7.071068e-011 7.071068e-011 7.071068e-011 7.071068e-011
7600600600.6006 0.051965989 -0.024143498 0.00080500974 0.019474208 7.071068e-011 7.071068e-011 7.071068e-011 7.071068e-011
7609009009.009 -0.03786505 -0.011070399 -0.018843159 -0.0066041583 7.071068e-011 7.071068e-011 7.071068e-011 7.071068e-011
7617417417.4174 -0.0054854401 0.058141809 0.012670075 -0.015264727 7.071068e-011 7.071068e-011 7.071068e-011 7.071068e-011
7625825825.8258 0.026553692 -0.0038121482 0.0093577653 0.01742032 7.071068e-011 7.071068e-011 7.071068e-011 7.071068e-011
7634234234.2342 -0.060440227 0.0037113423 -0.019543819 0.0023723685 7.071068e-011 7.071068e-011 7.071068e-011 7.071068e-011
7642642642.6426 -0.026915491 0.091572948 0.0050512967 -0.018869646 7.071068e-011 7.071068e-011 7.071068e-011 7.071068e-011
7651051051.0511 0.03759547 0.042799611 0.015696755 0.011755047 7.071068e-011 7.071068e-011 7.071068e-011 7.071068e-011
7659459459.4595 -0.029538525 0.017945578 -0.016807511 0.010593643 7.071068e-011 7.071068e-011 7.071068e-011 7.071068e-011
7667867867.8679 -0.011833711 0.10225713 -0.0038232584 -0.019123219 7.071068e-011 7.071068e-011 7.071068e-011 7.071068e-011
7676276276.2763 0.07377968 0.059332643 0.019067436 0.0040324396 7.071068e-011 7.071068e-011 7.071068e-011 7.071068e-011
7684684684.6847 0.021732872 -0.00399445 -0.010825951 0.016565565 7.071068e-011 7.071068e-011 7.071068e-011 7.071068e-011
7693093093.0931 0.00047153851 0.054114252 -0.011415862 -0.01599779 7.071068e-011 7.071068e-011 7.071068e-011 7.071068e-011
7701501501.5015 0.070899673 0.032853089 0.019032344 -0.0047585084 7.071068e-011 7.071068e-011 7.071068e-011 7.071068e-011
7709909909.9099 0.023651564 -0.04246898 -0.0026782902 0.019493131 7.071068e-011 7.071068e-011 7.071068e-011 7.071068e-011
7718318318.3183 -0.03326828 0.010550831 -0.017172769 -0.0096482951 7.071068e-011 7.071068e-011 7.071068e-011 7.071068e-011
7726726726.7267 0.024166586 0.027988864 0.015486408 -0.012174838 7.071068e-011 7.071068e-011 7.071068e-011 7.071068e-011
7735135135.1351 0.0031128132 -0.041117221 0.005867654 0.018968387 7.071068e-011 7.071068e-011 7.071068e-011 7.071068e-011
7743543543.5435 -0.074924603 -0.00054159813 -0.019518849 -0.0015235913 7.071068e-011 7.071068e-011 7.071068e-011 7.071068e-011
7751951951.952 -0.03071966 0.064355657 0.0087904269 -0.017648377 7.071068e-011 7.071068e-011 7.071068e-011 7.071068e-011
7760360360.3604 -0.002462808 0.017719831 0.013196941 0.014700094 7.071068e-011 7.071068e-011 7.071068e-011 7.071068e-011
7768768768.7688 -0.058135603 0.028185761 -0.01860225 0.0068056993 7.071068e-011 7.071068e-011 7.071068e-011 7.071068e-011
7777177177.1772 -0.02753669 0.095471814 0.00066149473 -0.019710844 7.071068e-011 7.071068e-011 7.071068e-011 7.071068e-011
7785585585.5856 0.033892833 0.058294713 0.018094914 0.007877199 7.071068e-011 7.071068e-011 7.071068e-011 7.071068e-011
7793993993.994 -0.0053364434 0.027652949 -0.013948258 0.013640385 7.071068e-011 7.071068e-011 7.071068e-011 7.071068e-011
7802402402.4024 -0.00065171951 0.074718736 -0.0075066253 -0.018393584 7.071068e-011 7.071068e-011 7.071068e-011 7.071068e-011
7810810810.8108 0.057905156 0.049161077 0.019769054 -0.00038366287 7.071068e-011 7.071068e-011 7.071068e-011 7.071068e-011
7819219219.2192 0.02630274 -0.0064434721 -0.0071989307 0.018302988 7.071068e-011 7.071068e-011 7.071068e-011 7.071068e-011
7827627627.6276 -0.0037512109 0.026584322 -0.014352998 -0.013504201 7.071068e-011 7.071068e-011 7.071068e-011 7.071068e-011
7836036036.036 0.037338685 0.025947267 0.017869528 -0.0082787415 7.071068e-011 7.071068e-011 7.071068e-011 7.071068e-011
7844444444.4444 0.01675359 -0.023702336 0.0010510749 0.019714873 7.071068e-011 7.071068e-011 7.071068e-011 7.071068e-011
7852852852.8529 -0.028284909 0.0027751941 -0.01876346 -0.006415735 7.071068e-011 7.071068e-011 7.071068e-011 7.071068e-011
7861261261.2613 0.0014965687 0.029579619 0.012822486 -0.01499649 7.071068e-011 7.071068e-011 7.071068e-011 7.071068e-011
7869669669.6697 0.0056116823 -0.009069127 0.0089493925 0.017581671 7.071068e-011 7.071068e-011 7.071068e-011 7.071068e-011
7878078078.0781 -0.040271062 0.0032103902 -0.019807201 0.001893932 7.071068e-011 7.071068e-011 7.071068e-011 7.071068e-011
7886486486.4865 -0.024625093 0.046855424 0.0054518478 -0.018991338 7.071068e-011 7.071068e-011 7.071068e-011 7.071068e-011
7894894894.8949 0.010915969 0.030501986 0.015357563 0.012038309 7.071068e-011 7.071068e-011 7.071068e-011 7.071068e-011
7903303303.3033 -0.013317271 0.011021691 -0.017117376 0.0096303942 7.071068e-011 7.071068e-011 7.071068e-011 7.071068e-011
7911711711.7117 -0.017945062 0.043777794 -0.0026938168 -0.019488424 7.071068e-011 7.071068e-011 7.071068e-011 7.071068e-011
7920120120.1201 0.022970198 0.045025695 0.018871654 0.004789799 7.071068e-011 7.071068e-011 7.071068e-011 7.071068e-011
7928528528.5285 0.023796072 0.0020356716 -0.011505731 0.015678244 7.071068e-011 7.071068e-011 7.071068e-011 7.071068e-011
7936936936.9369 -0.0099225836 0.01095288 -0.010091625 -0.016416939 7.071068e-011 7.071068e-011 7.071068e-011 7.071068e-011
7945345345.3453 0.01760284 0.032149564 0.019026514 -0.0030164744 7.071068e-011 7.071068e-011 7.071068e-011 7.071068e-011
