!Keysight Technologies,N5235B,MY61252044,A.15.00.15
!Date: Friday, January 20, 2023 23:38:24
!Correction: S11(Off) 
!S21(Off) 
!S12(Off) 
!S22(Off) 
!S2P File: Measurements: S11, S21, S12, S22:
# Hz S  RI   R 50
6600000000 0.018679069 -0.17528744 0.015458533 -0.0030363977 7.071068e-011 7.071068e-011 7.071068e-011 7.071068e-011
6608408408.4084 -0.1246691 0.16543478 0.0052967295 0.010840622 7.071068e-011 7.071068e-011 7.071068e-011 7.071068e-011
6616816816.8168 0.30588758 0.092872821 -0.0089142332 0.0036816616 7.071068e-011 7.071068e-011 7.071068e-011 7.071068e-011
6625225225.2252 0.024831083 -0.2729494 -0.0017702146 -0.0093068993 7.071068e-011 7.071068e-011 7.071068e-011 7.071068e-011
6633633633.6336 -0.16581471 0.16121955 0.0093388185 -0.00037800326 7.071068e-011 7.071068e-011 7.071068e-011 7.071068e-011
6642042042.042 0.28978109 0.11333522 -0.0018654608 0.0093178395 7.071068e-011 7.071068e-011 7.071068e-011 7.071068e-011
6650450450.4505 0.039342809 -0.25203413 -0.010720778 -0.0041066073 7.071068e-011 7.071068e-011 7.071068e-011 7.071068e-011
6658858858.8589 -0.14846884 0.13420482 0.0059920168 -0.011489228 7.071068e-011 7.071068e-011 7.071068e-011 7.071068e-011
6667267267.2673 0.22837366 0.10137427 0.01219354 0.0091825984 7.071068e-011 7.071068e-011 7.071068e-011 7.071068e-011
6675675675.6757 0.043022923 -0.15104771 -0.011553085 0.013809108 7.071068e-011 7.071068e-011 7.071068e-011 7.071068e-011
6684084084.0841 -0.044400673 0.084047042 -0.014582121 -0.013369603 7.071068e-011 7.071068e-011 7.071068e-011 7.071068e-011
6692492492.4925 0.10572919 0.047511615 0.014834354 -0.014902333 7.071068e-011 7.071068e-011 7.071068e-011 7.071068e-011
6700900900.9009 0.085971184 0.018386213 0.014746919 0.015432873 7.071068e-011 7.071068e-011 7.071068e-011 7.071068e-011
6709309309.3093 0.077308342 -0.041877452 -0.015569209 0.013088325 7.071068e-011 7.071068e-011 7.071068e-011 7.071068e-011
6717717717.7177 -0.031214429 0.03425179 -0.01012446 -0.016490672 7.071068e-011 7.071068e-011 7.071068e-011 7.071068e-011
6726126126.1261 0.15495272 0.1163871 0.016808305 -0.0070651737 7.071068e-011 7.071068e-011 7.071068e-011 7.071068e-011
6734534534.5345 0.1287901 -0.14056711 0.003537219 0.016236736 7.071068e-011 7.071068e-011 7.071068e-011 7.071068e-011
6742942942.9429 -0.1078866 0.026425829 -0.015911303 -0.00029445262 7.071068e-011 7.071068e-011 7.071068e-011 7.071068e-011
6751351351.3514 0.17129675 0.15271977 0.0036352426 -0.015365982 7.071068e-011 7.071068e-011 7.071068e-011 7.071068e-011
6759759759.7598 0.15089777 -0.17141061 0.01317363 0.0070839007 7.071068e-011 7.071068e-011 7.071068e-011 7.071068e-011
6768168168.1682 -0.14687937 -0.0057717953 -0.010867003 0.010397307 7.071068e-011 7.071068e-011 7.071068e-011 7.071068e-011
6776576576.5766 0.13377216 0.17903183 -0.0079857158 -0.013482478 7.071068e-011 7.071068e-011 7.071068e-011 7.071068e-011
6784984984.985 0.15141428 -0.14600028 0.014563241 -0.0039985636 7.071068e-011 7.071068e-011 7.071068e-011 7.071068e-011
6793393393.3934 -0.14733729 -0.0068617449 -0.0003640347 0.015521836 7.071068e-011 7.071068e-011 7.071068e-011 7.071068e-011
6801801801.8018 0.1012442 0.20272565 -0.015712375 -0.0043168603 7.071068e-011 7.071068e-011 7.071068e-011 7.071068e-011
6810210210.2102 0.1726115 -0.094695158 0.008693831 -0.014420599 7.071068e-011 7.071068e-011 7.071068e-011 7.071068e-011
6818618618.6186 -0.10521096 -0.010584543 0.012128999 0.013249664 7.071068e-011 7.071068e-011 7.071068e-011 7.071068e-011
6827027027.027 0.087583981 0.18547025 -0.015971977 0.0091866031 7.071068e-011 7.071068e-011 7.071068e-011 7.071068e-011
6835435435.4354 0.18156974 -0.048564766 -0.0044573983 -0.017898986 7.071068e-011 7.071068e-011 7.071068e-011 7.071068e-011
6843843843.8438 -0.045307133 -0.028205283 0.020168206 0.00027202716 7.071068e-011 7.071068e-011 7.071068e-011 7.071068e-011
6852252252.2523 0.074566744 0.12923487 -0.0046089184 0.020292344 7.071068e-011 7.071068e-011 7.071068e-011 7.071068e-011
6860660660.6607 0.1451433 -0.020123463 -0.018590521 -0.0096304053 7.071068e-011 7.071068e-011 7.071068e-011 7.071068e-011
6869069069.0691 0.0042615817 -0.027118463 0.014536543 -0.016069381 7.071068e-011 7.071068e-011 7.071068e-011 7.071068e-011
6877477477.4775 0.053941622 0.072508827 0.012656594 0.018106984 7.071068e-011 7.071068e-011 7.071068e-011 7.071068e-011
6885885885.8859 0.090359867 0.0069708298 -0.020456856 0.0076779821 7.071068e-011 7.071068e-011 7.071068e-011 7.071068e-011
6894294294.2943 0.047296155 -0.0010126142 -0.0022806567 -0.0220151 7.071068e-011 7.071068e-011 7.071068e-011 7.071068e-011
6902702702.7027 0.038230956 0.019339386 0.021983441 0.0032707208 7.071068e-011 7.071068e-011 7.071068e-011 7.071068e-011
6911111111.1111 0.030962633 0.037645359 -0.0088033015 0.020198172 7.071068e-011 7.071068e-011 7.071068e-011 7.071068e-011
6919519519.5195 0.078270212 0.049987115 -0.016927278 -0.013640787 7.071068e-011 7.071068e-011 7.071068e-011 7.071068e-011
6927927927.9279 0.050823614 -0.012402635 0.017256511 -0.012752617 7.071068e-011 7.071068e-011 7.071068e-011 7.071068e-011
6936336336.3363 -0.0022092804 0.062126011 0.0072471076 0.019480839 7.071068e-011 7.071068e-011 7.071068e-011 7.071068e-011
6944744744.7447 0.1123758 0.089433543 -0.020834619 0.0011234251 7.071068e-011 7.071068e-011 7.071068e-011 7.071068e-011
6953153153.1532 0.084404849 -0.045515906 0.0045093191 -0.019984514 7.071068e-011 7.071068e-011 7.071068e-011 7.071068e-011
6961561561.5616 -0.028354639 0.054334331 0.017321218 0.009968143 7.071068e-011 7.071068e-011 7.071068e-011 7.071068e-011
6969969969.97 0.124558 0.10595695 -0.014523704 0.013528369 7.071068e-011 7.071068e-011 7.071068e-011 7.071068e-011
6978378378.3784 0.10179537 -0.070744202 -0.008361185 -0.017376168 7.071068e-011 7.071068e-011 7.071068e-011 7.071068e-011
6986786786.7868 -0.064075969 0.03262547 0.018730443 -0.0022602517 7.071068e-011 7.071068e-011 7.071068e-011 7.071068e-011
6995195195.1952 0.10288036 0.13395311 -0.0035741327 0.018908389 7.071068e-011 7.071068e-011 7.071068e-011 7.071068e-011
7003603603.6036 0.10899547 -0.057830952 -0.016592616 -0.0089223916 7.071068e-011 7.071068e-011 7.071068e-011 7.071068e-011
7012012012.012 -0.07266295 0.032373659 0.014130864 -0.012452949 7.071068e-011 7.071068e-011 7.071068e-011 7.071068e-011
7020420420.4204 0.087936528 0.16145062 0.0077745328 0.017330399 7.071068e-011 7.071068e-011 7.071068e-011 7.071068e-011
7028828828.8288 0.13268724 -0.028940169 -0.018524343 0.0018103641 7.071068e-011 7.071068e-011 7.071068e-011 7.071068e-011
7037237237.2372 -0.05393875 0.030596355 0.0044395276 -0.018635666 7.071068e-011 7.071068e-011 7.071068e-011 7.071068e-011
7045645645.6456 0.089951582 0.17089225 0.01643507 0.0098142717 7.071068e-011 7.071068e-011 7.071068e-011 7.071068e-011
7054054054.0541 0.16761875 -0.0030072932 -0.014685768 0.012027698 7.071068e-011 7.071068e-011 7.071068e-011 7.071068e-011
7062462462.4625 -0.0080624316 -0.0040656831 -0.0068131005 -0.018477404 7.071068e-011 7.071068e-011 7.071068e-011 7.071068e-011
7070870870.8709 0.078191802 0.1403688 0.019768964 -0.001176853 7.071068e-011 7.071068e-011 7.071068e-011 7.071068e-011
7079279279.2793 0.16835046 0.0074282279 -0.0055662729 0.018786728 7.071068e-011 7.071068e-011 7.071068e-011 7.071068e-011
7087687687.6877 0.032586101 -0.027003869 -0.01663213 -0.011503265 7.071068e-011 7.071068e-011 7.071068e-011 7.071068e-011
7096096096.0961 0.059461411 0.089221977 0.01595364 -0.012463368 7.071068e-011 7.071068e-011 7.071068e-011 7.071068e-011
7104504504.5045 0.14775762 0.010446402 0.0065142941 0.019141149 7.071068e-011 7.071068e-011 7.071068e-011 7.071068e-011
7112912912.9129 0.050911173 -0.044659603 -0.020638354 -0.00014586518 7.071068e-011 7.071068e-011 7.071068e-011 7.071068e-011
7121321321.3213 0.034363464 0.031853724 0.006327501 -0.019830119 7.071068e-011 7.071068e-011 7.071068e-011 7.071068e-011
7129729729.7297 0.08926148 0.014514496 0.016431613 0.012091074 7.071068e-011 7.071068e-011 7.071068e-011 7.071068e-011
7138138138.1381 0.043456651 -0.037782125 -0.017192733 0.011680815 7.071068e-011 7.071068e-011 7.071068e-011 7.071068e-011
7146546546.5465 -0.00052731315 0.013583607 -0.0058256723 -0.02012196 7.071068e-011 7.071068e-011 7.071068e-011 7.071068e-011
7154954954.955 0.030619828 0.041328251 0.020797538 0.00087457849 7.071068e-011 7.071068e-011 7.071068e-011 7.071068e-011
7163363363.3634 0.044966403 0.015784826 -0.0076749218 0.019088842 7.071068e-011 7.071068e-011 7.071068e-011 7.071068e-011
7171771771.7718 0.0012196503 0.020228744 -0.015731256 -0.01349315 7.071068e-011 7.071068e-011 7.071068e-011 7.071068e-011
7180180180.1802 0.018414708 0.072521403 0.017629653 -0.010373981 7.071068e-011 7.071068e-011 7.071068e-011 7.071068e-011
7188588588.5886 0.067763813 0.056191921 0.0038619065 0.020448837 7.071068e-011 7.071068e-011 7.071068e-011 7.071068e-011
7196996996.997 0.039923541 0.010112792 -0.020601399 -0.0027624357 7.071068e-011 7.071068e-011 7.071068e-011 7.071068e-011
7205405405.4054 0.012264551 0.067073114 0.0095613757 -0.017985007 7.071068e-011 7.071068e-011 7.071068e-011 7.071068e-011
7213813813.8138 0.083169542 0.067271866 0.013829778 0.015200336 7.071068e-011 7.071068e-011 7.071068e-011 7.071068e-011
7222222222.2222 0.066266499 -0.0054646935 -0.018994911 0.0081999926 7.071068e-011 7.071068e-011 7.071068e-011 7.071068e-011
7230630630.6306 -0.0013086591 0.035054501 -0.0014182278 -0.020491349 7.071068e-011 7.071068e-011 7.071068e-011 7.071068e-011
7239039039.039 0.071451314 0.075621627 0.019943038 0.0058667674 7.071068e-011 7.071068e-011 7.071068e-011 7.071068e-011
7247447447.4474 0.075315103 -0.014759112 -0.012029921 0.016964711 7.071068e-011 7.071068e-011 7.071068e-011 7.071068e-011
7255855855.8559 -0.01657879 0.0072608329 -0.011578297 -0.017026441 7.071068e-011 7.071068e-011 7.071068e-011 7.071068e-011
7264264264.2643 0.034783565 0.084068224 0.020121971 -0.0053301617 7.071068e-011 7.071068e-011 7.071068e-011 7.071068e-011
7272672672.6727 0.074425228 0.00073145208 -0.0015383976 0.020533113 7.071068e-011 7.071068e-011 7.071068e-011 7.071068e-011
7281081081.0811 -0.029794957 0.00073135603 -0.018713655 -0.0084696943 7.071068e-011 7.071068e-011 7.071068e-011 7.071068e-011
7289489489.4895 -0.00011534 0.10756265 0.014707993 -0.014602732 7.071068e-011 7.071068e-011 7.071068e-011 7.071068e-011
7297897897.8979 0.084978402 0.050767917 0.0087841321 0.018834114 7.071068e-011 7.071068e-011 7.071068e-011 7.071068e-011
7306306306.3063 0.0011685345 0.0088140685 -0.020576864 0.0015583972 7.071068e-011 7.071068e-011 7.071068e-011 7.071068e-011
7314714714.7147 0.0040178648 0.11272922 0.0054141162 -0.020284871 7.071068e-011 7.071068e-011 7.071068e-011 7.071068e-011
7323123123.1231 0.11264488 0.075460263 0.016993819 0.011748441 7.071068e-011 7.071068e-011 7.071068e-011 7.071068e-011
7331531531.5315 0.051324882 -0.011843246 -0.017339669 0.011693813 7.071068e-011 7.071068e-011 7.071068e-011 7.071068e-011
7339939939.9399 0.0078726672 0.06856066 -0.0052998946 -0.020555791 7.071068e-011 7.071068e-011 7.071068e-011 7.071068e-011
7348348348.3483 0.10541624 0.063744314 0.020917889 0.0019462598 7.071068e-011 7.071068e-011 7.071068e-011 7.071068e-011
7356756756.7568 0.066251457 -0.036957182 -0.009219896 0.018778106 7.071068e-011 7.071068e-011 7.071068e-011 7.071068e-011
7365165165.1652 -0.010244679 0.02076474 -0.014727317 -0.015203974 7.071068e-011 7.071068e-011 7.071068e-011 7.071068e-011
7373573573.5736 0.061456081 0.049884599 0.019019341 -0.0085493112 7.071068e-011 7.071068e-011 7.071068e-011 7.071068e-011
7381981981.982 0.044032797 -0.035326917 0.0010483924 0.02111925 7.071068e-011 7.071068e-011 7.071068e-011 7.071068e-011
7390390390.3904 -0.043076526 0.0095846001 -0.020326471 -0.0061746673 7.071068e-011 7.071068e-011 7.071068e-011 7.071068e-011
7398798798.7988 0.012893247 0.071238585 0.012905518 -0.01668606 7.071068e-011 7.071068e-011 7.071068e-011 7.071068e-011
7407207207.2072 0.027973868 0.0099029811 0.011171099 0.017990936 7.071068e-011 7.071068e-011 7.071068e-011 7.071068e-011
7415615615.6156 -0.040895581 0.035285581 -0.020875894 0.0043744775 7.071068e-011 7.071068e-011 7.071068e-011 7.071068e-011
7424024024.024 0.0066834739 0.10499806 0.0030760965 -0.021032885 7.071068e-011 7.071068e-011 7.071068e-011 7.071068e-011
7432432432.4324 0.054736491 0.054206077 0.018663699 0.010431313 7.071068e-011 7.071068e-011 7.071068e-011 7.071068e-011
7440840840.8408 0.0098575028 0.042290065 -0.016143965 0.014040408 7.071068e-011 7.071068e-011 7.071068e-011 7.071068e-011
7449249249.2492 0.030193299 0.087076917 -0.0073097995 -0.01987467 7.071068e-011 7.071068e-011 7.071068e-011 7.071068e-011
7457657657.6577 0.077944383 0.049044099 0.021252681 0.00018710682 7.071068e-011 7.071068e-011 7.071068e-011 7.071068e-011
7466066066.0661 0.041810967 0.014051962 -0.0075333202 0.019928634 7.071068e-011 7.071068e-011 7.071068e-011 7.071068e-011
7474474474.4745 0.030474085 0.0392626 -0.015924172 -0.013844799 7.071068e-011 7.071068e-011 7.071068e-011 7.071068e-011
7482882882.8829 0.059826564 0.029149231 0.018635713 -0.0097843632 7.071068e-011 7.071068e-011 7.071068e-011 7.071068e-011
7491291291.2913 0.038970042 -0.013352848 0.002627325 0.020926153 7.071068e-011 7.071068e-011 7.071068e-011 7.071068e-011
7499699699.6997 -0.0033283136 0.0023419396 -0.020352501 -0.0049412167 7.071068e-011 7.071068e-011 7.071068e-011 7.071068e-011
7508108108.1081 0.003229598 0.031945579 0.011761389 -0.017303633 7.071068e-011 7.071068e-011 7.071068e-011 7.071068e-011
7516516516.5165 0.019408382 0.01200292 0.01197191 0.016997851 7.071068e-011 7.071068e-011 7.071068e-011 7.071068e-011
7524924924.9249 -0.026342357 0.0065522902 -0.02002942 0.0050522946 7.071068e-011 7.071068e-011 7.071068e-011 7.071068e-011
7533333333.3333 -0.029872902 0.065937728 0.0025597366 -0.020489702 7.071068e-011 7.071068e-011 7.071068e-011 7.071068e-011
7541741741.7417 0.027807713 0.068948872 0.018234165 0.0095042428 7.071068e-011 7.071068e-011 7.071068e-011 7.071068e-011
7550150150.1502 0.013112387 0.020583607 -0.015226504 0.013198588 7.071068e-011 7.071068e-011 7.071068e-011 7.071068e-011
7558558558.5586 -0.015379006 0.068355732 -0.0068253456 -0.019039094 7.071068e-011 7.071068e-011 7.071068e-011 7.071068e-011
7566966966.967 0.05554473 0.078175828 0.01999017 0.00051210885 7.071068e-011 7.071068e-011 7.071068e-011 7.071068e-011
7575375375.3754 0.053669319 0.00099869771 -0.0079368213 0.018441616 7.071068e-011 7.071068e-011 7.071068e-011 7.071068e-011
7583783783.7838 -0.011874736 0.023900548 -0.014369982 -0.014095867 7.071068e-011 7.071068e-011 7.071068e-011 7.071068e-011
7592192192.1922 0.045376003 0.060669374 0.018011395 -0.0082826577 7.071068e-011 7.071068e-011 7.071068e-011 7.071068e-011
7600600600.6006 0.051858239 -0.024253935 0.00084073999 0.019474693 7.071068e-011 7.071068e-011 7.071068e-011 7.071068e-011
7609009009.009 -0.037927136 -0.010917423 -0.018858867 -0.0065662805 7.071068e-011 7.071068e-011 7.071068e-011 7.071068e-011
7617417417.4174 -0.0053136335 0.058134723 0.012642644 -0.015291257 7.071068e-011 7.071068e-011 7.071068e-011 7.071068e-011
7625825825.8258 0.026478242 -0.0039645559 0.0093916859 0.017407294 7.071068e-011 7.071068e-011 7.071068e-011 7.071068e-011
7634234234.2342 -0.060557138 0.0038467895 -0.019543899 0.0024104442 7.071068e-011 7.071068e-011 7.071068e-011 7.071068e-011
7642642642.6426 -0.026747089 0.091621362 0.0050175064 -0.018883932 7.071068e-011 7.071068e-011 7.071068e-011 7.071068e-011
7651051051.0511 0.037571535 0.042629696 0.015723512 0.011725301 7.071068e-011 7.071068e-011 7.071068e-011 7.071068e-011
7659459459.4595 -0.02968945 0.018036216 -0.016789125 0.010628966 7.071068e-011 7.071068e-011 7.071068e-011 7.071068e-011
7667867867.8679 -0.01169443 0.10235695 -0.0038590319 -0.019118313 7.071068e-011 7.071068e-011 7.071068e-011 7.071068e-011
7676276276.2763 0.073811196 0.059165005 0.019078424 0.0039933766 7.071068e-011 7.071068e-011 7.071068e-011 7.071068e-011
7684684684.6847 0.021567538 -0.0039606947 -0.010795737 0.016588531 7.071068e-011 7.071068e-011 7.071068e-011 7.071068e-011
7693093093.0931 0.00056577625 0.054252725 -0.011446828 -0.015981091 7.071068e-011 7.071068e-011 7.071068e-011 7.071068e-011
7701501501.5015 0.070993707 0.032721158 0.019026432 -0.0048004943 7.071068e-011 7.071068e-011 7.071068e-011 7.071068e-011
7709909909.9099 0.023497699 -0.042492505 -0.0026434276 0.019503037 7.071068e-011 7.071068e-011 7.071068e-011 7.071068e-011
7718318318.3183 -0.033227757 0.010708423 -0.017194778 -0.0096189501 7.071068e-011 7.071068e-011 7.071068e-011 7.071068e-011
7726726726.7267 0.024299718 0.027897855 0.015462779 -0.01221075 7.071068e-011 7.071068e-011 7.071068e-011 7.071068e-011
7735135135.1351 0.0029844355 -0.041208547 0.0059053027 0.018961271 7.071068e-011 7.071068e-011 7.071068e-011 7.071068e-011
7743543543.5435 -0.074961677 -0.00039086337 -0.01952474 -0.0014865428 7.071068e-011 7.071068e-011 7.071068e-011 7.071068e-011
7751951951.952 -0.030566573 0.064336471 0.0087532662 -0.017669547 7.071068e-011 7.071068e-011 7.071068e-011 7.071068e-011
7760360360.3604 -0.0025341366 0.01758847 0.013228638 0.01467704 7.071068e-011 7.071068e-011 7.071068e-011 7.071068e-011
7768768768.7688 -0.058230158 0.028289797 -0.018593354 0.0068433005 7.071068e-011 7.071068e-011 7.071068e-011 7.071068e-011
7777177177.1772 -0.027409481 0.09552101 0.00062064576 -0.019716723 7.071068e-011 7.071068e-011 7.071068e-011 7.071068e-011
7785585585.5856 0.033882212 0.058159295 0.018114185 0.0078411577 7.071068e-011 7.071068e-011 7.071068e-011 7.071068e-011
7793993993.994 -0.0054552122 0.027712533 -0.013925396 0.013670815 7.071068e-011 7.071068e-011 7.071068e-011 7.071068e-011
7802402402.4024 -0.00056294986 0.07480935 -0.0075475341 -0.018382791 7.071068e-011 7.071068e-011 7.071068e-011 7.071068e-011
7810810810.8108 0.057951484 0.04905032 0.019773379 -0.00042396304 7.071068e-011 7.071068e-011 7.071068e-011 7.071068e-011
7819219219.2192 0.026182067 -0.0064439788 -0.0071665086 0.018322175 7.071068e-011 7.071068e-011 7.071068e-011 7.071068e-011
7827627627.6276 -0.0037078431 0.026698587 -0.014385803 -0.013478076 7.071068e-011 7.071068e-011 7.071068e-011 7.071068e-011
7836036036.036 0.03742272 0.025871888 0.017854063 -0.008317193 7.071068e-011 7.071068e-011 7.071068e-011 7.071068e-011
7844444444.4444 0.016658114 -0.023749653 0.0010878724 0.019718168 7.071068e-011 7.071068e-011 7.071068e-011 7.071068e-011
7852852852.8529 -0.028287379 0.0028819374 -0.018781532 -0.0063804234 7.071068e-011 7.071068e-011 7.071068e-011 7.071068e-011
7861261261.2613 0.0015981826 0.029548684 0.012792104 -0.015027633 7.071068e-011 7.071068e-011 7.071068e-011 7.071068e-011
7869669669.6697 0.0055543613 -0.0091567142 0.008987301 0.017569885 7.071068e-011 7.071068e-011 7.071068e-011 7.071068e-011
7878078078.0781 -0.04032753 0.0032943741 -0.019807313 0.0019335638 7.071068e-011 7.071068e-011 7.071068e-011 7.071068e-011
7886486486.4865 -0.02453492 0.046888106 0.0054114489 -0.019007606 7.071068e-011 7.071068e-011 7.071068e-011 7.071068e-011
7894894894.8949 0.010923047 0.03040218 0.015386793 0.01201009 7.071068e-011 7.071068e-011 7.071068e-011 7.071068e-011
7903303303.3033 -0.013408351 0.011045124 -0.017102057 0.0096662277 7.071068e-011 7.071068e-011 7.071068e-011 7.071068e-011
7911711711.7117 -0.01790452 0.043859866 -0.0027358218 -0.019488223 7.071068e-011 7.071068e-011 7.071068e-011 7.071068e-011
7920120120.1201 0.023035364 0.044964109 0.018887572 0.0047530234 7.071068e-011 7.071068e-011 7.071068e-011 7.071068e-011
7928528528.5285 0.023711989 0.0019943789 -0.011479348 0.015706856 7.071068e-011 7.071068e-011 7.071068e-011 7.071068e-011
7936936936.9369 -0.0099379113 0.011055399 -0.010129388 -0.016400119 7.071068e-011 7.071068e-011 7.071068e-011 7.071068e-011
7945345345.3453 0.017707117 0.032135349 0.019023906 -0.0030563602 7.071068e-011 7.071068e-011 7.071068e-011 7.071068e-011
