!Keysight Technologies,N5235B,MY61252044,A.15.00.15
!Date: Friday, January 20, 2023 23:40:32
!Correction: S11(Off) 
!S21(Off) 
!S12(Off) 
!S22(Off) 
!S2P File: Measurements: S11, S21, S12, S22:
# Hz S  RI   R 50
6600000000 0.018618831 -0.17524968 0.015405271 -0.0030183767 7.071068e-011 7.071068e-011 7.071068e-011 7.071068e-011
6608408408.4084 -0.12464706 0.16538423 0.005271649 0.010808125 7.071068e-011 7.071068e-011 7.071068e-011 7.071068e-011
6616816816.8168 0.30586535 0.092913114 -0.0088877091 0.0036634502 7.071068e-011 7.071068e-011 7.071068e-011 7.071068e-011
6625225225.2252 0.02488046 -0.27299061 -0.0017604168 -0.0092773354 7.071068e-011 7.071068e-011 7.071068e-011 7.071068e-011
6633633633.6336 -0.16587228 0.16123244 0.0093059149 -0.00036970948 7.071068e-011 7.071068e-011 7.071068e-011 7.071068e-011
6642042042.042 0.28984585 0.11333308 -0.0018689631 0.0092844302 7.071068e-011 7.071068e-011 7.071068e-011 7.071068e-011
6650450450.4505 0.039290294 -0.25202677 -0.010683422 -0.0041031167 7.071068e-011 7.071068e-011 7.071068e-011 7.071068e-011
6658858858.8589 -0.14841241 0.13420118 0.0059835799 -0.011451351 7.071068e-011 7.071068e-011 7.071068e-011 7.071068e-011
6667267267.2673 0.22832049 0.10135879 0.012154029 0.0091623683 7.071068e-011 7.071068e-011 7.071068e-011 7.071068e-011
6675675675.6757 0.043094698 -0.15100868 -0.011518773 0.013765987 7.071068e-011 7.071068e-011 7.071068e-011 7.071068e-011
6684084084.0841 -0.044475406 0.083967738 -0.014524778 -0.013324742 7.071068e-011 7.071068e-011 7.071068e-011 7.071068e-011
6692492492.4925 0.10583085 0.047590252 0.014790247 -0.014831924 7.071068e-011 7.071068e-011 7.071068e-011 7.071068e-011
6700900900.9009 0.085860237 0.01831894 0.014676702 0.015396566 7.071068e-011 7.071068e-011 7.071068e-011 7.071068e-011
6709309309.3093 0.077429466 -0.041829161 -0.015536818 0.013029531 7.071068e-011 7.071068e-011 7.071068e-011 7.071068e-011
6717717717.7177 -0.031309128 0.034186825 -0.010081383 -0.016451648 7.071068e-011 7.071068e-011 7.071068e-011 7.071068e-011
6726126126.1261 0.15503021 0.11646208 0.016765077 -0.0070323199 7.071068e-011 7.071068e-011 7.071068e-011 7.071068e-011
6734534534.5345 0.12876566 -0.14065748 0.003518709 0.016188122 7.071068e-011 7.071068e-011 7.071068e-011 7.071068e-011
6742942942.9429 -0.10787359 0.026501412 -0.015858877 -0.00030081536 7.071068e-011 7.071068e-011 7.071068e-011 7.071068e-011
6751351351.3514 0.17130338 0.1526376 0.0036334784 -0.015311306 7.071068e-011 7.071068e-011 7.071068e-011 7.071068e-011
6759759759.7598 0.15087596 -0.17134169 0.013123445 0.007068953 7.071068e-011 7.071068e-011 7.071068e-011 7.071068e-011
6768168168.1682 -0.14683263 -0.0058431234 -0.010838796 0.010352697 7.071068e-011 7.071068e-011 7.071068e-011 7.071068e-011
6776576576.5766 0.13370852 0.17908128 -0.0079463506 -0.013444092 7.071068e-011 7.071068e-011 7.071068e-011 7.071068e-011
6784984984.985 0.15148965 -0.14603727 0.014517659 -0.0039702868 7.071068e-011 7.071068e-011 7.071068e-011 7.071068e-011
6793393393.3934 -0.14742628 -0.0068453215 -0.00037924416 0.015470581 7.071068e-011 7.071068e-011 7.071068e-011 7.071068e-011
6801801801.8018 0.10133729 0.20273171 -0.015658759 -0.0043184254 7.071068e-011 7.071068e-011 7.071068e-011 7.071068e-011
6810210210.2102 0.17253251 -0.094724692 0.0086790156 -0.014368348 7.071068e-011 7.071068e-011 7.071068e-011 7.071068e-011
6818618618.6186 -0.10513638 -0.010541976 0.012082824 0.013214535 7.071068e-011 7.071068e-011 7.071068e-011 7.071068e-011
6827027027.027 0.08753182 0.18539192 -0.015924072 0.009146451 7.071068e-011 7.071068e-011 7.071068e-011 7.071068e-011
6835435435.4354 0.18159336 -0.048475102 -0.0044312221 -0.017840365 7.071068e-011 7.071068e-011 7.071068e-011 7.071068e-011
6843843843.8438 -0.045295708 -0.028319808 0.020095937 0.00028382873 7.071068e-011 7.071068e-011 7.071068e-011 7.071068e-011
6852252252.2523 0.074537918 0.12935017 -0.0046155583 0.020212924 7.071068e-011 7.071068e-011 7.071068e-011 7.071068e-011
6860660660.6607 0.14519706 -0.020242836 -0.018517371 -0.0096171172 7.071068e-011 7.071068e-011 7.071068e-011 7.071068e-011
6869069069.0691 0.0041931239 -0.027021393 0.014509548 -0.016004501 7.071068e-011 7.071068e-011 7.071068e-011 7.071068e-011
6877477477.4775 0.054031305 0.072424129 0.012599135 0.018065151 7.071068e-011 7.071068e-011 7.071068e-011 7.071068e-011
6885885885.8859 0.090261303 0.0070219906 -0.020397764 0.0076464992 7.071068e-011 7.071068e-011 7.071068e-011 7.071068e-011
6894294294.2943 0.047413301 -0.001023856 -0.0022597704 -0.021943783 7.071068e-011 7.071068e-011 7.071068e-011 7.071068e-011
6902702702.7027 0.038112897 0.019306459 0.021901844 0.0032764615 7.071068e-011 7.071068e-011 7.071068e-011 7.071068e-011
6911111111.1111 0.031075863 0.037702635 -0.0087838825 0.020116605 7.071068e-011 7.071068e-011 7.071068e-011 7.071068e-011
6919519519.5195 0.07816951 0.049909189 -0.016850462 -0.013613194 7.071068e-011 7.071068e-011 7.071068e-011 7.071068e-011
6927927927.9279 0.050905611 -0.012307197 0.017216485 -0.012688017 7.071068e-011 7.071068e-011 7.071068e-011 7.071068e-011
6936336336.3363 -0.0022569452 0.062015109 0.007210216 0.019426502 7.071068e-011 7.071068e-011 7.071068e-011 7.071068e-011
6944744744.7447 0.11238654 0.089540318 -0.020770924 0.0011042551 7.071068e-011 7.071068e-011 7.071068e-011 7.071068e-011
6953153153.1532 0.084439799 -0.045615323 0.004514514 -0.0199182 7.071068e-011 7.071068e-011 7.071068e-011 7.071068e-011
6961561561.5616 -0.028418932 0.054414358 0.017259207 0.0099370731 7.071068e-011 7.071068e-011 7.071068e-011 7.071068e-011
6969969969.97 0.12464892 0.10589375 -0.014483235 0.013467959 7.071068e-011 7.071068e-011 7.071068e-011 7.071068e-011
6978378378.3784 0.10169609 -0.070713513 -0.0083080139 -0.017326167 7.071068e-011 7.071068e-011 7.071068e-011 7.071068e-011
6986786786.7868 -0.063965842 0.032611836 0.018666577 -0.0022419274 7.071068e-011 7.071068e-011 7.071068e-011 7.071068e-011
6995195195.1952 0.1027807 0.13393095 -0.0035863374 0.01884217 7.071068e-011 7.071068e-011 7.071068e-011 7.071068e-011
7003603603.6036 0.10908543 -0.057777219 -0.016525947 -0.0089170849 7.071068e-011 7.071068e-011 7.071068e-011 7.071068e-011
7012012012.012 -0.072720282 0.032286357 0.014091167 -0.012409259 7.071068e-011 7.071068e-011 7.071068e-011 7.071068e-011
7020420420.4204 0.08796563 0.16154195 0.0077302135 0.017285751 7.071068e-011 7.071068e-011 7.071068e-011 7.071068e-011
7028828828.8288 0.13269736 -0.02903687 -0.018467627 0.0017860533 7.071068e-011 7.071068e-011 7.071068e-011 7.071068e-011
7037237237.2372 -0.053967129 0.030682491 0.0044285269 -0.018573526 7.071068e-011 7.071068e-011 7.071068e-011 7.071068e-011
7045645645.6456 0.09001562 0.17082703 0.016369583 0.0098002851 7.071068e-011 7.071068e-011 7.071068e-011 7.071068e-011
7054054054.0541 0.16754098 -0.0029637069 -0.014647135 0.011969498 7.071068e-011 7.071068e-011 7.071068e-011 7.071068e-011
7062462462.4625 -0.0079572322 -0.0040788054 -0.0067847311 -0.018414605 7.071068e-011 7.071068e-011 7.071068e-011 7.071068e-011
7070870870.8709 0.078088246 0.1403392 0.019703342 -0.0011430975 7.071068e-011 7.071068e-011 7.071068e-011 7.071068e-011
7079279279.2793 0.16844939 0.007485488 -0.0055750324 0.018715801 7.071068e-011 7.071068e-011 7.071068e-011 7.071068e-011
7087687687.6877 0.032512251 -0.027096301 -0.01657203 -0.011476113 7.071068e-011 7.071068e-011 7.071068e-011 7.071068e-011
7096096096.0961 0.059509553 0.089312032 0.015921131 -0.012405399 7.071068e-011 7.071068e-011 7.071068e-011 7.071068e-011
7104504504.5045 0.14773822 0.01034322 0.0064717168 0.019094044 7.071068e-011 7.071068e-011 7.071068e-011 7.071068e-011
7112912912.9129 0.050890531 -0.044569604 -0.0205759 -0.00014876068 7.071068e-011 7.071068e-011 7.071068e-011 7.071068e-011
7121321321.3213 0.034420852 0.031772438 0.0063232179 -0.019762326 7.071068e-011 7.071068e-011 7.071068e-011 7.071068e-011
7129729729.7297 0.08917436 0.014558475 0.016365876 0.012065717 7.071068e-011 7.071068e-011 7.071068e-011 7.071068e-011
7138138138.1381 0.043566398 -0.037798267 -0.0171353 0.011635384 7.071068e-011 7.071068e-011 7.071068e-011 7.071068e-011
7146546546.5465 -0.00064124994 0.013559169 -0.0057806526 -0.020059841 7.071068e-011 7.071068e-011 7.071068e-011 7.071068e-011
7154954954.955 0.030733835 0.041385073 0.020729674 0.00090511126 7.071068e-011 7.071068e-011 7.071068e-011 7.071068e-011
7163363363.3634 0.044877518 0.015706154 -0.0076715471 0.019024611 7.071068e-011 7.071068e-011 7.071068e-011 7.071068e-011
7171771771.7718 0.0012879156 0.020322669 -0.015672116 -0.013473229 7.071068e-011 7.071068e-011 7.071068e-011 7.071068e-011
7180180180.1802 0.018389378 0.072421581 0.017593263 -0.010324043 7.071068e-011 7.071068e-011 7.071068e-011 7.071068e-011
7188588588.5886 0.067759685 0.056298751 0.0038428754 0.020391727 7.071068e-011 7.071068e-011 7.071068e-011 7.071068e-011
7196996996.997 0.039981641 0.010026909 -0.02053803 -0.0027661619 7.071068e-011 7.071068e-011 7.071068e-011 7.071068e-011
7205405405.4054 0.012187288 0.06712795 0.0095457984 -0.01791938 7.071068e-011 7.071068e-011 7.071068e-011 7.071068e-011
7213813813.8138 0.083281592 0.067254871 0.013770279 0.015159462 7.071068e-011 7.071068e-011 7.071068e-011 7.071068e-011
7222222222.2222 0.066165589 -0.0054859626 -0.018936388 0.0081579071 7.071068e-011 7.071068e-011 7.071068e-011 7.071068e-011
7230630630.6306 -0.001198001 0.035100669 -0.0013813097 -0.020430245 7.071068e-011 7.071068e-011 7.071068e-011 7.071068e-011
7239039039.039 0.071375169 0.075549692 0.019880608 0.0058718128 7.071068e-011 7.071068e-011 7.071068e-011 7.071068e-011
7247447447.4474 0.075378954 -0.014664532 -0.012009216 0.016908711 7.071068e-011 7.071068e-011 7.071068e-011 7.071068e-011
7255855855.8559 -0.016595593 0.0071539087 -0.011525855 -0.01699122 7.071068e-011 7.071068e-011 7.071068e-011 7.071068e-011
7264264264.2643 0.034764789 0.084172986 0.020066056 -0.0053049582 7.071068e-011 7.071068e-011 7.071068e-011 7.071068e-011
7272672672.6727 0.074490093 0.000648538 -0.001550375 0.020469222 7.071068e-011 7.071068e-011 7.071068e-011 7.071068e-011
7281081081.0811 -0.029878717 0.00078767573 -0.018647036 -0.0084618358 7.071068e-011 7.071068e-011 7.071068e-011 7.071068e-011
7289489489.4895 -1.5268566e-005 0.1075444 0.014674309 -0.014546247 7.071068e-011 7.071068e-011 7.071068e-011 7.071068e-011
7297897897.8979 0.0848893 0.050756477 0.0087333769 0.018787581 7.071068e-011 7.071068e-011 7.071068e-011 7.071068e-011
7306306306.3063 0.0012635764 0.0088597694 -0.020518383 0.0015337361 7.071068e-011 7.071068e-011 7.071068e-011 7.071068e-011
7314714714.7147 0.0039560092 0.1126533 0.0054131937 -0.020225968 7.071068e-011 7.071068e-011 7.071068e-011 7.071068e-011
7323123123.1231 0.11268996 0.075563587 0.016936272 0.011732679 7.071068e-011 7.071068e-011 7.071068e-011 7.071068e-011
7331531531.5315 0.051341452 -0.011953101 -0.017294887 0.011651915 7.071068e-011 7.071068e-011 7.071068e-011 7.071068e-011
7339939939.9399 0.0078340219 0.068657786 -0.0052740197 -0.020500712 7.071068e-011 7.071068e-011 7.071068e-011 7.071068e-011
7348348348.3483 0.1054965 0.063672952 0.020855296 0.0019590247 7.071068e-011 7.071068e-011 7.071068e-011 7.071068e-011
7356756756.7568 0.066173308 -0.036919244 -0.0092024868 0.01871852 7.071068e-011 7.071068e-011 7.071068e-011 7.071068e-011
7365165165.1652 -0.010149067 0.020763351 -0.014678718 -0.015168902 7.071068e-011 7.071068e-011 7.071068e-011 7.071068e-011
7373573573.5736 0.061367344 0.049844068 0.018969631 -0.0085135465 7.071068e-011 7.071068e-011 7.071068e-011 7.071068e-011
7381981981.982 0.04410702 -0.035242572 0.0010399049 0.021054892 7.071068e-011 7.071068e-011 7.071068e-011 7.071068e-011
7390390390.3904 -0.04311968 0.0094670448 -0.020258134 -0.006161938 7.071068e-011 7.071068e-011 7.071068e-011 7.071068e-011
7398798798.7988 0.01289945 0.071377374 0.012871464 -0.016623186 7.071068e-011 7.071068e-011 7.071068e-011 7.071068e-011
7407207207.2072 0.028008772 0.0097785788 0.011122312 0.017937472 7.071068e-011 7.071068e-011 7.071068e-011 7.071068e-011
7415615615.6156 -0.040957827 0.035397545 -0.02080659 0.0043441383 7.071068e-011 7.071068e-011 7.071068e-011 7.071068e-011
7424024024.024 0.0067786975 0.10493078 0.0030833173 -0.020958239 7.071068e-011 7.071068e-011 7.071068e-011 7.071068e-011
7432432432.4324 0.054640077 0.054246012 0.018591141 0.010414491 7.071068e-011 7.071068e-011 7.071068e-011 7.071068e-011
7440840840.8408 0.0099783642 0.042300515 -0.016103778 0.013980204 7.071068e-011 7.071068e-011 7.071068e-011 7.071068e-011
7449249249.2492 0.030100472 0.087022915 -0.0072673941 -0.019815981 7.071068e-011 7.071068e-011 7.071068e-011 7.071068e-011
7457657657.6577 0.078033186 0.049135786 0.021182023 0.00020958421 7.071068e-011 7.071068e-011 7.071068e-011 7.071068e-011
7466066066.0661 0.041777305 0.013936734 -0.007527824 0.01985744 7.071068e-011 7.071068e-011 7.071068e-011 7.071068e-011
7474474474.4745 0.030481949 0.039380971 -0.015859446 -0.013818142 7.071068e-011 7.071068e-011 7.071068e-011 7.071068e-011
7482882882.8829 0.059864163 0.029035978 0.018590175 -0.0097322799 7.071068e-011 7.071068e-011 7.071068e-011 7.071068e-011
7491291291.2913 0.038902577 -0.013266172 0.0026032703 0.020864585 7.071068e-011 7.071068e-011 7.071068e-011 7.071068e-011
7499699699.6997 -0.0032375094 0.0022841576 -0.020284746 -0.0049472847 7.071068e-011 7.071068e-011 7.071068e-011 7.071068e-011
7508108108.1081 0.003128879 0.031958137 0.011741249 -0.017237801 7.071068e-011 7.071068e-011 7.071068e-011 7.071068e-011
7516516516.5165 0.019506469 0.012035537 0.011924348 0.016951207 7.071068e-011 7.071068e-011 7.071068e-011 7.071068e-011
7524924924.9249 -0.026417712 0.0064795427 -0.019970583 0.0050128289 7.071068e-011 7.071068e-011 7.071068e-011 7.071068e-011
7533333333.3333 -0.029820196 0.066040009 0.0025790005 -0.020420302 7.071068e-011 7.071068e-011 7.071068e-011 7.071068e-011
7541741741.7417 0.027802235 0.068837687 0.01817186 0.0094872182 7.071068e-011 7.071068e-011 7.071068e-011 7.071068e-011
7550150150.1502 0.013095645 0.02069718 -0.015202865 0.013133039 7.071068e-011 7.071068e-011 7.071068e-011 7.071068e-011
7558558558.5586 -0.015318321 0.068257332 -0.0067860326 -0.018991427 7.071068e-011 7.071068e-011 7.071068e-011 7.071068e-011
7566966966.967 0.055465378 0.078244127 0.019932035 0.00051982218 7.071068e-011 7.071068e-011 7.071068e-011 7.071068e-011
7575375375.3754 0.053767148 0.00097390881 -0.0079425722 0.018372709 7.071068e-011 7.071068e-011 7.071068e-011 7.071068e-011
7583783783.7838 -0.011969408 0.023882205 -0.014320202 -0.01405714 7.071068e-011 7.071068e-011 7.071068e-011 7.071068e-011
7592192192.1922 0.045454189 0.060728032 0.017960649 -0.008242107 7.071068e-011 7.071068e-011 7.071068e-011 7.071068e-011
7600600600.6006 0.051814087 -0.024343263 0.00080770801 0.019415444 7.071068e-011 7.071068e-011 7.071068e-011 7.071068e-011
7609009009.009 -0.03791282 -0.01081855 -0.018797692 -0.0065598832 7.071068e-011 7.071068e-011 7.071068e-011 7.071068e-011
7617417417.4174 -0.005293536 0.058033947 0.012623623 -0.015229361 7.071068e-011 7.071068e-011 7.071068e-011 7.071068e-011
7625825825.8258 0.026425019 -0.0038740798 0.0093425987 0.017367752 7.071068e-011 7.071068e-011 7.071068e-011 7.071068e-011
7634234234.2342 -0.060466163 0.0037866952 -0.019488242 0.0023869528 7.071068e-011 7.071068e-011 7.071068e-011 7.071068e-011
7642642642.6426 -0.026848998 0.091646202 0.0050174305 -0.018823795 7.071068e-011 7.071068e-011 7.071068e-011 7.071068e-011
7651051051.0511 0.037679322 0.04264795 0.015661519 0.011704645 7.071068e-011 7.071068e-011 7.071068e-011 7.071068e-011
7659459459.4595 -0.029775318 0.017986583 -0.016746223 0.010579246 7.071068e-011 7.071068e-011 7.071068e-011 7.071068e-011
7667867867.8679 -0.011631105 0.10243291 -0.0038272103 -0.019064257 7.071068e-011 7.071068e-011 7.071068e-011 7.071068e-011
7676276276.2763 0.073791936 0.059078731 0.019018408 0.0040070633 7.071068e-011 7.071068e-011 7.071068e-011 7.071068e-011
7684684684.6847 0.021558108 -0.0038694025 -0.010781263 0.016532632 7.071068e-011 7.071068e-011 7.071068e-011 7.071068e-011
7693093093.0931 0.00061735872 0.054169629 -0.011398464 -0.015945427 7.071068e-011 7.071068e-011 7.071068e-011 7.071068e-011
7701501501.5015 0.070908628 0.032777455 0.018976791 -0.0047704778 7.071068e-011 7.071068e-011 7.071068e-011 7.071068e-011
7709909909.9099 0.023604196 -0.042511802 -0.0026510349 0.019440262 7.071068e-011 7.071068e-011 7.071068e-011 7.071068e-011
7718318318.3183 -0.033333316 0.010686023 -0.017130999 -0.0096005145 7.071068e-011 7.071068e-011 7.071068e-011 7.071068e-011
7726726726.7267 0.024395365 0.027953481 0.015424164 -0.012155434 7.071068e-011 7.071068e-011 7.071068e-011 7.071068e-011
7735135135.1351 0.0029185498 -0.041287854 0.0058614402 0.018909844 7.071068e-011 7.071068e-011 7.071068e-011 7.071068e-011
7743543543.5435 -0.074929252 -0.00029481339 -0.019464599 -0.0015023459 7.071068e-011 7.071068e-011 7.071068e-011 7.071068e-011
7751951951.952 -0.030562889 0.064244807 0.0087527698 -0.017607886 7.071068e-011 7.071068e-011 7.071068e-011 7.071068e-011
7760360360.3604 -0.0025745542 0.017676696 0.013173349 0.014652225 7.071068e-011 7.071068e-011 7.071068e-011 7.071068e-011
7768768768.7688 -0.058150031 0.028235286 -0.018547216 0.0068098204 7.071068e-011 7.071068e-011 7.071068e-011 7.071068e-011
7777177177.1772 -0.027506972 0.095541805 0.00063773984 -0.019658841 7.071068e-011 7.071068e-011 7.071068e-011 7.071068e-011
7785585585.5856 0.033985332 0.058188044 0.018053865 0.0078333318 7.071068e-011 7.071068e-011 7.071068e-011 7.071068e-011
7793993993.994 -0.0055369469 0.027651517 -0.013889066 0.013615574 7.071068e-011 7.071068e-011 7.071068e-011 7.071068e-011
7802402402.4024 -0.00049927202 0.074899741 -0.0075016976 -0.018328829 7.071068e-011 7.071068e-011 7.071068e-011 7.071068e-011
7810810810.8108 0.057925534 0.048949242 0.019708652 -0.00040192646 7.071068e-011 7.071068e-011 7.071068e-011 7.071068e-011
7819219219.2192 0.026179789 -0.0063416241 -0.0071663172 0.018256621 7.071068e-011 7.071068e-011 7.071068e-011 7.071068e-011
7827627627.6276 -0.0036621424 0.026608584 -0.014323961 -0.013457172 7.071068e-011 7.071068e-011 7.071068e-011 7.071068e-011
7836036036.036 0.037347052 0.025934067 0.017814109 -0.0082762241 7.071068e-011 7.071068e-011 7.071068e-011 7.071068e-011
7844444444.4444 0.016753852 -0.023769505 0.0010659099 0.019664103 7.071068e-011 7.071068e-011 7.071068e-011 7.071068e-011
7852852852.8529 -0.028385142 0.0028631042 -0.018722119 -0.0063813524 7.071068e-011 7.071068e-011 7.071068e-011 7.071068e-011
7861261261.2613 0.001680753 0.02960564 0.012765144 -0.014973716 7.071068e-011 7.071068e-011 7.071068e-011 7.071068e-011
7869669669.6697 0.0054949885 -0.0092363199 0.008943771 0.017522169 7.071068e-011 7.071068e-011 7.071068e-011 7.071068e-011
7878078078.0781 -0.040302668 0.0033912451 -0.019747928 0.0019080209 7.071068e-011 7.071068e-011 7.071068e-011 7.071068e-011
7886486486.4865 -0.02452442 0.046789173 0.0054140878 -0.018941814 7.071068e-011 7.071068e-011 7.071068e-011 7.071068e-011
7894894894.8949 0.010873944 0.030488597 0.015325263 0.011992027 7.071068e-011 7.071068e-011 7.071068e-011 7.071068e-011
7903303303.3033 -0.013323718 0.010988356 -0.017062737 0.0096172011 7.071068e-011 7.071068e-011 7.071068e-011 7.071068e-011
7911711711.7117 -0.018000141 0.043879207 -0.0027036287 -0.019435825 7.071068e-011 7.071068e-011 7.071068e-011 7.071068e-011
7920120120.1201 0.023136692 0.044987116 0.018828368 0.0047583007 7.071068e-011 7.071068e-011 7.071068e-011 7.071068e-011
7928528528.5285 0.023631526 0.0019426446 -0.011463567 0.015650326 7.071068e-011 7.071068e-011 7.071068e-011 7.071068e-011
7936936936.9369 -0.009879455 0.011133152 -0.010083023 -0.016361455 7.071068e-011 7.071068e-011 7.071068e-011 7.071068e-011
7945345345.3453 0.017685156 0.032041375 0.018969055 -0.0030318077 7.071068e-011 7.071068e-011 7.071068e-011 7.071068e-011
