!Keysight Technologies,N5235B,MY61252044,A.15.00.15
!Date: Friday, January 20, 2023 22:52:55
!Correction: S11(Off) 
!S21(Off) 
!S12(Off) 
!S22(Off) 
!S2P File: Measurements: S11, S21, S12, S22:
# Hz S  RI   R 50
6600000000 0.018077487 -0.17506392 0.01547164 -0.0030448386 7.071068e-011 7.071068e-011 7.071068e-011 7.071068e-011
6608408408.4084 -0.12414663 0.16603726 0.0053133005 0.010841721 7.071068e-011 7.071068e-011 7.071068e-011 7.071068e-011
6616816816.8168 0.30625173 0.092084177 -0.0089149754 0.0036959504 7.071068e-011 7.071068e-011 7.071068e-011 7.071068e-011
6625225225.2252 0.023903064 -0.27294835 -0.0017854545 -0.0093097519 7.071068e-011 7.071068e-011 7.071068e-011 7.071068e-011
6633633633.6336 -0.16533488 0.16202864 0.0093400814 -0.00039436651 7.071068e-011 7.071068e-011 7.071068e-011 7.071068e-011
6642042042.042 0.29023916 0.11257607 -0.0018524665 0.0093222149 7.071068e-011 7.071068e-011 7.071068e-011 7.071068e-011
6650450450.4505 0.038482968 -0.25210246 -0.010726544 -0.0040902826 7.071068e-011 7.071068e-011 7.071068e-011 7.071068e-011
6658858858.8589 -0.14813955 0.13492182 0.0059737982 -0.011497469 7.071068e-011 7.071068e-011 7.071068e-011 7.071068e-011
6667267267.2673 0.22880188 0.10083705 0.012205779 0.0091686733 7.071068e-011 7.071068e-011 7.071068e-011 7.071068e-011
6675675675.6757 0.04246344 -0.15116671 -0.01153858 0.013827687 7.071068e-011 7.071068e-011 7.071068e-011 7.071068e-011
6684084084.0841 -0.044289246 0.084454603 -0.014602275 -0.013352477 7.071068e-011 7.071068e-011 7.071068e-011 7.071068e-011
6692492492.4925 0.10595782 0.047372673 0.014827639 -0.014923088 7.071068e-011 7.071068e-011 7.071068e-011 7.071068e-011
6700900900.9009 0.085913375 0.018205514 0.014774119 0.015420969 7.071068e-011 7.071068e-011 7.071068e-011 7.071068e-011
6709309309.3093 0.077073909 -0.041850176 -0.015557568 0.013117325 7.071068e-011 7.071068e-011 7.071068e-011 7.071068e-011
6717717717.7177 -0.031095497 0.034571212 -0.010151366 -0.016486753 7.071068e-011 7.071068e-011 7.071068e-011 7.071068e-011
6726126126.1261 0.15528694 0.11608033 0.016807644 -0.0070946906 7.071068e-011 7.071068e-011 7.071068e-011 7.071068e-011
6734534534.5345 0.12829193 -0.14077875 0.0035661296 0.016238257 7.071068e-011 7.071068e-011 7.071068e-011 7.071068e-011
6742942942.9429 -0.1078312 0.027024053 -0.015918775 -0.00026990531 7.071068e-011 7.071068e-011 7.071068e-011 7.071068e-011
6751351351.3514 0.17182499 0.15236738 0.0036101716 -0.015377631 7.071068e-011 7.071068e-011 7.071068e-011 7.071068e-011
6759759759.7598 0.15033007 -0.17175974 0.01319127 0.0070640775 7.071068e-011 7.071068e-011 7.071068e-011 7.071068e-011
6768168168.1682 -0.14694655 -0.0050849263 -0.01085552 0.010418042 7.071068e-011 7.071068e-011 7.071068e-011 7.071068e-011
6776576576.5766 0.13442259 0.17876495 -0.0080140997 -0.013470915 7.071068e-011 7.071068e-011 7.071068e-011 7.071068e-011
6784984984.985 0.15089485 -0.14644627 0.014559112 -0.0040261662 7.071068e-011 7.071068e-011 7.071068e-011 7.071068e-011
6793393393.3934 -0.14749308 -0.0062210718 -0.00034114777 0.015524501 7.071068e-011 7.071068e-011 7.071068e-011 7.071068e-011
6801801801.8018 0.10187618 0.20258282 -0.015723528 -0.0042871824 7.071068e-011 7.071068e-011 7.071068e-011 7.071068e-011
6810210210.2102 0.17220947 -0.095182769 0.0086690048 -0.014437323 7.071068e-011 7.071068e-011 7.071068e-011 7.071068e-011
6818618618.6186 -0.10544039 -0.010044092 0.012150543 0.01323268 7.071068e-011 7.071068e-011 7.071068e-011 7.071068e-011
6827027027.027 0.088113785 0.18543795 -0.015956385 0.0092176795 7.071068e-011 7.071068e-011 7.071068e-011 7.071068e-011
6835435435.4354 0.18133543 -0.049004789 -0.0044874004 -0.017895319 7.071068e-011 7.071068e-011 7.071068e-011 7.071068e-011
6843843843.8438 -0.045562267 -0.027831335 0.020174671 0.00024193674 7.071068e-011 7.071068e-011 7.071068e-011 7.071068e-011
6852252252.2523 0.074941806 0.12927264 -0.0045733764 0.020304063 7.071068e-011 7.071068e-011 7.071068e-011 7.071068e-011
6860660660.6607 0.14504333 -0.020428436 -0.018611236 -0.0096007697 7.071068e-011 7.071068e-011 7.071068e-011 7.071068e-011
6869069069.0691 0.0040544509 -0.026932502 0.014514943 -0.016095459 7.071068e-011 7.071068e-011 7.071068e-011 7.071068e-011
6877477477.4775 0.054140244 0.072586216 0.012691381 0.018086696 7.071068e-011 7.071068e-011 7.071068e-011 7.071068e-011
6885885885.8859 0.090364777 0.0068289666 -0.020448774 0.0077159195 7.071068e-011 7.071068e-011 7.071068e-011 7.071068e-011
6894294294.2943 0.047197953 -0.0010082052 -0.0023162237 -0.022018477 7.071068e-011 7.071068e-011 7.071068e-011 7.071068e-011
6902702702.7027 0.038227838 0.019413644 0.021993913 0.0032305934 7.071068e-011 7.071068e-011 7.071068e-011 7.071068e-011
6911111111.1111 0.031034952 0.037674446 -0.008769365 0.0202184 7.071068e-011 7.071068e-011 7.071068e-011 7.071068e-011
6919519519.5195 0.078301899 0.049856283 -0.016954737 -0.013614607 7.071068e-011 7.071068e-011 7.071068e-011 7.071068e-011
6927927927.9279 0.050644055 -0.012391504 0.017237341 -0.012789578 7.071068e-011 7.071068e-011 7.071068e-011 7.071068e-011
6936336336.3363 -0.0021156319 0.062316429 0.0072842161 0.019473325 7.071068e-011 7.071068e-011 7.071068e-011 7.071068e-011
6944744744.7447 0.11253559 0.089231752 -0.020839009 0.0011613796 7.071068e-011 7.071068e-011 7.071068e-011 7.071068e-011
6953153153.1532 0.084114969 -0.045593724 0.0044736834 -0.02000097 7.071068e-011 7.071068e-011 7.071068e-011 7.071068e-011
6961561561.5616 -0.028285785 0.054655731 0.017344482 0.0099374577 7.071068e-011 7.071068e-011 7.071068e-011 7.071068e-011
6969969969.97 0.12483194 0.10573531 -0.014505045 0.013558946 7.071068e-011 7.071068e-011 7.071068e-011 7.071068e-011
6978378378.3784 0.1014573 -0.070919774 -0.0083965147 -0.017366154 7.071068e-011 7.071068e-011 7.071068e-011 7.071068e-011
6986786786.7868 -0.064077437 0.033027388 0.018730847 -0.0022968657 7.071068e-011 7.071068e-011 7.071068e-011 7.071068e-011
6995195195.1952 0.10324275 0.13376389 -0.0035392463 0.018920824 7.071068e-011 7.071068e-011 7.071068e-011 7.071068e-011
7003603603.6036 0.10865815 -0.05808254 -0.016613793 -0.0088916635 7.071068e-011 7.071068e-011 7.071068e-011 7.071068e-011
7012012012.012 -0.072734438 0.032799512 0.014110728 -0.012486057 7.071068e-011 7.071068e-011 7.071068e-011 7.071068e-011
7020420420.4204 0.088343255 0.16133201 0.0078094415 0.017321352 7.071068e-011 7.071068e-011 7.071068e-011 7.071068e-011
7028828828.8288 0.13240451 -0.029260801 -0.018528508 0.0018458164 7.071068e-011 7.071068e-011 7.071068e-011 7.071068e-011
7037237237.2372 -0.054089129 0.031002406 0.0044038547 -0.01865009 7.071068e-011 7.071068e-011 7.071068e-011 7.071068e-011
7045645645.6456 0.090349391 0.1708622 0.016458329 0.0097870193 7.071068e-011 7.071068e-011 7.071068e-011 7.071068e-011
7054054054.0541 0.16743471 -0.0033465526 -0.014667097 0.012058022 7.071068e-011 7.071068e-011 7.071068e-011 7.071068e-011
7062462462.4625 -0.0082910294 -0.0037448176 -0.0068533709 -0.018469239 7.071068e-011 7.071068e-011 7.071068e-011 7.071068e-011
7070870870.8709 0.078545712 0.14042145 0.019771928 -0.0012150299 7.071068e-011 7.071068e-011 7.071068e-011 7.071068e-011
7079279279.2793 0.16827238 0.0071076709 -0.0055313981 0.018803574 7.071068e-011 7.071068e-011 7.071068e-011 7.071068e-011
7087687687.6877 0.032343265 -0.026810827 -0.016659105 -0.011472567 7.071068e-011 7.071068e-011 7.071068e-011 7.071068e-011
7096096096.0961 0.059712075 0.089354925 0.015933497 -0.012498976 7.071068e-011 7.071068e-011 7.071068e-011 7.071068e-011
7104504504.5045 0.14777507 0.010194476 0.0065527228 0.019134929 7.071068e-011 7.071068e-011 7.071068e-011 7.071068e-011
7112912912.9129 0.050702836 -0.044581525 -0.020646293 -0.00010599508 7.071068e-011 7.071068e-011 7.071068e-011 7.071068e-011
7121321321.3213 0.034490909 0.032004397 0.0062884972 -0.01984998 7.071068e-011 7.071068e-011 7.071068e-011 7.071068e-011
7129729729.7297 0.089362524 0.014363232 0.016461933 0.012063475 7.071068e-011 7.071068e-011 7.071068e-011 7.071068e-011
7138138138.1381 0.04330368 -0.037816256 -0.017178046 0.011719082 7.071068e-011 7.071068e-011 7.071068e-011 7.071068e-011
7146546546.5465 -0.00050753064 0.013718307 -0.0058713881 -0.020118058 7.071068e-011 7.071068e-011 7.071068e-011 7.071068e-011
7154954954.955 0.030738777 0.041289065 0.0208099 0.00083453103 7.071068e-011 7.071068e-011 7.071068e-011 7.071068e-011
7163363363.3634 0.044906348 0.015674384 -0.0076441537 0.019111352 7.071068e-011 7.071068e-011 7.071068e-011 7.071068e-011
7171771771.7718 0.0011370615 0.020322638 -0.015765972 -0.013463764 7.071068e-011 7.071068e-011 7.071068e-011 7.071068e-011
7180180180.1802 0.018529518 0.072569549 0.017613979 -0.010411971 7.071068e-011 7.071068e-011 7.071068e-011 7.071068e-011
7188588588.5886 0.067791961 0.056059636 0.0039040465 0.02044978 7.071068e-011 7.071068e-011 7.071068e-011 7.071068e-011
7196996996.997 0.039769452 0.010129436 -0.020614387 -0.0027175085 7.071068e-011 7.071068e-011 7.071068e-011 7.071068e-011
7205405405.4054 0.012350215 0.067218155 0.0095295329 -0.018010337 7.071068e-011 7.071068e-011 7.071068e-011 7.071068e-011
7213813813.8138 0.083279587 0.067148998 0.013865879 0.015178468 7.071068e-011 7.071068e-011 7.071068e-011 7.071068e-011
7222222222.2222 0.06610316 -0.005525589 -0.018984659 0.0082438122 7.071068e-011 7.071068e-011 7.071068e-011 7.071068e-011
7230630630.6306 -0.0013025542 0.035256255 -0.0014593604 -0.020496204 7.071068e-011 7.071068e-011 7.071068e-011 7.071068e-011
7239039039.039 0.071638644 0.075538747 0.019964172 0.0058281189 7.071068e-011 7.071068e-011 7.071068e-011 7.071068e-011
7247447447.4474 0.075162694 -0.014888525 -0.011998617 0.016994972 7.071068e-011 7.071068e-011 7.071068e-011 7.071068e-011
7255855855.8559 -0.016648296 0.0074696969 -0.011618476 -0.017010909 7.071068e-011 7.071068e-011 7.071068e-011 7.071068e-011
7264264264.2643 0.035016377 0.084055297 0.02011957 -0.0053735538 7.071068e-011 7.071068e-011 7.071068e-011 7.071068e-011
7272672672.6727 0.074318022 0.00052646396 -0.0014967358 0.02054438 7.071068e-011 7.071068e-011 7.071068e-011 7.071068e-011
7281081081.0811 -0.029945785 0.00091323734 -0.018738441 -0.0084338868 7.071068e-011 7.071068e-011 7.071068e-011 7.071068e-011
7289489489.4895 0.00011417576 0.10764238 0.014685076 -0.014637799 7.071068e-011 7.071068e-011 7.071068e-011 7.071068e-011
7297897897.8979 0.084960766 0.050517593 0.0088251969 0.018821714 7.071068e-011 7.071068e-011 7.071068e-011 7.071068e-011
7306306306.3063 0.00094493694 0.0089261495 -0.020582603 0.0016034569 7.071068e-011 7.071068e-011 7.071068e-011 7.071068e-011
7314714714.7147 0.0042033596 0.11288797 0.0053760614 -0.020303007 7.071068e-011 7.071068e-011 7.071068e-011 7.071068e-011
7323123123.1231 0.1127163 0.075235337 0.017022416 0.011716314 7.071068e-011 7.071068e-011 7.071068e-011 7.071068e-011
7331531531.5315 0.05108111 -0.011815779 -0.01731915 0.01173468 7.071068e-011 7.071068e-011 7.071068e-011 7.071068e-011
7339939939.9399 0.0079904124 0.068780757 -0.0053451392 -0.020550059 7.071068e-011 7.071068e-011 7.071068e-011 7.071068e-011
7348348348.3483 0.10556304 0.063567691 0.020927818 0.0019011949 7.071068e-011 7.071068e-011 7.071068e-011 7.071068e-011
7356756756.7568 0.066032246 -0.037012171 -0.00918015 0.018802449 7.071068e-011 7.071068e-011 7.071068e-011 7.071068e-011
7365165165.1652 -0.010209501 0.020999696 -0.014764342 -0.015178078 7.071068e-011 7.071068e-011 7.071068e-011 7.071068e-011
7373573573.5736 0.061648857 0.049773019 0.019004276 -0.0085901748 7.071068e-011 7.071068e-011 7.071068e-011 7.071068e-011
7381981981.982 0.04386713 -0.035449218 0.0010952317 0.021122975 7.071068e-011 7.071068e-011 7.071068e-011 7.071068e-011
7390390390.3904 -0.043114189 0.0097831022 -0.020344667 -0.0061350283 7.071068e-011 7.071068e-011 7.071068e-011 7.071068e-011
7398798798.7988 0.013086896 0.07119789 0.012871804 -0.016719535 7.071068e-011 7.071068e-011 7.071068e-011 7.071068e-011
7407207207.2072 0.027866229 0.0097539267 0.01121537 0.017970664 7.071068e-011 7.071068e-011 7.071068e-011 7.071068e-011
7415615615.6156 -0.040983468 0.035439622 -0.020870056 0.0044188751 7.071068e-011 7.071068e-011 7.071068e-011 7.071068e-011
7424024024.024 0.0068477276 0.10502534 0.0030305486 -0.021046204 7.071068e-011 7.071068e-011 7.071068e-011 7.071068e-011
7432432432.4324 0.054689918 0.054063238 0.01869303 0.010392955 7.071068e-011 7.071068e-011 7.071068e-011 7.071068e-011
7440840840.8408 0.0097437371 0.042386759 -0.016120719 0.014079391 7.071068e-011 7.071068e-011 7.071068e-011 7.071068e-011
7449249249.2492 0.030308679 0.087152734 -0.0073561864 -0.019862993 7.071068e-011 7.071068e-011 7.071068e-011 7.071068e-011
7457657657.6577 0.077960402 0.048927929 0.021259904 0.00014089575 7.071068e-011 7.071068e-011 7.071068e-011 7.071068e-011
7466066066.0661 0.041704886 0.014088809 -0.007493556 0.019949608 7.071068e-011 7.071068e-011 7.071068e-011 7.071068e-011
7474474474.4745 0.030530145 0.03936065 -0.01596074 -0.013811104 7.071068e-011 7.071068e-011 7.071068e-011 7.071068e-011
7482882882.8829 0.059900574 0.029079782 0.018618876 -0.0098261274 7.071068e-011 7.071068e-011 7.071068e-011 7.071068e-011
7491291291.2913 0.038883649 -0.013393019 0.0026718287 0.020926787 7.071068e-011 7.071068e-011 7.071068e-011 7.071068e-011
7499699699.6997 -0.0033447933 0.00243925 -0.020369431 -0.0048959879 7.071068e-011 7.071068e-011 7.071068e-011 7.071068e-011
7508108108.1081 0.0033352515 0.031948633 0.011728439 -0.017333912 7.071068e-011 7.071068e-011 7.071068e-011 7.071068e-011
7516516516.5165 0.019383717 0.011899477 0.012013261 0.016976461 7.071068e-011 7.071068e-011 7.071068e-011 7.071068e-011
7524924924.9249 -0.026442012 0.0066205729 -0.020023227 0.0051001371 7.071068e-011 7.071068e-011 7.071068e-011 7.071068e-011
7533333333.3333 -0.029773863 0.066016667 0.0025176578 -0.020501984 7.071068e-011 7.071068e-011 7.071068e-011 7.071068e-011
7541741741.7417 0.027861252 0.068832427 0.018261846 0.0094666732 7.071068e-011 7.071068e-011 7.071068e-011 7.071068e-011
7550150150.1502 0.012954873 0.020579793 -0.015200888 0.013236698 7.071068e-011 7.071068e-011 7.071068e-011 7.071068e-011
7558558558.5586 -0.015321 0.068511799 -0.0068684812 -0.019030469 7.071068e-011 7.071068e-011 7.071068e-011 7.071068e-011
7566966966.967 0.055667069 0.078073852 0.019999275 0.00046929001 7.071068e-011 7.071068e-011 7.071068e-011 7.071068e-011
7575375375.3754 0.053514741 0.00092667405 -0.007898408 0.018465601 7.071068e-011 7.071068e-011 7.071068e-011 7.071068e-011
7583783783.7838 -0.011886488 0.024095256 -0.01440703 -0.014069542 7.071068e-011 7.071068e-011 7.071068e-011 7.071068e-011
7592192192.1922 0.045559652 0.060615011 0.018000951 -0.0083256103 7.071068e-011 7.071068e-011 7.071068e-011 7.071068e-011
7600600600.6006 0.051729102 -0.024385499 0.00088503963 0.01948164 7.071068e-011 7.071068e-011 7.071068e-011 7.071068e-011
7609009009.009 -0.037995789 -0.010726595 -0.018882049 -0.0065274932 7.071068e-011 7.071068e-011 7.071068e-011 7.071068e-011
7617417417.4174 -0.0051077846 0.058135573 0.012613854 -0.015325161 7.071068e-011 7.071068e-011 7.071068e-011 7.071068e-011
7625825825.8258 0.026387418 -0.0041507659 0.0094367666 0.017392172 7.071068e-011 7.071068e-011 7.071068e-011 7.071068e-011
7634234234.2342 -0.060689121 0.0040218197 -0.01954576 0.0024554804 7.071068e-011 7.071068e-011 7.071068e-011 7.071068e-011
7642642642.6426 -0.026546864 0.091681503 0.0049773976 -0.018902045 7.071068e-011 7.071068e-011 7.071068e-011 7.071068e-011
7651051051.0511 0.037543532 0.042427808 0.01575603 0.011693087 7.071068e-011 7.071068e-011 7.071068e-011 7.071068e-011
7659459459.4595 -0.029876972 0.018154133 -0.016772334 0.010668605 7.071068e-011 7.071068e-011 7.071068e-011 7.071068e-011
7667867867.8679 -0.011522416 0.10248727 -0.0039038553 -0.019117394 7.071068e-011 7.071068e-011 7.071068e-011 7.071068e-011
7676276276.2763 0.073858805 0.058973491 0.019096881 0.0039513418 7.071068e-011 7.071068e-011 7.071068e-011 7.071068e-011
7684684684.6847 0.02136966 -0.0039110025 -0.010765639 0.016622232 7.071068e-011 7.071068e-011 7.071068e-011 7.071068e-011
7693093093.0931 0.0006738879 0.054433137 -0.01148933 -0.015960045 7.071068e-011 7.071068e-011 7.071068e-011 7.071068e-011
7701501501.5015 0.071104012 0.032568395 0.019023234 -0.004845209 7.071068e-011 7.071068e-011 7.071068e-011 7.071068e-011
7709909909.9099 0.023308709 -0.042514026 -0.0025996803 0.019514581 7.071068e-011 7.071068e-011 7.071068e-011 7.071068e-011
7718318318.3183 -0.033178966 0.01090656 -0.017222784 -0.0095835365 7.071068e-011 7.071068e-011 7.071068e-011 7.071068e-011
7726726726.7267 0.024458982 0.027794294 0.01543844 -0.012251089 7.071068e-011 7.071068e-011 7.071068e-011 7.071068e-011
7735135135.1351 0.0028303158 -0.041309875 0.0059505012 0.018953623 7.071068e-011 7.071068e-011 7.071068e-011 7.071068e-011
7743543543.5435 -0.075008772 -0.00019948086 -0.019536469 -0.0014459882 7.071068e-011 7.071068e-011 7.071068e-011 7.071068e-011
7751951951.952 -0.030379495 0.064317659 0.0087124761 -0.017697481 7.071068e-011 7.071068e-011 7.071068e-011 7.071068e-011
7760360360.3604 -0.0026199773 0.017437313 0.013266215 0.014653233 7.071068e-011 7.071068e-011 7.071068e-011 7.071068e-011
7768768768.7688 -0.058346782 0.028425345 -0.018584421 0.006884072 7.071068e-011 7.071068e-011 7.071068e-011 7.071068e-011
7777177177.1772 -0.027253328 0.095584206 0.00057267048 -0.019723669 7.071068e-011 7.071068e-011 7.071068e-011 7.071068e-011
7785585585.5856 0.033870447 0.058004171 0.018139053 0.0078045703 7.071068e-011 7.071068e-011 7.071068e-011 7.071068e-011
7793993993.994 -0.0055993167 0.027788062 -0.01389908 0.013708267 7.071068e-011 7.071068e-011 7.071068e-011 7.071068e-011
7802402402.4024 -0.00045677173 0.074928619 -0.0075950511 -0.01836882 7.071068e-011 7.071068e-011 7.071068e-011 7.071068e-011
7810810810.8108 0.058014389 0.048924994 0.019779608 -0.00046840677 7.071068e-011 7.071068e-011 7.071068e-011 7.071068e-011
7819219219.2192 0.026032221 -0.0064299125 -0.0071268226 0.018346844 7.071068e-011 7.071068e-011 7.071068e-011 7.071068e-011
7827627627.6276 -0.0036571841 0.026845595 -0.014423953 -0.013447874 7.071068e-011 7.071068e-011 7.071068e-011 7.071068e-011
7836036036.036 0.037526686 0.025794128 0.017842172 -0.0083613833 7.071068e-011 7.071068e-011 7.071068e-011 7.071068e-011
7844444444.4444 0.016542099 -0.023795649 0.001135568 0.019722164 7.071068e-011 7.071068e-011 7.071068e-011 7.071068e-011
7852852852.8529 -0.028298868 0.0030227285 -0.018804017 -0.0063385209 7.071068e-011 7.071068e-011 7.071068e-011 7.071068e-011
7861261261.2613 0.0017208098 0.029522814 0.012761032 -0.015061898 7.071068e-011 7.071068e-011 7.071068e-011 7.071068e-011
7869669669.6697 0.0054798094 -0.0092514986 0.0090317503 0.017553668 7.071068e-011 7.071068e-011 7.071068e-011 7.071068e-011
7878078078.0781 -0.040400412 0.0034003647 -0.019810362 0.001981054 7.071068e-011 7.071068e-011 7.071068e-011 7.071068e-011
7886486486.4865 -0.024426304 0.046935946 0.0053691035 -0.019026885 7.071068e-011 7.071068e-011 7.071068e-011 7.071068e-011
7894894894.8949 0.010926222 0.030294126 0.015420416 0.011976178 7.071068e-011 7.071068e-011 7.071068e-011 7.071068e-011
7903303303.3033 -0.013522539 0.011080473 -0.017083993 0.0097106341 7.071068e-011 7.071068e-011 7.071068e-011 7.071068e-011
7911711711.7117 -0.017856572 0.043966074 -0.0027839944 -0.019486228 7.071068e-011 7.071068e-011 7.071068e-011 7.071068e-011
7920120120.1201 0.023105444 0.044897318 0.018904092 0.004708963 7.071068e-011 7.071068e-011 7.071068e-011 7.071068e-011
7928528528.5285 0.023607824 0.0019548277 -0.011444046 0.015739677 7.071068e-011 7.071068e-011 7.071068e-011 7.071068e-011
7936936936.9369 -0.0099617168 0.011186099 -0.010172126 -0.01637964 7.071068e-011 7.071068e-011 7.071068e-011 7.071068e-011
7945345345.3453 0.017835638 0.032126237 0.019022778 -0.0031027591 7.071068e-011 7.071068e-011 7.071068e-011 7.071068e-011
