!Keysight Technologies,N5235B,MY61252044,A.15.00.15
!Date: Saturday, January 21, 2023 00:03:13
!Correction: S11(Off) 
!S21(Off) 
!S12(Off) 
!S22(Off) 
!S2P File: Measurements: S11, S21, S12, S22:
# Hz S  RI   R 50
6600000000 0.019082718 -0.17543061 0.015446351 -0.0030345859 7.071068e-011 7.071068e-011 7.071068e-011 7.071068e-011
6608408408.4084 -0.12502107 0.16502027 0.0052897418 0.010835959 7.071068e-011 7.071068e-011 7.071068e-011 7.071068e-011
6616816816.8168 0.30564237 0.093397863 -0.0089128697 0.003676346 7.071068e-011 7.071068e-011 7.071068e-011 7.071068e-011
6625225225.2252 0.025448266 -0.27296159 -0.0017643663 -0.0093066087 7.071068e-011 7.071068e-011 7.071068e-011 7.071068e-011
6633633633.6336 -0.16613157 0.16066757 0.0093379859 -0.00037280872 7.071068e-011 7.071068e-011 7.071068e-011 7.071068e-011
6642042042.042 0.2894437 0.1138331 -0.0018726677 0.0093160439 7.071068e-011 7.071068e-011 7.071068e-011 7.071068e-011
6650450450.4505 0.039908227 -0.25197497 -0.010717474 -0.0041118721 7.071068e-011 7.071068e-011 7.071068e-011 7.071068e-011
6658858858.8589 -0.14868492 0.13371839 0.0059977071 -0.01148614 7.071068e-011 7.071068e-011 7.071068e-011 7.071068e-011
6667267267.2673 0.22808355 0.10172405 0.012188004 0.0091883251 7.071068e-011 7.071068e-011 7.071068e-011 7.071068e-011
6675675675.6757 0.043389007 -0.15097478 -0.011559485 0.013805356 7.071068e-011 7.071068e-011 7.071068e-011 7.071068e-011
6684084084.0841 -0.044471696 0.083771981 -0.014573932 -0.013375991 7.071068e-011 7.071068e-011 7.071068e-011 7.071068e-011
6692492492.4925 0.1055667 0.047605012 0.01483928 -0.014893975 7.071068e-011 7.071068e-011 7.071068e-011 7.071068e-011
6700900900.9009 0.086004071 0.018495448 0.014736373 0.015433298 7.071068e-011 7.071068e-011 7.071068e-011 7.071068e-011
6709309309.3093 0.077467196 -0.041892573 -0.015573076 0.013074685 7.071068e-011 7.071068e-011 7.071068e-011 7.071068e-011
6717717717.7177 -0.03129768 0.034031246 -0.010111057 -0.016490681 7.071068e-011 7.071068e-011 7.071068e-011 7.071068e-011
6726126126.1261 0.15472159 0.11658289 0.016806949 -0.007051406 7.071068e-011 7.071068e-011 7.071068e-011 7.071068e-011
6734534534.5345 0.12911367 -0.14042072 0.0035245817 0.016231958 7.071068e-011 7.071068e-011 7.071068e-011 7.071068e-011
6742942942.9429 -0.10791694 0.026014935 -0.015904585 -0.00030711002 7.071068e-011 7.071068e-011 7.071068e-011 7.071068e-011
6751351351.3514 0.17091745 0.15293555 0.0036453039 -0.015357913 7.071068e-011 7.071068e-011 7.071068e-011 7.071068e-011
6759759759.7598 0.15126389 -0.17116198 0.013164436 0.0070922095 7.071068e-011 7.071068e-011 7.071068e-011 7.071068e-011
6768168168.1682 -0.14682528 -0.0062329546 -0.010873552 0.010384005 7.071068e-011 7.071068e-011 7.071068e-011 7.071068e-011
6776576576.5766 0.13333113 0.17919305 -0.0079731615 -0.01348523 7.071068e-011 7.071068e-011 7.071068e-011 7.071068e-011
6784984984.985 0.15174519 -0.14569378 0.014561513 -0.0039871484 7.071068e-011 7.071068e-011 7.071068e-011 7.071068e-011
6793393393.3934 -0.14722136 -0.0072982349 -0.00037969559 0.015516472 7.071068e-011 7.071068e-011 7.071068e-011 7.071068e-011
6801801801.8018 0.10080738 0.20280059 -0.015704704 -0.0043276395 7.071068e-011 7.071068e-011 7.071068e-011 7.071068e-011
6810210210.2102 0.17285828 -0.094357342 0.0087017706 -0.014410562 7.071068e-011 7.071068e-011 7.071068e-011 7.071068e-011
6818618618.6186 -0.1050401 -0.010951848 0.012112113 0.013258029 7.071068e-011 7.071068e-011 7.071068e-011 7.071068e-011
6827027027.027 0.087207891 0.18546882 -0.015973676 0.0091730803 7.071068e-011 7.071068e-011 7.071068e-011 7.071068e-011
6835435435.4354 0.1817036 -0.048265513 -0.0044418275 -0.017897502 7.071068e-011 7.071068e-011 7.071068e-011 7.071068e-011
6843843843.8438 -0.045128938 -0.028454486 0.020162616 0.00029259885 7.071068e-011 7.071068e-011 7.071068e-011 7.071068e-011
6852252252.2523 0.074294567 0.1291918 -0.0046229721 0.020283435 7.071068e-011 7.071068e-011 7.071068e-011 7.071068e-011
6860660660.6607 0.14520153 -0.019914912 -0.018577529 -0.0096414238 7.071068e-011 7.071068e-011 7.071068e-011 7.071068e-011
6869069069.0691 0.004394786 -0.027245343 0.014547762 -0.016050883 7.071068e-011 7.071068e-011 7.071068e-011 7.071068e-011
6877477477.4775 0.053800359 0.072444864 0.012640349 0.018109079 7.071068e-011 7.071068e-011 7.071068e-011 7.071068e-011
6885885885.8859 0.090345412 0.0070695127 -0.02045696 0.0076606339 7.071068e-011 7.071068e-011 7.071068e-011 7.071068e-011
6894294294.2943 0.04735497 -0.0010184412 -0.002259529 -0.022011578 7.071068e-011 7.071068e-011 7.071068e-011 7.071068e-011
6902702702.7027 0.038227454 0.019291481 0.021973204 0.0032862711 7.071068e-011 7.071068e-011 7.071068e-011 7.071068e-011
6911111111.1111 0.03090178 0.037615757 -0.0088170525 0.02018341 7.071068e-011 7.071068e-011 7.071068e-011 7.071068e-011
6919519519.5195 0.078231148 0.050066479 -0.016906297 -0.013651233 7.071068e-011 7.071068e-011 7.071068e-011 7.071068e-011
6927927927.9279 0.050933227 -0.012402948 0.017260451 -0.012734589 7.071068e-011 7.071068e-011 7.071068e-011 7.071068e-011
6936336336.3363 -0.0022771088 0.061986927 0.0072282138 0.019480936 7.071068e-011 7.071068e-011 7.071068e-011 7.071068e-011
6944744744.7447 0.11224727 0.089560032 -0.020827908 0.0011036934 7.071068e-011 7.071068e-011 7.071068e-011 7.071068e-011
6953153153.1532 0.084595174 -0.045452535 0.0045239427 -0.019973872 7.071068e-011 7.071068e-011 7.071068e-011 7.071068e-011
6961561561.5616 -0.028404435 0.054104559 0.017305307 0.009980998 7.071068e-011 7.071068e-011 7.071068e-011 7.071068e-011
6969969969.97 0.12436379 0.1061009 -0.014532706 0.013509896 7.071068e-011 7.071068e-011 7.071068e-011 7.071068e-011
6978378378.3784 0.10201839 -0.070619106 -0.0083443262 -0.017378168 7.071068e-011 7.071068e-011 7.071068e-011 7.071068e-011
6986786786.7868 -0.064071417 0.03233758 0.01872451 -0.0022417982 7.071068e-011 7.071068e-011 7.071068e-011 7.071068e-011
6995195195.1952 0.10261697 0.13406739 -0.0035894436 0.01889921 7.071068e-011 7.071068e-011 7.071068e-011 7.071068e-011
7003603603.6036 0.1092127 -0.05765146 -0.016577592 -0.0089358911 7.071068e-011 7.071068e-011 7.071068e-011 7.071068e-011
7012012012.012 -0.072608471 0.032075319 0.014138428 -0.012438738 7.071068e-011 7.071068e-011 7.071068e-011 7.071068e-011
7020420420.4204 0.087646954 0.16151664 0.007755517 0.017334482 7.071068e-011 7.071068e-011 7.071068e-011 7.071068e-011
7028828828.8288 0.13286962 -0.028720105 -0.018521132 0.001792275 7.071068e-011 7.071068e-011 7.071068e-011 7.071068e-011
7037237237.2372 -0.053834595 0.030312192 0.0044539184 -0.01862568 7.071068e-011 7.071068e-011 7.071068e-011 7.071068e-011
7045645645.6456 0.0896703 0.17090705 0.016421035 0.0098292008 7.071068e-011 7.071068e-011 7.071068e-011 7.071068e-011
7054054054.0541 0.16772467 -0.0027701631 -0.014693892 0.012010195 7.071068e-011 7.071068e-011 7.071068e-011 7.071068e-011
7062462462.4625 -0.0079060551 -0.0042832759 -0.0067954003 -0.018479232 7.071068e-011 7.071068e-011 7.071068e-011 7.071068e-011
7070870870.8709 0.077942535 0.14031981 0.01976618 -0.0011561273 7.071068e-011 7.071068e-011 7.071068e-011 7.071068e-011
7079279279.2793 0.16838539 0.0076390007 -0.0055828989 0.018776627 7.071068e-011 7.071068e-011 7.071068e-011 7.071068e-011
7087687687.6877 0.032744974 -0.02713196 -0.016616425 -0.011514366 7.071068e-011 7.071068e-011 7.071068e-011 7.071068e-011
7096096096.0961 0.059279658 0.089124531 0.015962685 -0.0124463 7.071068e-011 7.071068e-011 7.071068e-011 7.071068e-011
7104504504.5045 0.1477259 0.010608279 0.0064956988 0.019144149 7.071068e-011 7.071068e-011 7.071068e-011 7.071068e-011
7112912912.9129 0.051043626 -0.044701815 -0.02063204 -0.00016655147 7.071068e-011 7.071068e-011 7.071068e-011 7.071068e-011
7121321321.3213 0.034269925 0.031747915 0.0063437819 -0.019820338 7.071068e-011 7.071068e-011 7.071068e-011 7.071068e-011
7129729729.7297 0.089189827 0.014610306 0.016416704 0.012103975 7.071068e-011 7.071068e-011 7.071068e-011 7.071068e-011
7138138138.1381 0.043554667 -0.037754897 -0.017201353 0.011659566 7.071068e-011 7.071068e-011 7.071068e-011 7.071068e-011
7146546546.5465 -0.00053681951 0.013487592 -0.0058085048 -0.020122632 7.071068e-011 7.071068e-011 7.071068e-011 7.071068e-011
7154954954.955 0.030538639 0.04135146 0.020792624 0.00089582399 7.071068e-011 7.071068e-011 7.071068e-011 7.071068e-011
7163363363.3634 0.044998843 0.015856247 -0.0076957722 0.019075517 7.071068e-011 7.071068e-011 7.071068e-011 7.071068e-011
7171771771.7718 0.0012765799 0.020161705 -0.015716352 -0.013504295 7.071068e-011 7.071068e-011 7.071068e-011 7.071068e-011
7180180180.1802 0.018332874 0.072478704 0.01763623 -0.010354599 7.071068e-011 7.071068e-011 7.071068e-011 7.071068e-011
7188588588.5886 0.067739338 0.056275126 0.0038399398 0.020449147 7.071068e-011 7.071068e-011 7.071068e-011 7.071068e-011
7196996996.997 0.04002006 0.01010049 -0.020594632 -0.0027801036 7.071068e-011 7.071068e-011 7.071068e-011 7.071068e-011
7205405405.4054 0.012210869 0.066969156 0.009577821 -0.01797099 7.071068e-011 7.071068e-011 7.071068e-011 7.071068e-011
7213813813.8138 0.083085641 0.067355722 0.013811756 0.015211229 7.071068e-011 7.071068e-011 7.071068e-011 7.071068e-011
7222222222.2222 0.066376798 -0.0054258532 -0.018995969 0.008180459 7.071068e-011 7.071068e-011 7.071068e-011 7.071068e-011
7230630630.6306 -0.0013107988 0.034921527 -0.0013954549 -0.020487757 7.071068e-011 7.071068e-011 7.071068e-011 7.071068e-011
7239039039.039 0.071318291 0.075671606 0.019932743 0.0058854362 7.071068e-011 7.071068e-011 7.071068e-011 7.071068e-011
7247447447.4474 0.075415276 -0.014669047 -0.012044979 0.016948409 7.071068e-011 7.071068e-011 7.071068e-011 7.071068e-011
7255855855.8559 -0.016532036 0.0071210824 -0.011556746 -0.017035766 7.071068e-011 7.071068e-011 7.071068e-011 7.071068e-011
7264264264.2643 0.034622826 0.084064908 0.020121735 -0.0053089312 7.071068e-011 7.071068e-011 7.071068e-011 7.071068e-011
7272672672.6727 0.074485466 0.00087466865 -0.0015595197 0.020526459 7.071068e-011 7.071068e-011 7.071068e-011 7.071068e-011
7281081081.0811 -0.029684883 0.00060765172 -0.018700017 -0.0084865745 7.071068e-011 7.071068e-011 7.071068e-011 7.071068e-011
7289489489.4895 -0.00027803879 0.10749882 0.014719182 -0.01458261 7.071068e-011 7.071068e-011 7.071068e-011 7.071068e-011
7297897897.8979 0.084980525 0.050930757 0.0087599261 0.018839404 7.071068e-011 7.071068e-011 7.071068e-011 7.071068e-011
7306306306.3063 0.0013139348 0.0087402528 -0.020572605 0.0015360119 7.071068e-011 7.071068e-011 7.071068e-011 7.071068e-011
7314714714.7147 0.003889591 0.11260768 0.0054341252 -0.020273186 7.071068e-011 7.071068e-011 7.071068e-011 7.071068e-011
7323123123.1231 0.11258052 0.07561589 0.016975669 0.011764319 7.071068e-011 7.071068e-011 7.071068e-011 7.071068e-011
7331531531.5315 0.051483333 -0.01185637 -0.017344814 0.011672652 7.071068e-011 7.071068e-011 7.071068e-011 7.071068e-011
7339939939.9399 0.0077945716 0.068404958 -0.0052779946 -0.020554956 7.071068e-011 7.071068e-011 7.071068e-011 7.071068e-011
7348348348.3483 0.10529926 0.063865095 0.020910792 0.0019684581 7.071068e-011 7.071068e-011 7.071068e-011 7.071068e-011
7356756756.7568 0.066397026 -0.036911383 -0.0092371795 0.018761152 7.071068e-011 7.071068e-011 7.071068e-011 7.071068e-011
7365165165.1652 -0.010269509 0.020608459 -0.014708215 -0.015215877 7.071068e-011 7.071068e-011 7.071068e-011 7.071068e-011
7373573573.5736 0.061316334 0.049960118 0.019024311 -0.0085243639 7.071068e-011 7.071068e-011 7.071068e-011 7.071068e-011
7381981981.982 0.044140223 -0.035239123 0.0010265434 0.021114143 7.071068e-011 7.071068e-011 7.071068e-011 7.071068e-011
7390390390.3904 -0.043043774 0.0094473371 -0.020314794 -0.0061935955 7.071068e-011 7.071068e-011 7.071068e-011 7.071068e-011
7398798798.7988 0.012757183 0.071261421 0.012921043 -0.016666884 7.071068e-011 7.071068e-011 7.071068e-011 7.071068e-011
7407207207.2072 0.028043663 0.010000047 0.011150266 0.017997222 7.071068e-011 7.071068e-011 7.071068e-011 7.071068e-011
7415615615.6156 -0.040831357 0.035177417 -0.020874977 0.0043511684 7.071068e-011 7.071068e-011 7.071068e-011 7.071068e-011
7424024024.024 0.006569711 0.10497386 0.0030979174 -0.02102264 7.071068e-011 7.071068e-011 7.071068e-011 7.071068e-011
7432432432.4324 0.054757711 0.054301389 0.018648578 0.010446849 7.071068e-011 7.071068e-011 7.071068e-011 7.071068e-011
7440840840.8408 0.0099323941 0.042220943 -0.016153589 0.014019554 7.071068e-011 7.071068e-011 7.071068e-011 7.071068e-011
7449249249.2492 0.030115314 0.087023765 -0.0072856983 -0.019878142 7.071068e-011 7.071068e-011 7.071068e-011 7.071068e-011
7457657657.6577 0.077926509 0.049117591 0.021248253 0.0002086543 7.071068e-011 7.071068e-011 7.071068e-011 7.071068e-011
7466066066.0661 0.041884437 0.014030656 -0.0075531332 0.019914849 7.071068e-011 7.071068e-011 7.071068e-011 7.071068e-011
7474474474.4745 0.030428084 0.039196339 -0.015903562 -0.013857476 7.071068e-011 7.071068e-011 7.071068e-011 7.071068e-011
7482882882.8829 0.059768535 0.029194042 0.018639045 -0.0097599411 7.071068e-011 7.071068e-011 7.071068e-011 7.071068e-011
7491291291.2913 0.039023049 -0.013321618 0.0026019912 0.020924024 7.071068e-011 7.071068e-011 7.071068e-011 7.071068e-011
7499699699.6997 -0.0033167317 0.0022779102 -0.020341935 -0.0049622254 7.071068e-011 7.071068e-011 7.071068e-011 7.071068e-011
7508108108.1081 0.003157015 0.031940673 0.011778554 -0.017285306 7.071068e-011 7.071068e-011 7.071068e-011 7.071068e-011
7516516516.5165 0.019423189 0.012073121 0.011951094 0.01700742 7.071068e-011 7.071068e-011 7.071068e-011 7.071068e-011
7524924924.9249 -0.026275301 0.0065098181 -0.020030554 0.0050290599 7.071068e-011 7.071068e-011 7.071068e-011 7.071068e-011
7533333333.3333 -0.029933153 0.065870881 0.0025832204 -0.020481773 7.071068e-011 7.071068e-011 7.071068e-011 7.071068e-011
7541741741.7417 0.02776585 0.069031723 0.018222203 0.0095211994 7.071068e-011 7.071068e-011 7.071068e-011 7.071068e-011
7550150150.1502 0.013211913 0.020583037 -0.01523668 0.013176761 7.071068e-011 7.071068e-011 7.071068e-011 7.071068e-011
7558558558.5586 -0.01540918 0.068246111 -0.0068032136 -0.019042235 7.071068e-011 7.071068e-011 7.071068e-011 7.071068e-011
7566966966.967 0.055451531 0.078235537 0.01998638 0.00053343159 7.071068e-011 7.071068e-011 7.071068e-011 7.071068e-011
7575375375.3754 0.053768124 0.0010500752 -0.0079577854 0.018425265 7.071068e-011 7.071068e-011 7.071068e-011 7.071068e-011
7583783783.7838 -0.011863938 0.023770347 -0.014352781 -0.014107161 7.071068e-011 7.071068e-011 7.071068e-011 7.071068e-011
7592192192.1922 0.045246139 0.06070742 0.018015414 -0.0082617756 7.071068e-011 7.071068e-011 7.071068e-011 7.071068e-011
7600600600.6006 0.051941242 -0.024160357 0.00081694557 0.019472115 7.071068e-011 7.071068e-011 7.071068e-011 7.071068e-011
7609009009.009 -0.03787135 -0.011044388 -0.018849697 -0.0065849205 7.071068e-011 7.071068e-011 7.071068e-011 7.071068e-011
7617417417.4174 -0.0054547745 0.058134284 0.012656885 -0.015273523 7.071068e-011 7.071068e-011 7.071068e-011 7.071068e-011
7625825825.8258 0.026538137 -0.0038419149 0.0093711782 0.017412918 7.071068e-011 7.071068e-011 7.071068e-011 7.071068e-011
7634234234.2342 -0.060458254 0.0037342545 -0.01953982 0.0023902874 7.071068e-011 7.071068e-011 7.071068e-011 7.071068e-011
7642642642.6426 -0.02688475 0.091571197 0.0050372467 -0.018872658 7.071068e-011 7.071068e-011 7.071068e-011 7.071068e-011
7651051051.0511 0.03758603 0.042766351 0.015705371 0.011741134 7.071068e-011 7.071068e-011 7.071068e-011 7.071068e-011
7659459459.4595 -0.029564751 0.017957188 -0.016797308 0.010607298 7.071068e-011 7.071068e-011 7.071068e-011 7.071068e-011
7667867867.8679 -0.01181011 0.10226472 -0.0038372877 -0.019117681 7.071068e-011 7.071068e-011 7.071068e-011 7.071068e-011
7676276276.2763 0.073773287 0.059294712 0.019069701 0.0040133186 7.071068e-011 7.071068e-011 7.071068e-011 7.071068e-011
7684684684.6847 0.021702329 -0.0039867009 -0.010811929 0.016573999 7.071068e-011 7.071068e-011 7.071068e-011 7.071068e-011
7693093093.0931 0.00048723075 0.054134663 -0.011427538 -0.015988685 7.071068e-011 7.071068e-011 7.071068e-011 7.071068e-011
7701501501.5015 0.070911199 0.03282452 0.019025885 -0.0047781211 7.071068e-011 7.071068e-011 7.071068e-011 7.071068e-011
7709909909.9099 0.023619989 -0.042470884 -0.0026615453 0.019494032 7.071068e-011 7.071068e-011 7.071068e-011 7.071068e-011
7718318318.3183 -0.033257421 0.010576794 -0.01717912 -0.0096352212 7.071068e-011 7.071068e-011 7.071068e-011 7.071068e-011
7726726726.7267 0.024188139 0.027970044 0.015471292 -0.012188323 7.071068e-011 7.071068e-011 7.071068e-011 7.071068e-011
7735135135.1351 0.0030893662 -0.041131675 0.0058822059 0.018962154 7.071068e-011 7.071068e-011 7.071068e-011 7.071068e-011
7743543543.5435 -0.07492391 -0.00051296497 -0.019517476 -0.0015079009 7.071068e-011 7.071068e-011 7.071068e-011 7.071068e-011
7751951951.952 -0.03068966 0.064343505 0.0087691629 -0.017655265 7.071068e-011 7.071068e-011 7.071068e-011 7.071068e-011
7760360360.3604 -0.0024772314 0.017694809 0.013206007 0.014687957 7.071068e-011 7.071068e-011 7.071068e-011 7.071068e-011
7768768768.7688 -0.058147334 0.028200815 -0.018596113 0.0068188193 7.071068e-011 7.071068e-011 7.071068e-011 7.071068e-011
7777177177.1772 -0.027510844 0.095469393 0.0006421482 -0.019708302 7.071068e-011 7.071068e-011 7.071068e-011 7.071068e-011
7785585585.5856 0.033885688 0.05826515 0.01809885 0.0078607369 7.071068e-011 7.071068e-011 7.071068e-011 7.071068e-011
7793993993.994 -0.0053584906 0.027661609 -0.013936676 0.013651388 7.071068e-011 7.071068e-011 7.071068e-011 7.071068e-011
7802402402.4024 -0.00063851598 0.074725568 -0.0075241239 -0.018385893 7.071068e-011 7.071068e-011 7.071068e-011 7.071068e-011
7810810810.8108 0.057906337 0.049134888 0.019765753 -0.00039933456 7.071068e-011 7.071068e-011 7.071068e-011 7.071068e-011
7819219219.2192 0.026277931 -0.0064429883 -0.0071838042 0.018308291 7.071068e-011 7.071068e-011 7.071068e-011 7.071068e-011
7827627627.6276 -0.0037427491 0.026600724 -0.014364389 -0.013490684 7.071068e-011 7.071068e-011 7.071068e-011 7.071068e-011
7836036036.036 0.037348416 0.025928564 0.017860901 -0.0082943738 7.071068e-011 7.071068e-011 7.071068e-011 7.071068e-011
7844444444.4444 0.016734816 -0.023710428 0.0010684113 0.019713031 7.071068e-011 7.071068e-011 7.071068e-011 7.071068e-011
7852852852.8529 -0.028284473 0.0027933447 -0.018768102 -0.0064007188 7.071068e-011 7.071068e-011 7.071068e-011 7.071068e-011
7861261261.2613 0.0015138757 0.02957055 0.01280627 -0.015008288 7.071068e-011 7.071068e-011 7.071068e-011 7.071068e-011
7869669669.6697 0.0056006084 -0.0090844762 0.0089647416 0.017574202 7.071068e-011 7.071068e-011 7.071068e-011 7.071068e-011
7878078078.0781 -0.040279273 0.0032245878 -0.019805865 0.0019084279 7.071068e-011 7.071068e-011 7.071068e-011 7.071068e-011
7886486486.4865 -0.024609802 0.046857063 0.0054311962 -0.018996598 7.071068e-011 7.071068e-011 7.071068e-011 7.071068e-011
7894894894.8949 0.010915978 0.030479366 0.015369633 0.01202467 7.071068e-011 7.071068e-011 7.071068e-011 7.071068e-011
7903303303.3033 -0.013334712 0.011024238 -0.017108936 0.0096428944 7.071068e-011 7.071068e-011 7.071068e-011 7.071068e-011
7911711711.7117 -0.017938338 0.043789778 -0.0027143131 -0.019486086 7.071068e-011 7.071068e-011 7.071068e-011 7.071068e-011
7920120120.1201 0.02297749 0.045011207 0.018875664 0.0047728326 7.071068e-011 7.071068e-011 7.071068e-011 7.071068e-011
7928528528.5285 0.023779297 0.002027669 -0.011495586 0.015686866 7.071068e-011 7.071068e-011 7.071068e-011 7.071068e-011
7936936936.9369 -0.0099262558 0.010971335 -0.01010671 -0.016407495 7.071068e-011 7.071068e-011 7.071068e-011 7.071068e-011
7945345345.3453 0.017619647 0.032142814 0.019024285 -0.0030328531 7.071068e-011 7.071068e-011 7.071068e-011 7.071068e-011
