!Keysight Technologies,N5235B,MY61252044,A.15.00.15
!Date: Friday, January 20, 2023 23:35:05
!Correction: S11(Off) 
!S21(Off) 
!S12(Off) 
!S22(Off) 
!S2P File: Measurements: S11, S21, S12, S22:
# Hz S  RI   R 50
6600000000 0.018677043 -0.1752736 0.015458147 -0.0030308238 7.071068e-011 7.071068e-011 7.071068e-011 7.071068e-011
6608408408.4084 -0.12466276 0.16544028 0.005294201 0.010841493 7.071068e-011 7.071068e-011 7.071068e-011 7.071068e-011
6616816816.8168 0.30590451 0.092860416 -0.0089163752 0.0036803666 7.071068e-011 7.071068e-011 7.071068e-011 7.071068e-011
6625225225.2252 0.024818741 -0.27296516 -0.0017696866 -0.0093081184 7.071068e-011 7.071068e-011 7.071068e-011 7.071068e-011
6633633633.6336 -0.16581216 0.16123408 0.0093385717 -0.00037610365 7.071068e-011 7.071068e-011 7.071068e-011 7.071068e-011
6642042042.042 0.28978163 0.11332294 -0.0018675503 0.0093176924 7.071068e-011 7.071068e-011 7.071068e-011 7.071068e-011
6650450450.4505 0.039331485 -0.25203711 -0.010720709 -0.0041077011 7.071068e-011 7.071068e-011 7.071068e-011 7.071068e-011
6658858858.8589 -0.1484724 0.13421986 0.005994339 -0.011487686 7.071068e-011 7.071068e-011 7.071068e-011 7.071068e-011
6667267267.2673 0.22839801 0.101374 0.01219075 0.0091853458 7.071068e-011 7.071068e-011 7.071068e-011 7.071068e-011
6675675675.6757 0.043019444 -0.15105779 -0.011555904 0.013810098 7.071068e-011 7.071068e-011 7.071068e-011 7.071068e-011
6684084084.0841 -0.044408381 0.084059417 -0.014580283 -0.013372431 7.071068e-011 7.071068e-011 7.071068e-011 7.071068e-011
6692492492.4925 0.10574772 0.047515925 0.014842342 -0.014897638 7.071068e-011 7.071068e-011 7.071068e-011 7.071068e-011
6700900900.9009 0.085970305 0.018378705 0.014745942 0.015434588 7.071068e-011 7.071068e-011 7.071068e-011 7.071068e-011
6709309309.3093 0.077305898 -0.041867089 -0.015572484 0.013086205 7.071068e-011 7.071068e-011 7.071068e-011 7.071068e-011
6717717717.7177 -0.031204894 0.034255452 -0.01011738 -0.016494952 7.071068e-011 7.071068e-011 7.071068e-011 7.071068e-011
6726126126.1261 0.15496022 0.11638539 0.016810538 -0.0070647709 7.071068e-011 7.071068e-011 7.071068e-011 7.071068e-011
6734534534.5345 0.12879069 -0.14056711 0.0035341613 0.016237237 7.071068e-011 7.071068e-011 7.071068e-011 7.071068e-011
6742942942.9429 -0.10788514 0.026427748 -0.015911404 -0.00030047726 7.071068e-011 7.071068e-011 7.071068e-011 7.071068e-011
6751351351.3514 0.17129894 0.15271503 0.0036371292 -0.015365676 7.071068e-011 7.071068e-011 7.071068e-011 7.071068e-011
6759759759.7598 0.15089071 -0.17140551 0.013172408 0.0070868372 7.071068e-011 7.071068e-011 7.071068e-011 7.071068e-011
6768168168.1682 -0.14687827 -0.0057638115 -0.010871159 0.010394619 7.071068e-011 7.071068e-011 7.071068e-011 7.071068e-011
6776576576.5766 0.1337783 0.17902784 -0.0079853628 -0.013483037 7.071068e-011 7.071068e-011 7.071068e-011 7.071068e-011
6784984984.985 0.15141243 -0.1460086 0.014563924 -0.0039958819 7.071068e-011 7.071068e-011 7.071068e-011 7.071068e-011
6793393393.3934 -0.14734434 -0.0068542305 -0.00036900834 0.015521499 7.071068e-011 7.071068e-011 7.071068e-011 7.071068e-011
6801801801.8018 0.1012528 0.20273477 -0.015711231 -0.0043185628 7.071068e-011 7.071068e-011 7.071068e-011 7.071068e-011
6810210210.2102 0.17260994 -0.094697416 0.0086953249 -0.014418516 7.071068e-011 7.071068e-011 7.071068e-011 7.071068e-011
6818618618.6186 -0.10521255 -0.010580732 0.012123554 0.013253067 7.071068e-011 7.071068e-011 7.071068e-011 7.071068e-011
6827027027.027 0.087588005 0.18547277 -0.015970849 0.0091846464 7.071068e-011 7.071068e-011 7.071068e-011 7.071068e-011
6835435435.4354 0.18156898 -0.048565693 -0.004453761 -0.017900364 7.071068e-011 7.071068e-011 7.071068e-011 7.071068e-011
6843843843.8438 -0.045309018 -0.02820128 0.020168584 0.00027905157 7.071068e-011 7.071068e-011 7.071068e-011 7.071068e-011
6852252252.2523 0.074567765 0.12923464 -0.0046108104 0.020291194 7.071068e-011 7.071068e-011 7.071068e-011 7.071068e-011
6860660660.6607 0.14514032 -0.020125074 -0.018588608 -0.0096347388 7.071068e-011 7.071068e-011 7.071068e-011 7.071068e-011
6869069069.0691 0.0042566662 -0.027116071 0.01453993 -0.016066199 7.071068e-011 7.071068e-011 7.071068e-011 7.071068e-011
6877477477.4775 0.053942647 0.072512031 0.012653084 0.018107342 7.071068e-011 7.071068e-011 7.071068e-011 7.071068e-011
6885885885.8859 0.090364665 0.0069686035 -0.020458698 0.00767382 7.071068e-011 7.071068e-011 7.071068e-011 7.071068e-011
6894294294.2943 0.047294773 -0.0010118043 -0.0022756699 -0.022014985 7.071068e-011 7.071068e-011 7.071068e-011 7.071068e-011
6902702702.7027 0.038230978 0.019343542 0.021980789 0.0032735679 7.071068e-011 7.071068e-011 7.071068e-011 7.071068e-011
6911111111.1111 0.030968621 0.037645612 -0.0088066291 0.020194666 7.071068e-011 7.071068e-011 7.071068e-011 7.071068e-011
6919519519.5195 0.078265965 0.04998577 -0.016921356 -0.013642751 7.071068e-011 7.071068e-011 7.071068e-011 7.071068e-011
6927927927.9279 0.050821356 -0.012398068 0.017257294 -0.012748695 7.071068e-011 7.071068e-011 7.071068e-011 7.071068e-011
6936336336.3363 -0.002206417 0.062130231 0.0072433185 0.019482387 7.071068e-011 7.071068e-011 7.071068e-011 7.071068e-011
6944744744.7447 0.11237619 0.089434072 -0.020835079 0.0011194956 7.071068e-011 7.071068e-011 7.071068e-011 7.071068e-011
6953153153.1532 0.084409274 -0.045514233 0.0045124828 -0.019985698 7.071068e-011 7.071068e-011 7.071068e-011 7.071068e-011
6961561561.5616 -0.028353766 0.054340158 0.0173191 0.0099707637 7.071068e-011 7.071068e-011 7.071068e-011 7.071068e-011
6969969969.97 0.1245691 0.10596222 -0.01452605 0.013524757 7.071068e-011 7.071068e-011 7.071068e-011 7.071068e-011
6978378378.3784 0.10179637 -0.070748858 -0.0083578983 -0.017375078 7.071068e-011 7.071068e-011 7.071068e-011 7.071068e-011
6986786786.7868 -0.064075582 0.032629993 0.018729122 -0.0022556919 7.071068e-011 7.071068e-011 7.071068e-011 7.071068e-011
6995195195.1952 0.10288542 0.13396098 -0.0035772254 0.018908806 7.071068e-011 7.071068e-011 7.071068e-011 7.071068e-011
7003603603.6036 0.10899688 -0.057831168 -0.016588999 -0.0089252535 7.071068e-011 7.071068e-011 7.071068e-011 7.071068e-011
7012012012.012 -0.072662704 0.032379709 0.014132665 -0.012450951 7.071068e-011 7.071068e-011 7.071068e-011 7.071068e-011
7020420420.4204 0.087936848 0.16145134 0.0077694939 0.017333446 7.071068e-011 7.071068e-011 7.071068e-011 7.071068e-011
7028828828.8288 0.13268414 -0.02894091 -0.018524971 0.0018048614 7.071068e-011 7.071068e-011 7.071068e-011 7.071068e-011
7037237237.2372 -0.053940117 0.030599816 0.0044412576 -0.018633891 7.071068e-011 7.071068e-011 7.071068e-011 7.071068e-011
7045645645.6456 0.089958429 0.1709004 0.01643133 0.0098193772 7.071068e-011 7.071068e-011 7.071068e-011 7.071068e-011
7054054054.0541 0.1676192 -0.0030077617 -0.014687071 0.012024827 7.071068e-011 7.071068e-011 7.071068e-011 7.071068e-011
7062462462.4625 -0.0080652134 -0.0040595341 -0.006811454 -0.01847787 7.071068e-011 7.071068e-011 7.071068e-011 7.071068e-011
7070870870.8709 0.078198448 0.1403774 0.0197703 -0.001171397 7.071068e-011 7.071068e-011 7.071068e-011 7.071068e-011
7079279279.2793 0.16835861 0.0074242465 -0.00556979 0.0187859 7.071068e-011 7.071068e-011 7.071068e-011 7.071068e-011
7087687687.6877 0.032580823 -0.027002003 -0.016630046 -0.011503211 7.071068e-011 7.071068e-011 7.071068e-011 7.071068e-011
7096096096.0961 0.059470527 0.089232184 0.015955944 -0.0124585 7.071068e-011 7.071068e-011 7.071068e-011 7.071068e-011
7104504504.5045 0.14776424 0.010440398 0.0065126452 0.019140679 7.071068e-011 7.071068e-011 7.071068e-011 7.071068e-011
7112912912.9129 0.050908372 -0.044661298 -0.020637888 -0.00014795634 7.071068e-011 7.071068e-011 7.071068e-011 7.071068e-011
7121321321.3213 0.03436872 0.031861458 0.0063328785 -0.019830287 7.071068e-011 7.071068e-011 7.071068e-011 7.071068e-011
7129729729.7297 0.089267701 0.014511203 0.016430354 0.012092385 7.071068e-011 7.071068e-011 7.071068e-011 7.071068e-011
7138138138.1381 0.04345604 -0.037783761 -0.017195856 0.01167515 7.071068e-011 7.071068e-011 7.071068e-011 7.071068e-011
7146546546.5465 -0.00052654202 0.013589849 -0.0058237924 -0.020123718 7.071068e-011 7.071068e-011 7.071068e-011 7.071068e-011
7154954954.955 0.030624175 0.041325871 0.020798912 0.0008772217 7.071068e-011 7.071068e-011 7.071068e-011 7.071068e-011
7163363363.3634 0.044965431 0.01578572 -0.0076832203 0.019086638 7.071068e-011 7.071068e-011 7.071068e-011 7.071068e-011
7171771771.7718 0.0012184978 0.020230372 -0.01573058 -0.01349218 7.071068e-011 7.071068e-011 7.071068e-011 7.071068e-011
7180180180.1802 0.018420504 0.072524287 0.01763084 -0.010369657 7.071068e-011 7.071068e-011 7.071068e-011 7.071068e-011
7188588588.5886 0.067765467 0.056190684 0.0038566648 0.020449787 7.071068e-011 7.071068e-011 7.071068e-011 7.071068e-011
7196996996.997 0.039925002 0.010115537 -0.020602727 -0.0027641905 7.071068e-011 7.071068e-011 7.071068e-011 7.071068e-011
7205405405.4054 0.012267326 0.067082666 0.0095649911 -0.017984215 7.071068e-011 7.071068e-011 7.071068e-011 7.071068e-011
7213813813.8138 0.083180018 0.067271248 0.013826468 0.015205137 7.071068e-011 7.071068e-011 7.071068e-011 7.071068e-011
7222222222.2222 0.066267319 -0.0054595103 -0.018994454 0.0081989421 7.071068e-011 7.071068e-011 7.071068e-011 7.071068e-011
7230630630.6306 -0.0013074442 0.035057649 -0.0014151107 -0.020491663 7.071068e-011 7.071068e-011 7.071068e-011 7.071068e-011
7239039039.039 0.071458697 0.075625964 0.019940922 0.0058756722 7.071068e-011 7.071068e-011 7.071068e-011 7.071068e-011
7247447447.4474 0.07531032 -0.014758527 -0.012028016 0.016965156 7.071068e-011 7.071068e-011 7.071068e-011 7.071068e-011
7255855855.8559 -0.016576804 0.0072667482 -0.011574278 -0.017028421 7.071068e-011 7.071068e-011 7.071068e-011 7.071068e-011
7264264264.2643 0.034784626 0.084066972 0.020123418 -0.0053231204 7.071068e-011 7.071068e-011 7.071068e-011 7.071068e-011
7272672672.6727 0.074424997 0.00073174754 -0.0015381423 0.020532349 7.071068e-011 7.071068e-011 7.071068e-011 7.071068e-011
7281081081.0811 -0.029797189 0.00073567365 -0.018711045 -0.0084752152 7.071068e-011 7.071068e-011 7.071068e-011 7.071068e-011
7289489489.4895 -0.00011147215 0.10756525 0.014711943 -0.014598633 7.071068e-011 7.071068e-011 7.071068e-011 7.071068e-011
7297897897.8979 0.084978677 0.050766237 0.008782302 0.018834172 7.071068e-011 7.071068e-011 7.071068e-011 7.071068e-011
7306306306.3063 0.0011657006 0.0088163223 -0.020574277 0.0015546447 7.071068e-011 7.071068e-011 7.071068e-011 7.071068e-011
7314714714.7147 0.0040207752 0.11273263 0.0054196934 -0.02028138 7.071068e-011 7.071068e-011 7.071068e-011 7.071068e-011
7323123123.1231 0.11264448 0.075456545 0.016990755 0.01175149 7.071068e-011 7.071068e-011 7.071068e-011 7.071068e-011
7331531531.5315 0.051321801 -0.011838647 -0.017338134 0.011692001 7.071068e-011 7.071068e-011 7.071068e-011 7.071068e-011
7339939939.9399 0.0078767883 0.068563044 -0.0052945879 -0.020554986 7.071068e-011 7.071068e-011 7.071068e-011 7.071068e-011
7348348348.3483 0.10541733 0.063743256 0.02091627 0.0019491805 7.071068e-011 7.071068e-011 7.071068e-011 7.071068e-011
7356756756.7568 0.066249795 -0.036955398 -0.009219599 0.018774822 7.071068e-011 7.071068e-011 7.071068e-011 7.071068e-011
7365165165.1652 -0.010244874 0.020771485 -0.014721925 -0.015207834 7.071068e-011 7.071068e-011 7.071068e-011 7.071068e-011
7373573573.5736 0.061458699 0.0498836 0.019020161 -0.0085460385 7.071068e-011 7.071068e-011 7.071068e-011 7.071068e-011
7381981981.982 0.04403083 -0.035326533 0.0010454414 0.02111787 7.071068e-011 7.071068e-011 7.071068e-011 7.071068e-011
7390390390.3904 -0.043074895 0.009587707 -0.020324547 -0.0061793141 7.071068e-011 7.071068e-011 7.071068e-011 7.071068e-011
7398798798.7988 0.012897085 0.071237192 0.012908065 -0.016684167 7.071068e-011 7.071068e-011 7.071068e-011 7.071068e-011
7407207207.2072 0.027971882 0.0099009536 0.011169075 0.017992415 7.071068e-011 7.071068e-011 7.071068e-011 7.071068e-011
7415615615.6156 -0.040897824 0.035289198 -0.02087778 0.0043699495 7.071068e-011 7.071068e-011 7.071068e-011 7.071068e-011
7424024024.024 0.0066837482 0.10500025 0.0030779052 -0.021032156 7.071068e-011 7.071068e-011 7.071068e-011 7.071068e-011
7432432432.4324 0.054735828 0.054204777 0.018663391 0.010433519 7.071068e-011 7.071068e-011 7.071068e-011 7.071068e-011
7440840840.8408 0.0098528778 0.042292651 -0.016148861 0.014037812 7.071068e-011 7.071068e-011 7.071068e-011 7.071068e-011
7449249249.2492 0.030193869 0.08707574 -0.0073069874 -0.019875919 7.071068e-011 7.071068e-011 7.071068e-011 7.071068e-011
7457657657.6577 0.077946976 0.049040485 0.021251217 0.00019145374 7.071068e-011 7.071068e-011 7.071068e-011 7.071068e-011
7466066066.0661 0.041806798 0.014051694 -0.007537968 0.019925812 7.071068e-011 7.071068e-011 7.071068e-011 7.071068e-011
7474474474.4745 0.030475885 0.039264604 -0.01592382 -0.013844683 7.071068e-011 7.071068e-011 7.071068e-011 7.071068e-011
7482882882.8829 0.059823975 0.029148877 0.018637169 -0.0097785704 7.071068e-011 7.071068e-011 7.071068e-011 7.071068e-011
7491291291.2913 0.03896717 -0.01335407 0.0026222742 0.020927766 7.071068e-011 7.071068e-011 7.071068e-011 7.071068e-011
7499699699.6997 -0.0033277064 0.0023456407 -0.020352086 -0.0049433103 7.071068e-011 7.071068e-011 7.071068e-011 7.071068e-011
7508108108.1081 0.0032317182 0.031944815 0.011767614 -0.017300304 7.071068e-011 7.071068e-011 7.071068e-011 7.071068e-011
7516516516.5165 0.019407595 0.012002372 0.011970918 0.017001033 7.071068e-011 7.071068e-011 7.071068e-011 7.071068e-011
7524924924.9249 -0.026344325 0.0065524559 -0.020031417 0.0050515844 7.071068e-011 7.071068e-011 7.071068e-011 7.071068e-011
7533333333.3333 -0.029870737 0.065937988 0.0025676142 -0.020491421 7.071068e-011 7.071068e-011 7.071068e-011 7.071068e-011
7541741741.7417 0.027806172 0.068945549 0.018236008 0.0095057925 7.071068e-011 7.071068e-011 7.071068e-011 7.071068e-011
7550150150.1502 0.013109068 0.020586601 -0.015228665 0.013198231 7.071068e-011 7.071068e-011 7.071068e-011 7.071068e-011
7558558558.5586 -0.0153777 0.06835942 -0.0068191215 -0.019043949 7.071068e-011 7.071068e-011 7.071068e-011 7.071068e-011
7566966966.967 0.055551432 0.078175999 0.019992361 0.00051330833 7.071068e-011 7.071068e-011 7.071068e-011 7.071068e-011
7575375375.3754 0.053668082 0.00099842122 -0.0079390015 0.018440556 7.071068e-011 7.071068e-011 7.071068e-011 7.071068e-011
7583783783.7838 -0.011872704 0.023905611 -0.014367863 -0.01410124 7.071068e-011 7.071068e-011 7.071068e-011 7.071068e-011
7592192192.1922 0.045378186 0.060670622 0.018011916 -0.0082832389 7.071068e-011 7.071068e-011 7.071068e-011 7.071068e-011
7600600600.6006 0.051859234 -0.024255069 0.00083646533 0.019476989 7.071068e-011 7.071068e-011 7.071068e-011 7.071068e-011
7609009009.009 -0.037929673 -0.01091268 -0.018859647 -0.0065716291 7.071068e-011 7.071068e-011 7.071068e-011 7.071068e-011
7617417417.4174 -0.0053096493 0.058134224 0.012643288 -0.015292094 7.071068e-011 7.071068e-011 7.071068e-011 7.071068e-011
7625825825.8258 0.026477763 -0.0039667948 0.0093883183 0.01740991 7.071068e-011 7.071068e-011 7.071068e-011 7.071068e-011
7634234234.2342 -0.060560212 0.0038481965 -0.019543063 0.0024070672 7.071068e-011 7.071068e-011 7.071068e-011 7.071068e-011
7642642642.6426 -0.026743202 0.091621511 0.0050174124 -0.018883308 7.071068e-011 7.071068e-011 7.071068e-011 7.071068e-011
7651051051.0511 0.037569962 0.04262552 0.015720762 0.011730191 7.071068e-011 7.071068e-011 7.071068e-011 7.071068e-011
7659459459.4595 -0.029694486 0.018038047 -0.016790882 0.010625332 7.071068e-011 7.071068e-011 7.071068e-011 7.071068e-011
7667867867.8679 -0.011692581 0.10235968 -0.0038584271 -0.019117229 7.071068e-011 7.071068e-011 7.071068e-011 7.071068e-011
7676276276.2763 0.073816463 0.059163116 0.019076269 0.0039982912 7.071068e-011 7.071068e-011 7.071068e-011 7.071068e-011
7684684684.6847 0.021564323 -0.003960127 -0.010800946 0.016586462 7.071068e-011 7.071068e-011 7.071068e-011 7.071068e-011
7693093093.0931 0.00056650589 0.054260053 -0.011446422 -0.015979892 7.071068e-011 7.071068e-011 7.071068e-011 7.071068e-011
7701501501.5015 0.071000226 0.032720622 0.019025322 -0.0047948607 7.071068e-011 7.071068e-011 7.071068e-011 7.071068e-011
7709909909.9099 0.023493856 -0.042497329 -0.0026459512 0.019500624 7.071068e-011 7.071068e-011 7.071068e-011 7.071068e-011
7718318318.3183 -0.033227801 0.010713187 -0.017193303 -0.0096185086 7.071068e-011 7.071068e-011 7.071068e-011 7.071068e-011
7726726726.7267 0.024303822 0.027894983 0.015465267 -0.012206926 7.071068e-011 7.071068e-011 7.071068e-011 7.071068e-011
7735135135.1351 0.0029819347 -0.041209627 0.0059004147 0.018961731 7.071068e-011 7.071068e-011 7.071068e-011 7.071068e-011
7743543543.5435 -0.074965842 -0.00038817956 -0.019526565 -0.0014896651 7.071068e-011 7.071068e-011 7.071068e-011 7.071068e-011
7751951951.952 -0.030564304 0.0643427 0.0087559735 -0.017669521 7.071068e-011 7.071068e-011 7.071068e-011 7.071068e-011
7760360360.3604 -0.0025376584 0.017585613 0.013224989 0.014679031 7.071068e-011 7.071068e-011 7.071068e-011 7.071068e-011
7768768768.7688 -0.058232985 0.028294232 -0.018593362 0.0068401815 7.071068e-011 7.071068e-011 7.071068e-011 7.071068e-011
7777177177.1772 -0.027409635 0.095526725 0.00062490941 -0.019712966 7.071068e-011 7.071068e-011 7.071068e-011 7.071068e-011
7785585585.5856 0.033883922 0.058160294 0.018112971 0.007846131 7.071068e-011 7.071068e-011 7.071068e-011 7.071068e-011
7793993993.994 -0.0054595056 0.027714511 -0.013926684 0.013667289 7.071068e-011 7.071068e-011 7.071068e-011 7.071068e-011
7802402402.4024 -0.00056295149 0.074814931 -0.0075420495 -0.018383211 7.071068e-011 7.071068e-011 7.071068e-011 7.071068e-011
7810810810.8108 0.057957023 0.049051151 0.019773066 -0.00042106773 7.071068e-011 7.071068e-011 7.071068e-011 7.071068e-011
7819219219.2192 0.026179312 -0.0064435061 -0.0071675316 0.018319335 7.071068e-011 7.071068e-011 7.071068e-011 7.071068e-011
7827627627.6276 -0.0037062967 0.026703991 -0.014381865 -0.013479964 7.071068e-011 7.071068e-011 7.071068e-011 7.071068e-011
7836036036.036 0.037427898 0.025872787 0.017854888 -0.0083155399 7.071068e-011 7.071068e-011 7.071068e-011 7.071068e-011
7844444444.4444 0.016656592 -0.023751728 0.0010863497 0.019716369 7.071068e-011 7.071068e-011 7.071068e-011 7.071068e-011
7852852852.8529 -0.02828964 0.0028865286 -0.018778896 -0.0063834796 7.071068e-011 7.071068e-011 7.071068e-011 7.071068e-011
7861261261.2613 0.0016010712 0.029549263 0.01279329 -0.015024599 7.071068e-011 7.071068e-011 7.071068e-011 7.071068e-011
7869669669.6697 0.0055515533 -0.0091597438 0.0089831632 0.017569127 7.071068e-011 7.071068e-011 7.071068e-011 7.071068e-011
7878078078.0781 -0.040331934 0.0032958519 -0.019808149 0.0019304311 7.071068e-011 7.071068e-011 7.071068e-011 7.071068e-011
7886486486.4865 -0.024535766 0.046889197 0.0054140314 -0.019007171 7.071068e-011 7.071068e-011 7.071068e-011 7.071068e-011
7894894894.8949 0.01092332 0.030400889 0.015384343 0.01201271 7.071068e-011 7.071068e-011 7.071068e-011 7.071068e-011
7903303303.3033 -0.013412809 0.011046755 -0.017103165 0.0096636955 7.071068e-011 7.071068e-011 7.071068e-011 7.071068e-011
7911711711.7117 -0.017904066 0.043862984 -0.0027337945 -0.019487444 7.071068e-011 7.071068e-011 7.071068e-011 7.071068e-011
7920120120.1201 0.023037102 0.044962268 0.018883878 0.0047553312 7.071068e-011 7.071068e-011 7.071068e-011 7.071068e-011
7928528528.5285 0.023708597 0.0019938259 -0.01148015 0.015704356 7.071068e-011 7.071068e-011 7.071068e-011 7.071068e-011
7936936936.9369 -0.0099401288 0.011057223 -0.010124983 -0.016399875 7.071068e-011 7.071068e-011 7.071068e-011 7.071068e-011
7945345345.3453 0.017710947 0.032134641 0.019023163 -0.0030530186 7.071068e-011 7.071068e-011 7.071068e-011 7.071068e-011
