!Keysight Technologies,N5235B,MY61252044,A.15.00.15
!Date: Friday, January 20, 2023 22:46:30
!Correction: S11(Off) 
!S21(Off) 
!S12(Off) 
!S22(Off) 
!S2P File: Measurements: S11, S21, S12, S22:
# Hz S  RI   R 50
6600000000 0.017662007 -0.17500164 0.015473682 -0.0030584347 7.071068e-011 7.071068e-011 7.071068e-011 7.071068e-011
6608408408.4084 -0.12381832 0.16646282 0.0053236908 0.010839627 7.071068e-011 7.071068e-011 7.071068e-011 7.071068e-011
6616816816.8168 0.30648005 0.091545939 -0.0089145992 0.0037041579 7.071068e-011 7.071068e-011 7.071068e-011 7.071068e-011
6625225225.2252 0.023283537 -0.27293083 -0.0017949998 -0.0093097826 7.071068e-011 7.071068e-011 7.071068e-011 7.071068e-011
6633633633.6336 -0.16501589 0.1625527 0.0093407175 -0.00040156665 7.071068e-011 7.071068e-011 7.071068e-011 7.071068e-011
6642042042.042 0.29055259 0.11207958 -0.0018444163 0.0093241232 7.071068e-011 7.071068e-011 7.071068e-011 7.071068e-011
6650450450.4505 0.037915476 -0.25216177 -0.010734212 -0.0040807789 7.071068e-011 7.071068e-011 7.071068e-011 7.071068e-011
6658858858.8589 -0.14790197 0.13539709 0.0059658941 -0.011505323 7.071068e-011 7.071068e-011 7.071068e-011 7.071068e-011
6667267267.2673 0.22906104 0.10045692 0.012215687 0.0091591245 7.071068e-011 7.071068e-011 7.071068e-011 7.071068e-011
6675675675.6757 0.042091008 -0.15120676 -0.011528557 0.013839922 7.071068e-011 7.071068e-011 7.071068e-011 7.071068e-011
6684084084.0841 -0.04417479 0.084687456 -0.014617728 -0.013342312 7.071068e-011 7.071068e-011 7.071068e-011 7.071068e-011
6692492492.4925 0.10604502 0.047267057 0.014815488 -0.014939075 7.071068e-011 7.071068e-011 7.071068e-011 7.071068e-011
6700900900.9009 0.08590287 0.018135048 0.014789354 0.015410896 7.071068e-011 7.071068e-011 7.071068e-011 7.071068e-011
6709309309.3093 0.076934487 -0.041881002 -0.015547006 0.013136473 7.071068e-011 7.071068e-011 7.071068e-011 7.071068e-011
6717717717.7177 -0.031060064 0.034790628 -0.010166544 -0.016480178 7.071068e-011 7.071068e-011 7.071068e-011 7.071068e-011
6726126126.1261 0.15552923 0.11589993 0.016803799 -0.0071123312 7.071068e-011 7.071068e-011 7.071068e-011 7.071068e-011
6734534534.5345 0.12796962 -0.14094685 0.0035840713 0.016239356 7.071068e-011 7.071068e-011 7.071068e-011 7.071068e-011
6742942942.9429 -0.107816 0.027425723 -0.015923403 -0.00025732626 7.071068e-011 7.071068e-011 7.071068e-011 7.071068e-011
6751351351.3514 0.1721984 0.152154 0.0035951843 -0.015384494 7.071068e-011 7.071068e-011 7.071068e-011 7.071068e-011
6759759759.7598 0.14997528 -0.17201824 0.013201028 0.0070530754 7.071068e-011 7.071068e-011 7.071068e-011 7.071068e-011
6768168168.1682 -0.14700782 -0.004638263 -0.010849776 0.010432418 7.071068e-011 7.071068e-011 7.071068e-011 7.071068e-011
6776576576.5766 0.13483825 0.17858499 -0.0080289422 -0.013466446 7.071068e-011 7.071068e-011 7.071068e-011 7.071068e-011
6784984984.985 0.150555 -0.1467413 0.014557887 -0.0040405272 7.071068e-011 7.071068e-011 7.071068e-011 7.071068e-011
6793393393.3934 -0.14759687 -0.0058041513 -0.00032655126 0.015529648 7.071068e-011 7.071068e-011 7.071068e-011 7.071068e-011
6801801801.8018 0.10228719 0.20249198 -0.015730843 -0.0042754645 7.071068e-011 7.071068e-011 7.071068e-011 7.071068e-011
6810210210.2102 0.17194684 -0.095507555 0.0086569833 -0.014451167 7.071068e-011 7.071068e-011 7.071068e-011 7.071068e-011
6818618618.6186 -0.1055879 -0.0096891709 0.012167172 0.013226294 7.071068e-011 7.071068e-011 7.071068e-011 7.071068e-011
6827027027.027 0.088471301 0.18540752 -0.015952751 0.0092340969 7.071068e-011 7.071068e-011 7.071068e-011 7.071068e-011
6835435435.4354 0.18118444 -0.04929873 -0.0045066285 -0.017895961 7.071068e-011 7.071068e-011 7.071068e-011 7.071068e-011
6843843843.8438 -0.045726012 -0.027589723 0.02017894 0.00022082651 7.071068e-011 7.071068e-011 7.071068e-011 7.071068e-011
6852252252.2523 0.075191639 0.12928209 -0.0045556966 0.020315217 7.071068e-011 7.071068e-011 7.071068e-011 7.071068e-011
6860660660.6607 0.14497185 -0.020627225 -0.018626472 -0.0095863026 7.071068e-011 7.071068e-011 7.071068e-011 7.071068e-011
6869069069.0691 0.0039317822 -0.026806569 0.014503372 -0.016118426 7.071068e-011 7.071068e-011 7.071068e-011 7.071068e-011
6877477477.4775 0.054275926 0.072621375 0.01271126 0.018080259 7.071068e-011 7.071068e-011 7.071068e-011 7.071068e-011
6885885885.8859 0.090364225 0.0067392639 -0.020448172 0.0077383439 7.071068e-011 7.071068e-011 7.071068e-011 7.071068e-011
6894294294.2943 0.047154408 -0.0010058926 -0.0023411098 -0.022021931 7.071068e-011 7.071068e-011 7.071068e-011 7.071068e-011
6902702702.7027 0.038228393 0.019433361 0.022002207 0.0032112715 7.071068e-011 7.071068e-011 7.071068e-011 7.071068e-011
6911111111.1111 0.031070491 0.037705198 -0.0087521663 0.020232586 7.071068e-011 7.071068e-011 7.071068e-011 7.071068e-011
6919519519.5195 0.078351885 0.049776129 -0.016971838 -0.01360017 7.071068e-011 7.071068e-011 7.071068e-011 7.071068e-011
6927927927.9279 0.050535161 -0.012410698 0.017229885 -0.01280801 7.071068e-011 7.071068e-011 7.071068e-011 7.071068e-011
6936336336.3363 -0.0020678472 0.062450346 0.0073040016 0.019471556 7.071068e-011 7.071068e-011 7.071068e-011 7.071068e-011
6944744744.7447 0.1126698 0.089105144 -0.020843027 0.0011828021 7.071068e-011 7.071068e-011 7.071068e-011 7.071068e-011
6953153153.1532 0.08393196 -0.04567625 0.0044556134 -0.020011855 7.071068e-011 7.071068e-011 7.071068e-011 7.071068e-011
6961561561.5616 -0.028254112 0.054871097 0.017360426 0.0099256542 7.071068e-011 7.071068e-011 7.071068e-011 7.071068e-011
6969969969.97 0.12503263 0.10559992 -0.014493682 0.013577411 7.071068e-011 7.071068e-011 7.071068e-011 7.071068e-011
6978378378.3784 0.10123736 -0.071058296 -0.0084161311 -0.017361222 7.071068e-011 7.071068e-011 7.071068e-011 7.071068e-011
6986786786.7868 -0.064089991 0.033303607 0.018733555 -0.002316837 7.071068e-011 7.071068e-011 7.071068e-011 7.071068e-011
6995195195.1952 0.10350692 0.13365245 -0.0035217083 0.018931497 7.071068e-011 7.071068e-011 7.071068e-011 7.071068e-011
7003603603.6036 0.1084502 -0.058266476 -0.01662557 -0.0088774394 7.071068e-011 7.071068e-011 7.071068e-011 7.071068e-011
7012012012.012 -0.072787762 0.033071771 0.014100703 -0.012504146 7.071068e-011 7.071068e-011 7.071068e-011 7.071068e-011
7020420420.4204 0.088619493 0.16125594 0.007826671 0.017319346 7.071068e-011 7.071068e-011 7.071068e-011 7.071068e-011
7028828828.8288 0.13221258 -0.029482121 -0.018531641 0.0018657293 7.071068e-011 7.071068e-011 7.071068e-011 7.071068e-011
7037237237.2372 -0.054185722 0.031270061 0.0043845554 -0.018658752 7.071068e-011 7.071068e-011 7.071068e-011 7.071068e-011
7045645645.6456 0.090625003 0.17082845 0.016469678 0.0097742006 7.071068e-011 7.071068e-011 7.071068e-011 7.071068e-011
7054054054.0541 0.16732909 -0.0035887675 -0.014659673 0.012077824 7.071068e-011 7.071068e-011 7.071068e-011 7.071068e-011
7062462462.4625 -0.0084441863 -0.0035418998 -0.0068744821 -0.018466948 7.071068e-011 7.071068e-011 7.071068e-011 7.071068e-011
7070870870.8709 0.078788452 0.14046374 0.019776452 -0.0012349859 7.071068e-011 7.071068e-011 7.071068e-011 7.071068e-011
7079279279.2793 0.16823085 0.0069047241 -0.0055160294 0.018813781 7.071068e-011 7.071068e-011 7.071068e-011 7.071068e-011
7087687687.6877 0.032195527 -0.026694084 -0.016675496 -0.011456498 7.071068e-011 7.071068e-011 7.071068e-011 7.071068e-011
7096096096.0961 0.059882961 0.089438714 0.015923541 -0.012516594 7.071068e-011 7.071068e-011 7.071068e-011 7.071068e-011
7104504504.5045 0.14780375 0.010032632 0.0065728691 0.019134406 7.071068e-011 7.071068e-011 7.071068e-011 7.071068e-011
7112912912.9129 0.050584648 -0.044540957 -0.020650513 -8.3421182e-005 7.071068e-011 7.071068e-011 7.071068e-011 7.071068e-011
7121321321.3213 0.034579013 0.032085694 0.0062698526 -0.01986023 7.071068e-011 7.071068e-011 7.071068e-011 7.071068e-011
7129729729.7297 0.089424551 0.014268729 0.016476046 0.01204993 7.071068e-011 7.071068e-011 7.071068e-011 7.071068e-011
7138138138.1381 0.043215819 -0.037843183 -0.0171666 0.011740172 7.071068e-011 7.071068e-011 7.071068e-011 7.071068e-011
7146546546.5465 -0.00049606955 0.013790155 -0.0058889007 -0.020116683 7.071068e-011 7.071068e-011 7.071068e-011 7.071068e-011
7154954954.955 0.030803282 0.041268207 0.020813785 0.00081272144 7.071068e-011 7.071068e-011 7.071068e-011 7.071068e-011
7163363363.3634 0.044881959 0.015607583 -0.0076213884 0.019122794 7.071068e-011 7.071068e-011 7.071068e-011 7.071068e-011
7171771771.7718 0.0010840185 0.020373406 -0.015779993 -0.013452464 7.071068e-011 7.071068e-011 7.071068e-011 7.071068e-011
7180180180.1802 0.01859895 0.07260745 0.017605858 -0.010433571 7.071068e-011 7.071068e-011 7.071068e-011 7.071068e-011
7188588588.5886 0.067825161 0.055985738 0.003927649 0.020450192 7.071068e-011 7.071068e-011 7.071068e-011 7.071068e-011
7196996996.997 0.039680902 0.010128885 -0.020622313 -0.0027009484 7.071068e-011 7.071068e-011 7.071068e-011 7.071068e-011
7205405405.4054 0.012398099 0.067313872 0.0095104231 -0.018025834 7.071068e-011 7.071068e-011 7.071068e-011 7.071068e-011
7213813813.8138 0.083359286 0.067070931 0.013884553 0.015167235 7.071068e-011 7.071068e-011 7.071068e-011 7.071068e-011
7222222222.2222 0.066007562 -0.0055718608 -0.018979967 0.0082640052 7.071068e-011 7.071068e-011 7.071068e-011 7.071068e-011
7230630630.6306 -0.001305211 0.035380673 -0.001483558 -0.020499062 7.071068e-011 7.071068e-011 7.071068e-011 7.071068e-011
7239039039.039 0.071765862 0.07548812 0.019973788 0.0058105867 7.071068e-011 7.071068e-011 7.071068e-011 7.071068e-011
7247447447.4474 0.075076036 -0.014985333 -0.011981247 0.017012736 7.071068e-011 7.071068e-011 7.071068e-011 7.071068e-011
7255855855.8559 -0.016696217 0.0075958818 -0.011639321 -0.01699974 7.071068e-011 7.071068e-011 7.071068e-011 7.071068e-011
7264264264.2643 0.035170373 0.084052168 0.020117979 -0.0053948034 7.071068e-011 7.071068e-011 7.071068e-011 7.071068e-011
7272672672.6727 0.074264847 0.00038418788 -0.0014739932 0.02054842 7.071068e-011 7.071068e-011 7.071068e-011 7.071068e-011
7281081081.0811 -0.030050507 0.0010230828 -0.018751729 -0.0084162001 7.071068e-011 7.071068e-011 7.071068e-011 7.071068e-011
7289489489.4895 0.00026508368 0.1077066 0.014673102 -0.014656101 7.071068e-011 7.071068e-011 7.071068e-011 7.071068e-011
7297897897.8979 0.084975727 0.05036436 0.008849211 0.018817736 7.071068e-011 7.071068e-011 7.071068e-011 7.071068e-011
7306306306.3063 0.00080582657 0.0089867497 -0.020584002 0.0016246426 7.071068e-011 7.071068e-011 7.071068e-011 7.071068e-011
7314714714.7147 0.0043205768 0.11300187 0.0053561134 -0.020313056 7.071068e-011 7.071068e-011 7.071068e-011 7.071068e-011
7323123123.1231 0.11278164 0.0750864 0.017039675 0.011701034 7.071068e-011 7.071068e-011 7.071068e-011 7.071068e-011
7331531531.5315 0.050927602 -0.011809859 -0.017310258 0.011757771 7.071068e-011 7.071068e-011 7.071068e-011 7.071068e-011
7339939939.9399 0.0080562225 0.068925895 -0.0053692022 -0.020548828 7.071068e-011 7.071068e-011 7.071068e-011 7.071068e-011
7348348348.3483 0.10567457 0.063467145 0.020935807 0.0018813327 7.071068e-011 7.071068e-011 7.071068e-011 7.071068e-011
7356756756.7568 0.06590794 -0.037056088 -0.0091639226 0.018819112 7.071068e-011 7.071068e-011 7.071068e-011 7.071068e-011
7365165165.1652 -0.010183048 0.021142324 -0.014784493 -0.015166398 7.071068e-011 7.071068e-011 7.071068e-011 7.071068e-011
7373573573.5736 0.061779711 0.049700152 0.019003535 -0.0086128172 7.071068e-011 7.071068e-011 7.071068e-011 7.071068e-011
7381981981.982 0.043771714 -0.035533655 0.0011192919 0.021128492 7.071068e-011 7.071068e-011 7.071068e-011 7.071068e-011
7390390390.3904 -0.043137334 0.0099016139 -0.020357909 -0.0061145434 7.071068e-011 7.071068e-011 7.071068e-011 7.071068e-011
7398798798.7988 0.013209206 0.071164116 0.012858861 -0.016736703 7.071068e-011 7.071068e-011 7.071068e-011 7.071068e-011
7407207207.2072 0.027799036 0.0096613467 0.011239381 0.017962324 7.071068e-011 7.071068e-011 7.071068e-011 7.071068e-011
7415615615.6156 -0.041039065 0.035535533 -0.02087329 0.0044420753 7.071068e-011 7.071068e-011 7.071068e-011 7.071068e-011
7424024024.024 0.0069564143 0.10503966 0.0030084339 -0.021055033 7.071068e-011 7.071068e-011 7.071068e-011 7.071068e-011
7432432432.4324 0.054666962 0.053969547 0.01870922 0.010375131 7.071068e-011 7.071068e-011 7.071068e-011 7.071068e-011
7440840840.8408 0.0096737798 0.042439997 -0.0161111 0.014099995 7.071068e-011 7.071068e-011 7.071068e-011 7.071068e-011
7449249249.2492 0.030374041 0.087196574 -0.0073791011 -0.0198604 7.071068e-011 7.071068e-011 7.071068e-011 7.071068e-011
7457657657.6577 0.077970482 0.048862938 0.021264739 0.00011761481 7.071068e-011 7.071068e-011 7.071068e-011 7.071068e-011
7466066066.0661 0.041645959 0.014114677 -0.0074731312 0.019961542 7.071068e-011 7.071068e-011 7.071068e-011 7.071068e-011
7474474474.4745 0.030573634 0.039418735 -0.01597832 -0.013796662 7.071068e-011 7.071068e-011 7.071068e-011 7.071068e-011
7482882882.8829 0.059955038 0.029040655 0.018612256 -0.0098480834 7.071068e-011 7.071068e-011 7.071068e-011 7.071068e-011
7491291291.2913 0.038842928 -0.013424179 0.0026946263 0.02092875 7.071068e-011 7.071068e-011 7.071068e-011 7.071068e-011
7499699699.6997 -0.0033532269 0.0024909945 -0.020379148 -0.0048750746 7.071068e-011 7.071068e-011 7.071068e-011 7.071068e-011
7508108108.1081 0.0033964838 0.031953096 0.011712737 -0.017350925 7.071068e-011 7.071068e-011 7.071068e-011 7.071068e-011
7516516516.5165 0.01937479 0.011831988 0.012036068 0.016969614 7.071068e-011 7.071068e-011 7.071068e-011 7.071068e-011
7524924924.9249 -0.026504055 0.0066560539 -0.020024125 0.0051238821 7.071068e-011 7.071068e-011 7.071068e-011 7.071068e-011
7533333333.3333 -0.029720111 0.066076599 0.0024965284 -0.020509921 7.071068e-011 7.071068e-011 7.071068e-011 7.071068e-011
7541741741.7417 0.027908735 0.068760283 0.018277271 0.0094490107 7.071068e-011 7.071068e-011 7.071068e-011 7.071068e-011
7550150150.1502 0.012862684 0.020565568 -0.015190543 0.013256991 7.071068e-011 7.071068e-011 7.071068e-011 7.071068e-011
7558558558.5586 -0.015299628 0.06860999 -0.0068901163 -0.019029828 7.071068e-011 7.071068e-011 7.071068e-011 7.071068e-011
7566966966.967 0.05574831 0.078022249 0.02000414 0.00044656798 7.071068e-011 7.071068e-011 7.071068e-011 7.071068e-011
7575375375.3754 0.053421948 0.0008765508 -0.0078791827 0.018478472 7.071068e-011 7.071068e-011 7.071068e-011 7.071068e-011
7583783783.7838 -0.011899672 0.024221973 -0.014425932 -0.014057267 7.071068e-011 7.071068e-011 7.071068e-011 7.071068e-011
7592192192.1922 0.045682132 0.060583249 0.017994082 -0.0083474834 7.071068e-011 7.071068e-011 7.071068e-011 7.071068e-011
7600600600.6006 0.051655103 -0.024477901 0.00090784195 0.019485118 7.071068e-011 7.071068e-011 7.071068e-011 7.071068e-011
7609009009.009 -0.038049262 -0.010616434 -0.018895037 -0.0065090088 7.071068e-011 7.071068e-011 7.071068e-011 7.071068e-011
7617417417.4174 -0.0049769888 0.058142714 0.012599796 -0.015343493 7.071068e-011 7.071068e-011 7.071068e-011 7.071068e-011
7625825825.8258 0.026336879 -0.004266574 0.009457414 0.017386228 7.071068e-011 7.071068e-011 7.071068e-011 7.071068e-011
7634234234.2342 -0.060772594 0.0041250237 -0.019548202 0.0024778128 7.071068e-011 7.071068e-011 7.071068e-011 7.071068e-011
7642642642.6426 -0.026417747 0.091724738 0.0049578589 -0.01891184 7.071068e-011 7.071068e-011 7.071068e-011 7.071068e-011
7651051051.0511 0.037528936 0.042299736 0.015772792 0.01168206 7.071068e-011 7.071068e-011 7.071068e-011 7.071068e-011
7659459459.4595 -0.02998887 0.018227633 -0.01676455 0.010691931 7.071068e-011 7.071068e-011 7.071068e-011 7.071068e-011
7667867867.8679 -0.01141436 0.10256948 -0.0039263824 -0.019118005 7.071068e-011 7.071068e-011 7.071068e-011 7.071068e-011
7676276276.2763 0.073886409 0.058851991 0.019105729 0.0039347745 7.071068e-011 7.071068e-011 7.071068e-011 7.071068e-011
7684684684.6847 0.021246197 -0.0038847865 -0.010746423 0.016636834 7.071068e-011 7.071068e-011 7.071068e-011 7.071068e-011
7693093093.0931 0.00073938008 0.054541927 -0.011508668 -0.01594962 7.071068e-011 7.071068e-011 7.071068e-011 7.071068e-011
7701501501.5015 0.071171083 0.032476712 0.019021628 -0.0048659043 7.071068e-011 7.071068e-011 7.071068e-011 7.071068e-011
7709909909.9099 0.023199374 -0.042519517 -0.0025780599 0.019521164 7.071068e-011 7.071068e-011 7.071068e-011 7.071068e-011
7718318318.3183 -0.033140469 0.011031891 -0.017236764 -0.009564722 7.071068e-011 7.071068e-011 7.071068e-011 7.071068e-011
7726726726.7267 0.02456703 0.027727811 0.015429759 -0.012267681 7.071068e-011 7.071068e-011 7.071068e-011 7.071068e-011
7735135135.1351 0.0027386029 -0.041380007 0.0059726359 0.018951468 7.071068e-011 7.071068e-011 7.071068e-011 7.071068e-011
7743543543.5435 -0.075037628 -8.7157954e-005 -0.019541623 -0.0014222034 7.071068e-011 7.071068e-011 7.071068e-011 7.071068e-011
7751951951.952 -0.030266799 0.064310797 0.0086974176 -0.017710157 7.071068e-011 7.071068e-011 7.071068e-011 7.071068e-011
7760360360.3604 -0.0026691633 0.017340364 0.01328735 0.014639165 7.071068e-011 7.071068e-011 7.071068e-011 7.071068e-011
7768768768.7688 -0.058415931 0.028499315 -0.018579118 0.0069106035 7.071068e-011 7.071068e-011 7.071068e-011 7.071068e-011
7777177177.1772 -0.02716629 0.095628798 0.00055328623 -0.019729219 7.071068e-011 7.071068e-011 7.071068e-011 7.071068e-011
7785585585.5856 0.033865146 0.057913076 0.018152466 0.0077837585 7.071068e-011 7.071068e-011 7.071068e-011 7.071068e-011
7793993993.994 -0.0056902026 0.027836327 -0.013885621 0.013727417 7.071068e-011 7.071068e-011 7.071068e-011 7.071068e-011
7802402402.4024 -0.00039766179 0.075002939 -0.0076158415 -0.018367155 7.071068e-011 7.071068e-011 7.071068e-011 7.071068e-011
7810810810.8108 0.058046255 0.048853621 0.019784376 -0.00049144967 7.071068e-011 7.071068e-011 7.071068e-011 7.071068e-011
7819219219.2192 0.025945297 -0.0064211781 -0.0071073687 0.01835791 7.071068e-011 7.071068e-011 7.071068e-011 7.071068e-011
7827627627.6276 -0.0036266155 0.026936622 -0.014440278 -0.013436181 7.071068e-011 7.071068e-011 7.071068e-011 7.071068e-011
7836036036.036 0.037592463 0.025751354 0.017837381 -0.0083828662 7.071068e-011 7.071068e-011 7.071068e-011 7.071068e-011
7844444444.4444 0.016481955 -0.023823343 0.0011593143 0.019727992 7.071068e-011 7.071068e-011 7.071068e-011 7.071068e-011
7852852852.8529 -0.02829393 0.0030991815 -0.018816596 -0.0063198139 7.071068e-011 7.071068e-011 7.071068e-011 7.071068e-011
7861261261.2613 0.0017983668 0.029499844 0.01274667 -0.015080486 7.071068e-011 7.071068e-011 7.071068e-011 7.071068e-011
7869669669.6697 0.0054386584 -0.0093127359 0.009053749 0.017548354 7.071068e-011 7.071068e-011 7.071068e-011 7.071068e-011
7878078078.0781 -0.040445004 0.0034604617 -0.019814186 0.0020027352 7.071068e-011 7.071068e-011 7.071068e-011 7.071068e-011
7886486486.4865 -0.024364188 0.046967283 0.0053477916 -0.019039609 7.071068e-011 7.071068e-011 7.071068e-011 7.071068e-011
7894894894.8949 0.010932558 0.030231699 0.015438296 0.011963814 7.071068e-011 7.071068e-011 7.071068e-011 7.071068e-011
7903303303.3033 -0.013587912 0.011100972 -0.017079629 0.0097325686 7.071068e-011 7.071068e-011 7.071068e-011 7.071068e-011
7911711711.7117 -0.0178321 0.044031404 -0.0028075844 -0.019491663 7.071068e-011 7.071068e-011 7.071068e-011 7.071068e-011
7920120120.1201 0.023152594 0.044869382 0.018916417 0.0046888515 7.071068e-011 7.071068e-011 7.071068e-011 7.071068e-011
7928528528.5285 0.023553466 0.0019317151 -0.011432181 0.015757887 7.071068e-011 7.071068e-011 7.071068e-011 7.071068e-011
7936936936.9369 -0.0099741183 0.011264967 -0.010194822 -0.016372701 7.071068e-011 7.071068e-011 7.071068e-011 7.071068e-011
7945345345.3453 0.01791385 0.032130502 0.01902383 -0.0031266955 7.071068e-011 7.071068e-011 7.071068e-011 7.071068e-011
