!Keysight Technologies,N5235B,MY61252044,A.15.00.15
!Date: Friday, January 20, 2023 22:45:03
!Correction: S11(Off) 
!S21(Off) 
!S12(Off) 
!S22(Off) 
!S2P File: Measurements: S11, S21, S12, S22:
# Hz S  RI   R 50
6600000000 0.017144714 -0.17476635 0.015200727 -0.0030187094 7.071068e-011 7.071068e-011 7.071068e-011 7.071068e-011
6608408408.4084 -0.12347475 0.16638009 0.0052415724 0.010657826 7.071068e-011 7.071068e-011 7.071068e-011 7.071068e-011
6616816816.8168 0.30634981 0.091503829 -0.0087639643 0.0036561245 7.071068e-011 7.071068e-011 7.071068e-011 7.071068e-011
6625225225.2252 0.023286059 -0.27298233 -0.0017820242 -0.009146926 7.071068e-011 7.071068e-011 7.071068e-011 7.071068e-011
6633633633.6336 -0.16513827 0.16275035 0.0091725718 -0.00040593388 7.071068e-011 7.071068e-011 7.071068e-011 7.071068e-011
6642042042.042 0.29087538 0.11188918 -0.0018140958 0.0091577219 7.071068e-011 7.071068e-011 7.071068e-011 7.071068e-011
6650450450.4505 0.037439834 -0.25217077 -0.010554779 -0.0040210858 7.071068e-011 7.071068e-011 7.071068e-011 7.071068e-011
6658858858.8589 -0.14751534 0.13562149 0.0058753775 -0.011330619 7.071068e-011 7.071068e-011 7.071068e-011 7.071068e-011
6667267267.2673 0.22884485 0.10015423 0.012051109 0.0090041943 7.071068e-011 7.071068e-011 7.071068e-011 7.071068e-011
6675675675.6757 0.042224534 -0.15091248 -0.011297589 0.013657114 7.071068e-011 7.071068e-011 7.071068e-011 7.071068e-011
6684084084.0841 -0.044431735 0.084321223 -0.014392337 -0.013050278 7.071068e-011 7.071068e-011 7.071068e-011 7.071068e-011
6692492492.4925 0.10648872 0.047757454 0.014507079 -0.014651889 7.071068e-011 7.071068e-011 7.071068e-011 7.071068e-011
6700900900.9009 0.085398592 0.017630367 0.014497345 0.015145914 7.071068e-011 7.071068e-011 7.071068e-011 7.071068e-011
6709309309.3093 0.077340767 -0.04146098 -0.015313596 0.012895484 7.071068e-011 7.071068e-011 7.071068e-011 7.071068e-011
6717717717.7177 -0.031399906 0.034461927 -0.010007328 -0.01623394 7.071068e-011 7.071068e-011 7.071068e-011 7.071068e-011
6726126126.1261 0.15581851 0.11622664 0.016543608 -0.0070170951 7.071068e-011 7.071068e-011 7.071068e-011 7.071068e-011
6734534534.5345 0.12775677 -0.14138973 0.0035548669 0.015978871 7.071068e-011 7.071068e-011 7.071068e-011 7.071068e-011
6742942942.9429 -0.10781309 0.027978174 -0.015659019 -0.000219865 7.071068e-011 7.071068e-011 7.071068e-011 7.071068e-011
6751351351.3514 0.17241523 0.1516728 0.0035090602 -0.015126031 7.071068e-011 7.071068e-011 7.071068e-011 7.071068e-011
6759759759.7598 0.14961958 -0.17174561 0.012979225 0.0069164583 7.071068e-011 7.071068e-011 7.071068e-011 7.071068e-011
6768168168.1682 -0.14670826 -0.0047511887 -0.010650164 0.010260151 7.071068e-011 7.071068e-011 7.071068e-011 7.071068e-011
6776576576.5766 0.13458496 0.17870314 -0.0078938305 -0.013227301 7.071068e-011 7.071068e-011 7.071068e-011 7.071068e-011
6784984984.985 0.15086213 -0.14690487 0.014306024 -0.0039703646 7.071068e-011 7.071068e-011 7.071068e-011 7.071068e-011
6793393393.3934 -0.14807029 -0.0056863483 -0.00032568612 0.015266492 7.071068e-011 7.071068e-011 7.071068e-011 7.071068e-011
6801801801.8018 0.10284009 0.20256086 -0.015474334 -0.0042109736 7.071068e-011 7.071068e-011 7.071068e-011 7.071068e-011
6810210210.2102 0.17146929 -0.095833227 0.0085214674 -0.014226276 7.071068e-011 7.071068e-011 7.071068e-011 7.071068e-011
6818618618.6186 -0.10535356 -0.009252795 0.011993608 0.013011312 7.071068e-011 7.071068e-011 7.071068e-011 7.071068e-011
6827027027.027 0.088429593 0.18498644 -0.015681935 0.0091178212 7.071068e-011 7.071068e-011 7.071068e-011 7.071068e-011
6835435435.4354 0.18109621 -0.048933152 -0.0044679702 -0.017584765 7.071068e-011 7.071068e-011 7.071068e-011 7.071068e-011
6843843843.8438 -0.045607887 -0.028021883 0.019815123 0.00018521128 7.071068e-011 7.071068e-011 7.071068e-011 7.071068e-011
6852252252.2523 0.074976683 0.12980059 -0.0044654054 0.019943487 7.071068e-011 7.071068e-011 7.071068e-011 7.071068e-011
6860660660.6607 0.14532225 -0.021182444 -0.01828932 -0.0094374903 7.071068e-011 7.071068e-011 7.071068e-011 7.071068e-011
6869069069.0691 0.0034221727 -0.026364986 0.014286958 -0.015845818 7.071068e-011 7.071068e-011 7.071068e-011 7.071068e-011
6877477477.4775 0.054845758 0.072353229 0.012517894 0.017803032 7.071068e-011 7.071068e-011 7.071068e-011 7.071068e-011
6885885885.8859 0.089809746 0.0068182396 -0.020131283 0.0076406193 7.071068e-011 7.071068e-011 7.071068e-011 7.071068e-011
6894294294.2943 0.047679916 -0.00090894202 -0.0023465084 -0.021664951 7.071068e-011 7.071068e-011 7.071068e-011 7.071068e-011
6902702702.7027 0.03770341 0.019165754 0.02163052 0.0031157206 7.071068e-011 7.071068e-011 7.071068e-011 7.071068e-011
6911111111.1111 0.031553622 0.038142309 -0.0085789245 0.019871177 7.071068e-011 7.071068e-011 7.071068e-011 7.071068e-011
6919519519.5195 0.077978075 0.049240112 -0.016664635 -0.013370277 7.071068e-011 7.071068e-011 7.071068e-011 7.071068e-011
6927927927.9279 0.050738879 -0.011839519 0.016955968 -0.012577284 7.071068e-011 7.071068e-011 7.071068e-011 7.071068e-011
6936336336.3363 -0.0021460052 0.061916649 0.0071796295 0.019175563 7.071068e-011 7.071068e-011 7.071068e-011 7.071068e-011
6944744744.7447 0.11260872 0.089587182 -0.020527625 0.0011735453 7.071068e-011 7.071068e-011 7.071068e-011 7.071068e-011
6953153153.1532 0.084120601 -0.04612631 0.0043569147 -0.019707622 7.071068e-011 7.071068e-011 7.071068e-011 7.071068e-011
6961561561.5616 -0.028657854 0.055266514 0.017093668 0.0097256619 7.071068e-011 7.071068e-011 7.071068e-011 7.071068e-011
6969969969.97 0.1255817 0.10533933 -0.014222209 0.0133596 7.071068e-011 7.071068e-011 7.071068e-011 7.071068e-011
6978378378.3784 0.10060924 -0.071048357 -0.0082763517 -0.017049676 7.071068e-011 7.071068e-011 7.071068e-011 7.071068e-011
6986786786.7868 -0.0635534 0.033485845 0.018410504 -0.0022667078 7.071068e-011 7.071068e-011 7.071068e-011 7.071068e-011
6995195195.1952 0.10311717 0.13335679 -0.0034724118 0.018613297 7.071068e-011 7.071068e-011 7.071068e-011 7.071068e-011
7003603603.6036 0.10870489 -0.057947185 -0.016355999 -0.008745932 7.071068e-011 7.071068e-011 7.071068e-011 7.071068e-011
7012012012.012 -0.072985798 0.032697007 0.013884666 -0.012307679 7.071068e-011 7.071068e-011 7.071068e-011 7.071068e-011
7020420420.4204 0.088722423 0.16168386 0.0077153356 0.017045798 7.071068e-011 7.071068e-011 7.071068e-011 7.071068e-011
7028828828.8288 0.13228118 -0.030004477 -0.018239535 0.0018538963 7.071068e-011 7.071068e-011 7.071068e-011 7.071068e-011
7037237237.2372 -0.054497328 0.031751145 0.0042936811 -0.018364906 7.071068e-011 7.071068e-011 7.071068e-011 7.071068e-011
7045645645.6456 0.09108144 0.17055033 0.016213605 0.0095912945 7.071068e-011 7.071068e-011 7.071068e-011 7.071068e-011
7054054054.0541 0.16680542 -0.0035719704 -0.014399445 0.011890036 7.071068e-011 7.071068e-011 7.071068e-011 7.071068e-011
7062462462.4625 -0.0079996893 -0.0033791082 -0.0067679472 -0.018143533 7.071068e-011 7.071068e-011 7.071068e-011 7.071068e-011
7070870870.8709 0.078382231 0.14020942 0.019430589 -0.0012130936 7.071068e-011 7.071068e-011 7.071068e-011 7.071068e-011
7079279279.2793 0.16856618 0.0072505614 -0.0054337196 0.018487776 7.071068e-011 7.071068e-011 7.071068e-011 7.071068e-011
7087687687.6877 0.031869534 -0.027162027 -0.016391976 -0.011298245 7.071068e-011 7.071068e-011 7.071068e-011 7.071068e-011
7096096096.0961 0.060044043 0.089985974 0.015692335 -0.012317424 7.071068e-011 7.071068e-011 7.071068e-011 7.071068e-011
7104504504.5045 0.14785074 0.009487085 0.0064785578 0.018854732 7.071068e-011 7.071068e-011 7.071068e-011 7.071068e-011
7112912912.9129 0.050310563 -0.044106923 -0.02035217 -6.2193671e-005 7.071068e-011 7.071068e-011 7.071068e-011 7.071068e-011
7121321321.3213 0.034979697 0.031819709 0.0061340812 -0.019566199 7.071068e-011 7.071068e-011 7.071068e-011 7.071068e-011
7129729729.7297 0.088958167 0.014354412 0.016230699 0.011818987 7.071068e-011 7.071068e-011 7.071068e-011 7.071068e-011
7138138138.1381 0.04371696 -0.037771851 -0.016851427 0.011555408 7.071068e-011 7.071068e-011 7.071068e-011 7.071068e-011
7146546546.5465 -0.001014999 0.01355447 -0.0057887025 -0.019757399 7.071068e-011 7.071068e-011 7.071068e-011 7.071068e-011
7154954954.955 0.03128713 0.04167283 0.02044961 0.00082515442 7.071068e-011 7.071068e-011 7.071068e-011 7.071068e-011
7163363363.3634 0.044517871 0.01508045 -0.0075409822 0.018803766 7.071068e-011 7.071068e-011 7.071068e-011 7.071068e-011
7171771771.7718 0.0012448622 0.020939996 -0.015532156 -0.01327524 7.071068e-011 7.071068e-011 7.071068e-011 7.071068e-011
7180180180.1802 0.018623671 0.072072849 0.017363295 -0.010284247 7.071068e-011 7.071068e-011 7.071068e-011 7.071068e-011
7188588588.5886 0.06762132 0.056419704 0.0038883216 0.020151129 7.071068e-011 7.071068e-011 7.071068e-011 7.071068e-011
7196996996.997 0.039996456 0.0097896103 -0.020315597 -0.0026265099 7.071068e-011 7.071068e-011 7.071068e-011 7.071068e-011
7205405405.4054 0.011944633 0.067493536 0.009324858 -0.017752122 7.071068e-011 7.071068e-011 7.071068e-011 7.071068e-011
7213813813.8138 0.083895102 0.067080565 0.013660689 0.014893848 7.071068e-011 7.071068e-011 7.071068e-011 7.071068e-011
7222222222.2222 0.065447316 -0.0058228662 -0.018649621 0.0081229489 7.071068e-011 7.071068e-011 7.071068e-011 7.071068e-011
7230630630.6306 -0.00084754033 0.035801366 -0.0014328037 -0.020160917 7.071068e-011 7.071068e-011 7.071068e-011 7.071068e-011
7239039039.039 0.071491085 0.0749759 0.019660002 0.005745111 7.071068e-011 7.071068e-011 7.071068e-011 7.071068e-011
7247447447.4474 0.075180978 -0.014459486 -0.011817502 0.016757455 7.071068e-011 7.071068e-011 7.071068e-011 7.071068e-011
7255855855.8559 -0.01664969 0.0070991125 -0.011477259 -0.016749611 7.071068e-011 7.071068e-011 7.071068e-011 7.071068e-011
7264264264.2643 0.034966461 0.084508449 0.019811377 -0.0053337701 7.071068e-011 7.071068e-011 7.071068e-011 7.071068e-011
7272672672.6727 0.074633658 1.2222466e-005 -0.0014269401 0.020232184 7.071068e-011 7.071068e-011 7.071068e-011 7.071068e-011
7281081081.0811 -0.030579209 0.0012231597 -0.018453559 -0.0082645323 7.071068e-011 7.071068e-011 7.071068e-011 7.071068e-011
7289489489.4895 0.00083046826 0.10773659 0.01443203 -0.01442209 7.071068e-011 7.071068e-011 7.071068e-011 7.071068e-011
7297897897.8979 0.084470682 0.050095454 0.0087011112 0.018520778 7.071068e-011 7.071068e-011 7.071068e-011 7.071068e-011
7306306306.3063 0.00113631 0.0093742879 -0.020273447 0.0015920129 7.071068e-011 7.071068e-011 7.071068e-011 7.071068e-011
7314714714.7147 0.004135699 0.11253189 0.0052739177 -0.020011358 7.071068e-011 7.071068e-011 7.071068e-011 7.071068e-011
7323123123.1231 0.11281639 0.075568728 0.016794685 0.011522165 7.071068e-011 7.071068e-011 7.071068e-011 7.071068e-011
7331531531.5315 0.051043011 -0.012339447 -0.017039642 0.011594718 7.071068e-011 7.071068e-011 7.071068e-011 7.071068e-011
7339939939.9399 0.0077421418 0.069419838 -0.0053055934 -0.020226471 7.071068e-011 7.071068e-011 7.071068e-011 7.071068e-011
7348348348.3483 0.10614831 0.063110389 0.020602129 0.0018390074 7.071068e-011 7.071068e-011 7.071068e-011 7.071068e-011
7356756756.7568 0.065349899 -0.036932249 -0.0090191532 0.018522359 7.071068e-011 7.071068e-011 7.071068e-011 7.071068e-011
7365165165.1652 -0.0096694017 0.021263685 -0.014557944 -0.014929678 7.071068e-011 7.071068e-011 7.071068e-011 7.071068e-011
7373573573.5736 0.061379272 0.04940521 0.018714881 -0.0084825587 7.071068e-011 7.071068e-011 7.071068e-011 7.071068e-011
7381981981.982 0.044028424 -0.035118572 0.0011077741 0.020810541 7.071068e-011 7.071068e-011 7.071068e-011 7.071068e-011
7390390390.3904 -0.043269951 0.0094010504 -0.020055389 -0.0060134605 7.071068e-011 7.071068e-011 7.071068e-011 7.071068e-011
7398798798.7988 0.013179258 0.071709611 0.012656265 -0.016494086 7.071068e-011 7.071068e-011 7.071068e-011 7.071068e-011
7407207207.2072 0.028008414 0.0091129905 0.011080282 0.017684525 7.071068e-011 7.071068e-011 7.071068e-011 7.071068e-011
7415615615.6156 -0.041436881 0.035950135 -0.020555172 0.0043924344 7.071068e-011 7.071068e-011 7.071068e-011 7.071068e-011
7424024024.024 0.00747034 0.10481133 0.0029504055 -0.020735366 7.071068e-011 7.071068e-011 7.071068e-011 7.071068e-011
7432432432.4324 0.054150023 0.053947009 0.018433738 0.010202492 7.071068e-011 7.071068e-011 7.071068e-011 7.071068e-011
7440840840.8408 0.010125809 0.042640716 -0.015851138 0.013894658 7.071068e-011 7.071068e-011 7.071068e-011 7.071068e-011
7449249249.2492 0.030034089 0.086840674 -0.0072778682 -0.019552184 7.071068e-011 7.071068e-011 7.071068e-011 7.071068e-011
7457657657.6577 0.07817959 0.04933171 0.020934932 0.00010981235 7.071068e-011 7.071068e-011 7.071068e-011 7.071068e-011
7466066066.0661 0.041596215 0.013572236 -0.0073586684 0.019661099 7.071068e-011 7.071068e-011 7.071068e-011 7.071068e-011
7474474474.4745 0.030427864 0.03997184 -0.015745705 -0.013593521 7.071068e-011 7.071068e-011 7.071068e-011 7.071068e-011
7482882882.8829 0.060281806 0.028586097 0.01834337 -0.0097147012 7.071068e-011 7.071068e-011 7.071068e-011 7.071068e-011
7491291291.2913 0.038388267 -0.013140147 0.0026762553 0.020629864 7.071068e-011 7.071068e-011 7.071068e-011 7.071068e-011
7499699699.6997 -0.0028764775 0.0023977992 -0.020091346 -0.0047844285 7.071068e-011 7.071068e-011 7.071068e-011 7.071068e-011
7508108108.1081 0.0029535377 0.031852849 0.011516434 -0.017113332 7.071068e-011 7.071068e-011 7.071068e-011 7.071068e-011
7516516516.5165 0.019743016 0.012090494 0.011881592 0.016695011 7.071068e-011 7.071068e-011 7.071068e-011 7.071068e-011
7524924924.9249 -0.02675215 0.0062271743 -0.019705746 0.005065735 7.071068e-011 7.071068e-011 7.071068e-011 7.071068e-011
7533333333.3333 -0.029640518 0.066607945 0.002444963 -0.020190096 7.071068e-011 7.071068e-011 7.071068e-011 7.071068e-011
7541741741.7417 0.028049812 0.06819851 0.01799887 0.0093031134 7.071068e-011 7.071068e-011 7.071068e-011 7.071068e-011
7550150150.1502 0.012549357 0.021028219 -0.014972226 0.01306001 7.071068e-011 7.071068e-011 7.071068e-011 7.071068e-011
7558558558.5586 -0.014886741 0.068303511 -0.006801073 -0.018762626 7.071068e-011 7.071068e-011 7.071068e-011 7.071068e-011
7566966966.967 0.055307034 0.078156538 0.019731773 0.00042282708 7.071068e-011 7.071068e-011 7.071068e-011 7.071068e-011
7575375375.3754 0.053846564 0.00090600934 -0.0077445894 0.018232858 7.071068e-011 7.071068e-011 7.071068e-011 7.071068e-011
7583783783.7838 -0.01229601 0.024029106 -0.01424608 -0.013826746 7.071068e-011 7.071068e-011 7.071068e-011 7.071068e-011
7592192192.1922 0.045968127 0.06093898 0.017708581 -0.0082570082 7.071068e-011 7.071068e-011 7.071068e-011 7.071068e-011
7600600600.6006 0.051546592 -0.024971256 0.00091817736 0.019182654 7.071068e-011 7.071068e-011 7.071068e-011 7.071068e-011
7609009009.009 -0.038167689 -0.010105859 -0.018612769 -0.0063935104 7.071068e-011 7.071068e-011 7.071068e-011 7.071068e-011
7617417417.4174 -0.0046551423 0.057715766 0.012405361 -0.015122758 7.071068e-011 7.071068e-011 7.071068e-011 7.071068e-011
7625825825.8258 0.025915284 -0.0040118913 0.009334268 0.017137343 7.071068e-011 7.071068e-011 7.071068e-011 7.071068e-011
7634234234.2342 -0.060308501 0.0040375534 -0.019275913 0.0024676325 7.071068e-011 7.071068e-011 7.071068e-011 7.071068e-011
7642642642.6426 -0.026857093 0.09165708 0.004852673 -0.018660257 7.071068e-011 7.071068e-011 7.071068e-011 7.071068e-011
7651051051.0511 0.037951216 0.042508807 0.01556779 0.011479476 7.071068e-011 7.071068e-011 7.071068e-011 7.071068e-011
7659459459.4595 -0.030332336 0.017877689 -0.016495757 0.010564308 7.071068e-011 7.071068e-011 7.071068e-011 7.071068e-011
7667867867.8679 -0.011243566 0.10302363 -0.0038938478 -0.018827407 7.071068e-011 7.071068e-011 7.071068e-011 7.071068e-011
7676276276.2763 0.073948704 0.0583722 0.018837411 0.0038582513 7.071068e-011 7.071068e-011 7.071068e-011 7.071068e-011
7684684684.6847 0.020958045 -0.0035092903 -0.010576316 0.016421791 7.071068e-011 7.071068e-011 7.071068e-011 7.071068e-011
7693093093.0931 0.0011440484 0.054327473 -0.011379732 -0.015715808 7.071068e-011 7.071068e-011 7.071068e-011 7.071068e-011
7701501501.5015 0.07072074 0.032510798 0.018754555 -0.0048430427 7.071068e-011 7.071068e-011 7.071068e-011 7.071068e-011
7709909909.9099 0.023640689 -0.042403534 -0.0024902797 0.019259823 7.071068e-011 7.071068e-011 7.071068e-011 7.071068e-011
7718318318.3183 -0.033542395 0.01077354 -0.017019181 -0.0093793944 7.071068e-011 7.071068e-011 7.071068e-011 7.071068e-011
7726726726.7267 0.024903083 0.028124414 0.015171712 -0.012124179 7.071068e-011 7.071068e-011 7.071068e-011 7.071068e-011
7735135135.1351 0.0025782327 -0.041880149 0.0059214425 0.018658441 7.071068e-011 7.071068e-011 7.071068e-011 7.071068e-011
7743543543.5435 -0.075099736 0.00042559268 -0.019260842 -0.0013717919 7.071068e-011 7.071068e-011 7.071068e-011 7.071068e-011
7751951951.952 -0.029997647 0.06391836 0.0085551348 -0.017481048 7.071068e-011 7.071068e-011 7.071068e-011 7.071068e-011
7760360360.3604 -0.0030550081 0.017554998 0.013139074 0.014423499 7.071068e-011 7.071068e-011 7.071068e-011 7.071068e-011
7768768768.7688 -0.057998549 0.028465258 -0.018324899 0.0068717189 7.071068e-011 7.071068e-011 7.071068e-011 7.071068e-011
7777177177.1772 -0.027583404 0.095494851 0.00047864625 -0.019476928 7.071068e-011 7.071068e-011 7.071068e-011 7.071068e-011
7785585585.5856 0.034226507 0.058198623 0.017941283 0.0076088747 7.071068e-011 7.071068e-011 7.071068e-011 7.071068e-011
7793993993.994 -0.0059414147 0.027389897 -0.013628189 0.013596379 7.071068e-011 7.071068e-011 7.071068e-011 7.071068e-011
7802402402.4024 -0.00032285796 0.075545557 -0.007577349 -0.018065013 7.071068e-011 7.071068e-011 7.071068e-011 7.071068e-011
7810810810.8108 0.058192641 0.048326913 0.019486424 -0.00055331818 7.071068e-011 7.071068e-011 7.071068e-011 7.071068e-011
7819219219.2192 0.025628192 -0.0060204784 -0.0069502019 0.018114792 7.071068e-011 7.071068e-011 7.071068e-011 7.071068e-011
7827627627.6276 -0.0031936055 0.026729736 -0.014278238 -0.013206241 7.071068e-011 7.071068e-011 7.071068e-011 7.071068e-011
7836036036.036 0.037140969 0.02577731 0.017570825 -0.0083279125 7.071068e-011 7.071068e-011 7.071068e-011 7.071068e-011
7844444444.4444 0.016907249 -0.023657328 0.001222709 0.019467274 7.071068e-011 7.071068e-011 7.071068e-011 7.071068e-011
7852852852.8529 -0.028641962 0.0027659505 -0.018601773 -0.0061470815 7.071068e-011 7.071068e-011 7.071068e-011 7.071068e-011
7861261261.2613 0.0020127841 0.029975243 0.012490899 -0.014951109 7.071068e-011 7.071068e-011 7.071068e-011 7.071068e-011
7869669669.6697 0.0054235039 -0.0098667219 0.0090314411 0.017244611 7.071068e-011 7.071068e-011 7.071068e-011 7.071068e-011
7878078078.0781 -0.04066186 0.0039760116 -0.019509505 0.0020972493 7.071068e-011 7.071068e-011 7.071068e-011 7.071068e-011
7886486486.4865 -0.023961319 0.046586286 0.0051513952 -0.018778507 7.071068e-011 7.071068e-011 7.071068e-011 7.071068e-011
7894894894.8949 0.010440715 0.030402256 0.015269376 0.011690425 7.071068e-011 7.071068e-011 7.071068e-011 7.071068e-011
7903303303.3033 -0.013059596 0.011136447 -0.016758801 0.0096774446 7.071068e-011 7.071068e-011 7.071068e-011 7.071068e-011
7911711711.7117 -0.018327221 0.043783411 -0.0028756182 -0.019173963 7.071068e-011 7.071068e-011 7.071068e-011 7.071068e-011
7920120120.1201 0.023550095 0.0453104 0.018650873 0.0045047016 7.071068e-011 7.071068e-011 7.071068e-011 7.071068e-011
7928528528.5285 0.023338268 0.0013523113 -0.01115788 0.015590384 7.071068e-011 7.071068e-011 7.071068e-011 7.071068e-011
7936936936.9369 -0.010017249 0.011906016 -0.010158589 -0.01604376 7.071068e-011 7.071068e-011 7.071068e-011 7.071068e-011
7945345345.3453 0.018205388 0.031565499 0.018692175 -0.0032257352 7.071068e-011 7.071068e-011 7.071068e-011 7.071068e-011
