!Keysight Technologies,N5235B,MY61252044,A.15.00.15
!Date: Friday, January 20, 2023 23:33:40
!Correction: S11(Off) 
!S21(Off) 
!S12(Off) 
!S22(Off) 
!S2P File: Measurements: S11, S21, S12, S22:
# Hz S  RI   R 50
6600000000 0.01823481 -0.17504124 0.015182514 -0.0029946575 7.071068e-011 7.071068e-011 7.071068e-011 7.071068e-011
6608408408.4084 -0.12437943 0.16528109 0.0052127703 0.01065626 7.071068e-011 7.071068e-011 7.071068e-011 7.071068e-011
6616816816.8168 0.3057355 0.09291289 -0.008764144 0.0036299317 7.071068e-011 7.071068e-011 7.071068e-011 7.071068e-011
6625225225.2252 0.024927881 -0.27301869 -0.001757365 -0.0091442969 7.071068e-011 7.071068e-011 7.071068e-011 7.071068e-011
6633633633.6336 -0.16598547 0.16134661 0.0091678984 -0.00038110523 7.071068e-011 7.071068e-011 7.071068e-011 7.071068e-011
6642042042.042 0.29008678 0.11322841 -0.001838105 0.0091479197 7.071068e-011 7.071068e-011 7.071068e-011 7.071068e-011
6650450450.4505 0.038954318 -0.25206405 -0.010539845 -0.0040458557 7.071068e-011 7.071068e-011 7.071068e-011 7.071068e-011
6658858858.8589 -0.14813215 0.13436761 0.005900796 -0.011313162 7.071068e-011 7.071068e-011 7.071068e-011 7.071068e-011
6667267267.2673 0.22815441 0.10114796 0.01202264 0.0090309782 7.071068e-011 7.071068e-011 7.071068e-011 7.071068e-011
6675675675.6757 0.043224636 -0.15077826 -0.011323188 0.01362391 7.071068e-011 7.071068e-011 7.071068e-011 7.071068e-011
6684084084.0841 -0.044691049 0.083668508 -0.014357698 -0.013074172 7.071068e-011 7.071068e-011 7.071068e-011 7.071068e-011
6692492492.4925 0.10619146 0.04801489 0.014532295 -0.014606984 7.071068e-011 7.071068e-011 7.071068e-011 7.071068e-011
6700900900.9009 0.085463196 0.017882418 0.014451117 0.015166406 7.071068e-011 7.071068e-011 7.071068e-011 7.071068e-011
6709309309.3093 0.077742532 -0.041446909 -0.015328591 0.012848764 7.071068e-011 7.071068e-011 7.071068e-011 7.071068e-011
6717717717.7177 -0.031550419 0.03388888 -0.009954324 -0.016243938 7.071068e-011 7.071068e-011 7.071068e-011 7.071068e-011
6726126126.1261 0.15522353 0.11673814 0.016543215 -0.0069705248 7.071068e-011 7.071068e-011 7.071068e-011 7.071068e-011
6734534534.5345 0.12863348 -0.14099248 0.0035107925 0.015971746 7.071068e-011 7.071068e-011 7.071068e-011 7.071068e-011
6742942942.9429 -0.10788693 0.026913315 -0.015644453 -0.00026620354 7.071068e-011 7.071068e-011 7.071068e-011 7.071068e-011
6751351351.3514 0.17146599 0.15228058 0.0035470803 -0.015103817 7.071068e-011 7.071068e-011 7.071068e-011 7.071068e-011
6759759759.7598 0.15061696 -0.17110549 0.012949242 0.0069426531 7.071068e-011 7.071068e-011 7.071068e-011 7.071068e-011
6768168168.1682 -0.14657889 -0.0059568505 -0.010670276 0.010219519 7.071068e-011 7.071068e-011 7.071068e-011 7.071068e-011
6776576576.5766 0.13346151 0.17917567 -0.0078494688 -0.01323965 7.071068e-011 7.071068e-011 7.071068e-011 7.071068e-011
6784984984.985 0.15177266 -0.14612749 0.014307097 -0.0039291801 7.071068e-011 7.071068e-011 7.071068e-011 7.071068e-011
6793393393.3934 -0.14779373 -0.0068008676 -0.00036923931 0.015255108 7.071068e-011 7.071068e-011 7.071068e-011 7.071068e-011
6801801801.8018 0.10174143 0.20281531 -0.015453633 -0.0042549367 7.071068e-011 7.071068e-011 7.071068e-011 7.071068e-011
6810210210.2102 0.17217925 -0.09496779 0.0085532553 -0.014196172 7.071068e-011 7.071068e-011 7.071068e-011 7.071068e-011
6818618618.6186 -0.10495137 -0.010208103 0.011950315 0.013037205 7.071068e-011 7.071068e-011 7.071068e-011 7.071068e-011
6827027027.027 0.087494493 0.18506606 -0.015701199 0.0090652453 7.071068e-011 7.071068e-011 7.071068e-011 7.071068e-011
6835435435.4354 0.18153246 -0.048160188 -0.0044232393 -0.017585713 7.071068e-011 7.071068e-011 7.071068e-011 7.071068e-011
6843843843.8438 -0.045173224 -0.028678879 0.019802149 0.00024237118 7.071068e-011 7.071068e-011 7.071068e-011 7.071068e-011
6852252252.2523 0.074328087 0.12976274 -0.0045239944 0.019917266 7.071068e-011 7.071068e-011 7.071068e-011 7.071068e-011
6860660660.6607 0.14551568 -0.020659501 -0.018254474 -0.0094785234 7.071068e-011 7.071068e-011 7.071068e-011 7.071068e-011
6869069069.0691 0.0037736017 -0.026694732 0.014323077 -0.015795518 7.071068e-011 7.071068e-011 7.071068e-011 7.071068e-011
6877477477.4775 0.054495338 0.072235249 0.012459219 0.017828099 7.071068e-011 7.071068e-011 7.071068e-011 7.071068e-011
6885885885.8859 0.089822233 0.0070683323 -0.020138482 0.007581579 7.071068e-011 7.071068e-011 7.071068e-011 7.071068e-011
6894294294.2943 0.04783028 -0.00092806551 -0.0022831326 -0.021654524 7.071068e-011 7.071068e-011 7.071068e-011 7.071068e-011
6902702702.7027 0.037709087 0.019083705 0.021604005 0.003176345 7.071068e-011 7.071068e-011 7.071068e-011 7.071068e-011
6911111111.1111 0.031457197 0.038068786 -0.0086290892 0.019832416 7.071068e-011 7.071068e-011 7.071068e-011 7.071068e-011
6919519519.5195 0.077881023 0.049465697 -0.016616402 -0.013407357 7.071068e-011 7.071068e-011 7.071068e-011 7.071068e-011
6927927927.9279 0.051056117 -0.011828797 0.016981013 -0.012519043 7.071068e-011 7.071068e-011 7.071068e-011 7.071068e-011
6936336336.3363 -0.0022949982 0.061578117 0.0071187322 0.019182075 7.071068e-011 7.071068e-011 7.071068e-011 7.071068e-011
6944744744.7447 0.11231245 0.089929894 -0.020514933 0.0011162015 7.071068e-011 7.071068e-011 7.071068e-011 7.071068e-011
6953153153.1532 0.084625572 -0.045961577 0.0044140927 -0.019680714 7.071068e-011 7.071068e-011 7.071068e-011 7.071068e-011
6961561561.5616 -0.028754497 0.054706205 0.017051153 0.0097705396 7.071068e-011 7.071068e-011 7.071068e-011 7.071068e-011
6969969969.97 0.125085 0.10571583 -0.014250297 0.013308141 7.071068e-011 7.071068e-011 7.071068e-011 7.071068e-011
6978378378.3784 0.10120448 -0.070709504 -0.0082161892 -0.017061843 7.071068e-011 7.071068e-011 7.071068e-011 7.071068e-011
6986786786.7868 -0.063529208 0.032759935 0.018402653 -0.0022107365 7.071068e-011 7.071068e-011 7.071068e-011 7.071068e-011
6995195195.1952 0.10245466 0.13368125 -0.0035278553 0.018589994 7.071068e-011 7.071068e-011 7.071068e-011 7.071068e-011
7003603603.6036 0.10929136 -0.057492472 -0.01631745 -0.0087906467 7.071068e-011 7.071068e-011 7.071068e-011 7.071068e-011
7012012012.012 -0.072856262 0.031966679 0.013909268 -0.012259051 7.071068e-011 7.071068e-011 7.071068e-011 7.071068e-011
7020420420.4204 0.088023707 0.16190284 0.0076575666 0.017058684 7.071068e-011 7.071068e-011 7.071068e-011 7.071068e-011
7028828828.8288 0.13278665 -0.029436408 -0.018230906 0.0017969253 7.071068e-011 7.071068e-011 7.071068e-011 7.071068e-011
7037237237.2372 -0.054222167 0.031043205 0.0043443255 -0.018337997 7.071068e-011 7.071068e-011 7.071068e-011 7.071068e-011
7045645645.6456 0.090374202 0.17062019 0.016173465 0.0096361013 7.071068e-011 7.071068e-011 7.071068e-011 7.071068e-011
7054054054.0541 0.16713077 -0.0029475568 -0.014424643 0.011835866 7.071068e-011 7.071068e-011 7.071068e-011 7.071068e-011
7062462462.4625 -0.0075951316 -0.0039410554 -0.0067082276 -0.018151075 7.071068e-011 7.071068e-011 7.071068e-011 7.071068e-011
7070870870.8709 0.077764146 0.14012377 0.019422146 -0.0011507706 7.071068e-011 7.071068e-011 7.071068e-011 7.071068e-011
7079279279.2793 0.16871694 0.0077903979 -0.0054880641 0.018458713 7.071068e-011 7.071068e-011 7.071068e-011 7.071068e-011
7087687687.6877 0.032279149 -0.027489822 -0.016346002 -0.011336701 7.071068e-011 7.071068e-011 7.071068e-011 7.071068e-011
7096096096.0961 0.059619788 0.089762211 0.015718888 -0.012260919 7.071068e-011 7.071068e-011 7.071068e-011 7.071068e-011
7104504504.5045 0.1477989 0.0099134929 0.0064127725 0.018858623 7.071068e-011 7.071068e-011 7.071068e-011 7.071068e-011
7112912912.9129 0.050662961 -0.044230714 -0.020332228 -0.00012213147 7.071068e-011 7.071068e-011 7.071068e-011 7.071068e-011
7121321321.3213 0.03474851 0.031575371 0.0061917566 -0.019528495 7.071068e-011 7.071068e-011 7.071068e-011 7.071068e-011
7129729729.7297 0.088798925 0.014620371 0.016178504 0.011861107 7.071068e-011 7.071068e-011 7.071068e-011 7.071068e-011
7138138138.1381 0.043968201 -0.037719291 -0.016870717 0.011495034 7.071068e-011 7.071068e-011 7.071068e-011 7.071068e-011
7146546546.5465 -0.0010466387 0.013355548 -0.0057201195 -0.019758008 7.071068e-011 7.071068e-011 7.071068e-011 7.071068e-011
7154954954.955 0.031104429 0.041725479 0.020428838 0.00088912778 7.071068e-011 7.071068e-011 7.071068e-011 7.071068e-011
7163363363.3634 0.04460448 0.015274242 -0.0075897253 0.018764049 7.071068e-011 7.071068e-011 7.071068e-011 7.071068e-011
7171771771.7718 0.0013987161 0.020791203 -0.01547897 -0.013310104 7.071068e-011 7.071068e-011 7.071068e-011 7.071068e-011
7180180180.1802 0.018430367 0.071986325 0.017377686 -0.010220737 7.071068e-011 7.071068e-011 7.071068e-011 7.071068e-011
7188588588.5886 0.067579485 0.056642532 0.0038226515 0.02014499 7.071068e-011 7.071068e-011 7.071068e-011 7.071068e-011
7196996996.997 0.04025054 0.0097688362 -0.020288885 -0.0026887031 7.071068e-011 7.071068e-011 7.071068e-011 7.071068e-011
7205405405.4054 0.011820493 0.067252837 0.009371561 -0.017707964 7.071068e-011 7.071068e-011 7.071068e-011 7.071068e-011
7213813813.8138 0.08370848 0.067276672 0.013600322 0.014926615 7.071068e-011 7.071068e-011 7.071068e-011 7.071068e-011
7222222222.2222 0.065724865 -0.0056976001 -0.018659104 0.0080565615 7.071068e-011 7.071068e-011 7.071068e-011 7.071068e-011
7230630630.6306 -0.00084303791 0.035447508 -0.0013710844 -0.020147329 7.071068e-011 7.071068e-011 7.071068e-011 7.071068e-011
7239039039.039 0.071155921 0.07512293 0.019625029 0.005806786 7.071068e-011 7.071068e-011 7.071068e-011 7.071068e-011
7247447447.4474 0.075440735 -0.014230181 -0.011857877 0.016708063 7.071068e-011 7.071068e-011 7.071068e-011 7.071068e-011
7255855855.8559 -0.016535128 0.0067521674 -0.01141778 -0.016769523 7.071068e-011 7.071068e-011 7.071068e-011 7.071068e-011
7264264264.2643 0.03457677 0.084530637 0.019813696 -0.0052606505 7.071068e-011 7.071068e-011 7.071068e-011 7.071068e-011
7272672672.6727 0.074797727 0.00037166098 -0.0014871804 0.02021157 7.071068e-011 7.071068e-011 7.071068e-011 7.071068e-011
7281081081.0811 -0.030301966 0.00093271711 -0.018412972 -0.0083160475 7.071068e-011 7.071068e-011 7.071068e-011 7.071068e-011
7289489489.4895 0.00043465901 0.10758332 0.014469859 -0.014360846 7.071068e-011 7.071068e-011 7.071068e-011 7.071068e-011
7297897897.8979 0.084480107 0.050534643 0.008637757 0.018533289 7.071068e-011 7.071068e-011 7.071068e-011 7.071068e-011
7306306306.3063 0.001528329 0.0091842366 -0.020262593 0.0015229676 7.071068e-011 7.071068e-011 7.071068e-011 7.071068e-011
7314714714.7147 0.0038108293 0.1122622 0.0053328029 -0.019977966 7.071068e-011 7.071068e-011 7.071068e-011 7.071068e-011
7323123123.1231 0.1126877 0.075954385 0.016745307 0.011564722 7.071068e-011 7.071068e-011 7.071068e-011 7.071068e-011
7331531531.5315 0.051453229 -0.0123718 -0.017063065 0.011528206 7.071068e-011 7.071068e-011 7.071068e-011 7.071068e-011
7339939939.9399 0.007568778 0.069037616 -0.0052357195 -0.020225611 7.071068e-011 7.071068e-011 7.071068e-011 7.071068e-011
7348348348.3483 0.10587281 0.063395128 0.020580947 0.001903964 7.071068e-011 7.071068e-011 7.071068e-011 7.071068e-011
7356756756.7568 0.065720789 -0.036819108 -0.0090730404 0.018479049 7.071068e-011 7.071068e-011 7.071068e-011 7.071068e-011
7365165165.1652 -0.0097368974 0.020858644 -0.014496676 -0.014968338 7.071068e-011 7.071068e-011 7.071068e-011 7.071068e-011
7373573573.5736 0.061041955 0.049614955 0.01872943 -0.0084158462 7.071068e-011 7.071068e-011 7.071068e-011 7.071068e-011
7381981981.982 0.044313625 -0.034914915 0.0010397022 0.020797905 7.071068e-011 7.071068e-011 7.071068e-011 7.071068e-011
7390390390.3904 -0.043220069 0.0090807322 -0.020018123 -0.0060761832 7.071068e-011 7.071068e-011 7.071068e-011 7.071068e-011
7398798798.7988 0.01286769 0.071788542 0.012695944 -0.016441084 7.071068e-011 7.071068e-011 7.071068e-011 7.071068e-011
7407207207.2072 0.028183226 0.0093687316 0.011011172 0.017707227 7.071068e-011 7.071068e-011 7.071068e-011 7.071068e-011
7415615615.6156 -0.041272979 0.035698656 -0.02055151 0.0043174746 7.071068e-011 7.071068e-011 7.071068e-011 7.071068e-011
7424024024.024 0.0071751103 0.10476678 0.0030113591 -0.020710496 7.071068e-011 7.071068e-011 7.071068e-011 7.071068e-011
7432432432.4324 0.054232717 0.054215115 0.018383514 0.010257194 7.071068e-011 7.071068e-011 7.071068e-011 7.071068e-011
7440840840.8408 0.010320875 0.042472344 -0.015887147 0.01382813 7.071068e-011 7.071068e-011 7.071068e-011 7.071068e-011
7449249249.2492 0.029840598 0.086729445 -0.0072122072 -0.019558789 7.071068e-011 7.071068e-011 7.071068e-011 7.071068e-011
7457657657.6577 0.078165635 0.049509738 0.020918058 0.00018018781 7.071068e-011 7.071068e-011 7.071068e-011 7.071068e-011
7466066066.0661 0.041754916 0.013511327 -0.0074218963 0.019619815 7.071068e-011 7.071068e-011 7.071068e-011 7.071068e-011
7474474474.4745 0.030340472 0.039804168 -0.015691105 -0.013628745 7.071068e-011 7.071068e-011 7.071068e-011 7.071068e-011
7482882882.8829 0.06013076 0.02869688 0.018361365 -0.0096453242 7.071068e-011 7.071068e-011 7.071068e-011 7.071068e-011
7491291291.2913 0.03853396 -0.013059199 0.0026004657 0.02062019 7.071068e-011 7.071068e-011 7.071068e-011 7.071068e-011
7499699699.6997 -0.0028599766 0.002232638 -0.020060714 -0.0048410571 7.071068e-011 7.071068e-011 7.071068e-011 7.071068e-011
7508108108.1081 0.0027844782 0.031859223 0.011566756 -0.017057244 7.071068e-011 7.071068e-011 7.071068e-011 7.071068e-011
7516516516.5165 0.019777874 0.012256964 0.01181177 0.016725035 7.071068e-011 7.071068e-011 7.071068e-011 7.071068e-011
7524924924.9249 -0.026587306 0.0061393254 -0.019707561 0.0050023659 7.071068e-011 7.071068e-011 7.071068e-011 7.071068e-011
7533333333.3333 -0.02978497 0.066451259 0.0025147793 -0.020167381 7.071068e-011 7.071068e-011 7.071068e-011 7.071068e-011
7541741741.7417 0.02792681 0.068404615 0.017954165 0.0093564345 7.071068e-011 7.071068e-011 7.071068e-011 7.071068e-011
7550150150.1502 0.012829667 0.021053787 -0.015001583 0.013003946 7.071068e-011 7.071068e-011 7.071068e-011 7.071068e-011
7558558558.5586 -0.014980595 0.068027273 -0.0067302701 -0.018772023 7.071068e-011 7.071068e-011 7.071068e-011 7.071068e-011
7566966966.967 0.055103831 0.078325361 0.019711198 0.0004873797 7.071068e-011 7.071068e-011 7.071068e-011 7.071068e-011
7575375375.3754 0.054101478 0.0010186146 -0.0077918796 0.018192178 7.071068e-011 7.071068e-011 7.071068e-011 7.071068e-011
7583783783.7838 -0.012265168 0.023710832 -0.014181498 -0.013868529 7.071068e-011 7.071068e-011 7.071068e-011 7.071068e-011
7592192192.1922 0.045651864 0.061013583 0.017723052 -0.0081888577 7.071068e-011 7.071068e-011 7.071068e-011 7.071068e-011
7600600600.6006 0.051750213 -0.024719544 0.00085862871 0.019169606 7.071068e-011 7.071068e-011 7.071068e-011 7.071068e-011
7609009009.009 -0.038027152 -0.01042792 -0.018574487 -0.0064578387 7.071068e-011 7.071068e-011 7.071068e-011 7.071068e-011
7617417417.4174 -0.0050293081 0.057711266 0.012447929 -0.015068742 7.071068e-011 7.071068e-011 7.071068e-011 7.071068e-011
7625825825.8258 0.026082505 -0.0036896484 0.0092782425 0.017151171 7.071068e-011 7.071068e-011 7.071068e-011 7.071068e-011
7634234234.2342 -0.060102258 0.0037392895 -0.019270131 0.0023949954 7.071068e-011 7.071068e-011 7.071068e-011 7.071068e-011
7642642642.6426 -0.027190454 0.091569558 0.0049128882 -0.01862946 7.071068e-011 7.071068e-011 7.071068e-011 7.071068e-011
7651051051.0511 0.037994675 0.04283822 0.015522716 0.011514727 7.071068e-011 7.071068e-011 7.071068e-011 7.071068e-011
7659459459.4595 -0.030018745 0.017699264 -0.016522467 0.010492262 7.071068e-011 7.071068e-011 7.071068e-011 7.071068e-011
7667867867.8679 -0.011525864 0.10278703 -0.0038255488 -0.018826352 7.071068e-011 7.071068e-011 7.071068e-011 7.071068e-011
7676276276.2763 0.073855989 0.058715507 0.018809229 0.0039100698 7.071068e-011 7.071068e-011 7.071068e-011 7.071068e-011
7684684684.6847 0.021317404 -0.0035942364 -0.010627693 0.016367739 7.071068e-011 7.071068e-011 7.071068e-011 7.071068e-011
7693093093.0931 0.00093855622 0.054023087 -0.011316555 -0.015743406 7.071068e-011 7.071068e-011 7.071068e-011 7.071068e-011
7701501501.5015 0.070556454 0.032775998 0.018753059 -0.0047841771 7.071068e-011 7.071068e-011 7.071068e-011 7.071068e-011
7709909909.9099 0.023938166 -0.042393178 -0.0025581948 0.019234583 7.071068e-011 7.071068e-011 7.071068e-011 7.071068e-011
7718318318.3183 -0.033630427 0.010457415 -0.016972065 -0.0094309291 7.071068e-011 7.071068e-011 7.071068e-011 7.071068e-011
7726726726.7267 0.024620662 0.028282078 0.01519591 -0.012069329 7.071068e-011 7.071068e-011 7.071068e-011 7.071068e-011
7735135135.1351 0.0028288814 -0.041678566 0.0058482904 0.018666172 7.071068e-011 7.071068e-011 7.071068e-011 7.071068e-011
7743543543.5435 -0.075004779 9.0954651e-005 -0.019241307 -0.0014371015 7.071068e-011 7.071068e-011 7.071068e-011 7.071068e-011
7751951951.952 -0.030333741 0.063958399 0.0086003607 -0.017441064 7.071068e-011 7.071068e-011 7.071068e-011 7.071068e-011
7760360360.3604 -0.00288854 0.017814629 0.013077362 0.014459479 7.071068e-011 7.071068e-011 7.071068e-011 7.071068e-011
7768768768.7688 -0.057824653 0.028243696 -0.018335301 0.0068070088 7.071068e-011 7.071068e-011 7.071068e-011 7.071068e-011
7777177177.1772 -0.027814437 0.095400497 0.0005353617 -0.019459568 7.071068e-011 7.071068e-011 7.071068e-011 7.071068e-011
7785585585.5856 0.034230534 0.058432832 0.017898656 0.0076641897 7.071068e-011 7.071068e-011 7.071068e-011 7.071068e-011
7793993993.994 -0.0056839632 0.027286794 -0.013661576 0.013539928 7.071068e-011 7.071068e-011 7.071068e-011 7.071068e-011
7802402402.4024 -0.00049458299 0.075307876 -0.0075139124 -0.018071346 7.071068e-011 7.071068e-011 7.071068e-011 7.071068e-011
7810810810.8108 0.058077432 0.048552472 0.019468529 -0.0004833733 7.071068e-011 7.071068e-011 7.071068e-011 7.071068e-011
7819219219.2192 0.025894629 -0.0060630585 -0.0069988267 0.018075222 7.071068e-011 7.071068e-011 7.071068e-011 7.071068e-011
7827627627.6276 -0.0033067248 0.026490139 -0.014223062 -0.013238111 7.071068e-011 7.071068e-011 7.071068e-011 7.071068e-011
7836036036.036 0.036992501 0.025904246 0.017583672 -0.0082600834 7.071068e-011 7.071068e-011 7.071068e-011 7.071068e-011
7844444444.4444 0.017061299 -0.023592135 0.0011648603 0.019451568 7.071068e-011 7.071068e-011 7.071068e-011 7.071068e-011
7852852852.8529 -0.028616399 0.0025603527 -0.018561253 -0.0061998945 7.071068e-011 7.071068e-011 7.071068e-011 7.071068e-011
7861261261.2613 0.0017870074 0.030002996 0.012526822 -0.014893089 7.071068e-011 7.071068e-011 7.071068e-011 7.071068e-011
7869669669.6697 0.0055497494 -0.0096722683 0.0089682434 0.017251838 7.071068e-011 7.071068e-011 7.071068e-011 7.071068e-011
7878078078.0781 -0.040537231 0.0037721861 -0.019492723 0.0020307945 7.071068e-011 7.071068e-011 7.071068e-011 7.071068e-011
7886486486.4865 -0.024154034 0.046536259 0.0052068611 -0.018740311 7.071068e-011 7.071068e-011 7.071068e-011 7.071068e-011
7894894894.8949 0.010453609 0.030559892 0.015213259 0.011724864 7.071068e-011 7.071068e-011 7.071068e-011 7.071068e-011
7903303303.3033 -0.012900745 0.011093042 -0.016765852 0.009615941 7.071068e-011 7.071068e-011 7.071068e-011 7.071068e-011
7911711711.7117 -0.018367674 0.043606225 -0.0028114016 -0.019156981 7.071068e-011 7.071068e-011 7.071068e-011 7.071068e-011
7920120120.1201 0.023402655 0.045398816 0.018606525 0.0045563057 7.071068e-011 7.071068e-011 7.071068e-011 7.071068e-011
7928528528.5285 0.023526883 0.0014352557 -0.011188149 0.015531714 7.071068e-011 7.071068e-011 7.071068e-011 7.071068e-011
7936936936.9369 -0.0099965306 0.011662044 -0.010081748 -0.016055329 7.071068e-011 7.071068e-011 7.071068e-011 7.071068e-011
7945345345.3453 0.017992463 0.031597961 0.018673331 -0.003154682 7.071068e-011 7.071068e-011 7.071068e-011 7.071068e-011
