!Keysight Technologies,N5235B,MY61252044,A.15.00.15
!Date: Saturday, January 21, 2023 00:01:45
!Correction: S11(Off) 
!S21(Off) 
!S12(Off) 
!S22(Off) 
!S2P File: Measurements: S11, S21, S12, S22:
# Hz S  RI   R 50
6600000000 0.018674485 -0.17521922 0.01517635 -0.0029902123 7.071068e-011 7.071068e-011 7.071068e-011 7.071068e-011
6608408408.4084 -0.12476709 0.1648283 0.0052036326 0.010656044 7.071068e-011 7.071068e-011 7.071068e-011 7.071068e-011
6616816816.8168 0.30547309 0.093495585 -0.0087649385 0.0036245107 7.071068e-011 7.071068e-011 7.071068e-011 7.071068e-011
6625225225.2252 0.025623418 -0.27302566 -0.0017469384 -0.0091435518 7.071068e-011 7.071068e-011 7.071068e-011 7.071068e-011
6633633633.6336 -0.16635558 0.16072936 0.0091688875 -0.00037141281 7.071068e-011 7.071068e-011 7.071068e-011 7.071068e-011
6642042042.042 0.28973433 0.11380266 -0.0018443862 0.0091483267 7.071068e-011 7.071068e-011 7.071068e-011 7.071068e-011
6650450450.4505 0.039591707 -0.25201181 -0.010537188 -0.0040582982 7.071068e-011 7.071068e-011 7.071068e-011 7.071068e-011
6658858858.8589 -0.14838381 0.13383016 0.0059126024 -0.011309223 7.071068e-011 7.071068e-011 7.071068e-011 7.071068e-011
6667267267.2673 0.22784337 0.10154555 0.012019916 0.0090389 7.071068e-011 7.071068e-011 7.071068e-011 7.071068e-011
6675675675.6757 0.043629888 -0.1506902 -0.011336944 0.01361643 7.071068e-011 7.071068e-011 7.071068e-011 7.071068e-011
6684084084.0841 -0.044766136 0.08335302 -0.014347914 -0.013086242 7.071068e-011 7.071068e-011 7.071068e-011 7.071068e-011
6692492492.4925 0.10600241 0.048126955 0.014537016 -0.014598479 7.071068e-011 7.071068e-011 7.071068e-011 7.071068e-011
6700900900.9009 0.085513107 0.017996559 0.014437156 0.015176138 7.071068e-011 7.071068e-011 7.071068e-011 7.071068e-011
6709309309.3093 0.077907011 -0.041464407 -0.015340239 0.012833175 7.071068e-011 7.071068e-011 7.071068e-011 7.071068e-011
6717717717.7177 -0.031634085 0.033635642 -0.0099421814 -0.016248692 7.071068e-011 7.071068e-011 7.071068e-011 7.071068e-011
6726126126.1261 0.15495247 0.11696096 0.016548665 -0.0069511216 7.071068e-011 7.071068e-011 7.071068e-011 7.071068e-011
6734534534.5345 0.12901275 -0.14083676 0.003490191 0.01597373 7.071068e-011 7.071068e-011 7.071068e-011 7.071068e-011
6742942942.9429 -0.10793354 0.026452703 -0.015641639 -0.00027781996 7.071068e-011 7.071068e-011 7.071068e-011 7.071068e-011
6751351351.3514 0.17106488 0.15253177 0.0035656923 -0.015100873 7.071068e-011 7.071068e-011 7.071068e-011 7.071068e-011
6759759759.7598 0.15102021 -0.17084682 0.01294126 0.006960324 7.071068e-011 7.071068e-011 7.071068e-011 7.071068e-011
6768168168.1682 -0.14651807 -0.0064673624 -0.010679732 0.010210063 7.071068e-011 7.071068e-011 7.071068e-011 7.071068e-011
6776576576.5766 0.13296896 0.17935839 -0.0078331586 -0.013247793 7.071068e-011 7.071068e-011 7.071068e-011 7.071068e-011
6784984984.985 0.15215227 -0.14578497 0.014309809 -0.0039110663 7.071068e-011 7.071068e-011 7.071068e-011 7.071068e-011
6793393393.3934 -0.14766683 -0.0072984127 -0.0003841962 0.015251657 7.071068e-011 7.071068e-011 7.071068e-011 7.071068e-011
6801801801.8018 0.1012544 0.20292458 -0.015446441 -0.0042706789 7.071068e-011 7.071068e-011 7.071068e-011 7.071068e-011
6810210210.2102 0.17248118 -0.094609261 0.0085734352 -0.014183249 7.071068e-011 7.071068e-011 7.071068e-011 7.071068e-011
6818618618.6186 -0.10478523 -0.010614601 0.011934795 0.013047749 7.071068e-011 7.071068e-011 7.071068e-011 7.071068e-011
6827027027.027 0.087090939 0.18507773 -0.0157062 0.0090503534 7.071068e-011 7.071068e-011 7.071068e-011 7.071068e-011
6835435435.4354 0.18169262 -0.047829445 -0.0043977047 -0.017589938 7.071068e-011 7.071068e-011 7.071068e-011 7.071068e-011
6843843843.8438 -0.044967674 -0.028958172 0.019800359 0.00026266067 7.071068e-011 7.071068e-011 7.071068e-011 7.071068e-011
6852252252.2523 0.074022956 0.12971708 -0.0045400029 0.019912802 7.071068e-011 7.071068e-011 7.071068e-011 7.071068e-011
6860660660.6607 0.14559385 -0.020424673 -0.018238252 -0.0095019415 7.071068e-011 7.071068e-011 7.071068e-011 7.071068e-011
6869069069.0691 0.0039158901 -0.026851667 0.014337449 -0.015776424 7.071068e-011 7.071068e-011 7.071068e-011 7.071068e-011
6877477477.4775 0.054341789 0.072179422 0.012437896 0.017838731 7.071068e-011 7.071068e-011 7.071068e-011 7.071068e-011
6885885885.8859 0.089807585 0.0071560265 -0.020145496 0.0075545739 7.071068e-011 7.071068e-011 7.071068e-011 7.071068e-011
6894294294.2943 0.047890607 -0.00091926509 -0.0022581869 -0.021655034 7.071068e-011 7.071068e-011 7.071068e-011 7.071068e-011
6902702702.7027 0.037712906 0.019010978 0.021598822 0.003198205 7.071068e-011 7.071068e-011 7.071068e-011 7.071068e-011
6911111111.1111 0.031382393 0.038048364 -0.0086508282 0.019817403 7.071068e-011 7.071068e-011 7.071068e-011 7.071068e-011
6919519519.5195 0.077859819 0.049549855 -0.016595785 -0.013425239 7.071068e-011 7.071068e-011 7.071068e-011 7.071068e-011
6927927927.9279 0.051169727 -0.01182982 0.016992401 -0.012498557 7.071068e-011 7.071068e-011 7.071068e-011 7.071068e-011
6936336336.3363 -0.0023549835 0.061427131 0.0070942771 0.019187961 7.071068e-011 7.071068e-011 7.071068e-011 7.071068e-011
6944744744.7447 0.11216733 0.090068586 -0.020512709 0.0010892978 7.071068e-011 7.071068e-011 7.071068e-011 7.071068e-011
6953153153.1532 0.084854424 -0.045889836 0.0044359877 -0.019670658 7.071068e-011 7.071068e-011 7.071068e-011 7.071068e-011
6961561561.5616 -0.028820988 0.054441512 0.017035255 0.0097914077 7.071068e-011 7.071068e-011 7.071068e-011 7.071068e-011
6969969969.97 0.12488478 0.10589452 -0.014265269 0.013287043 7.071068e-011 7.071068e-011 7.071068e-011 7.071068e-011
6978378378.3784 0.10146248 -0.07059516 -0.0081962328 -0.017068144 7.071068e-011 7.071068e-011 7.071068e-011 7.071068e-011
6986786786.7868 -0.063540727 0.03245772 0.018401813 -0.0021856423 7.071068e-011 7.071068e-011 7.071068e-011 7.071068e-011
6995195195.1952 0.10218986 0.13381921 -0.0035511085 0.018582955 7.071068e-011 7.071068e-011 7.071068e-011 7.071068e-011
7003603603.6036 0.10953585 -0.057293333 -0.01630407 -0.0088087721 7.071068e-011 7.071068e-011 7.071068e-011 7.071068e-011
7012012012.012 -0.072796509 0.031634998 0.013923842 -0.012236917 7.071068e-011 7.071068e-011 7.071068e-011 7.071068e-011
7020420420.4204 0.087688178 0.16199075 0.0076349173 0.01706435 7.071068e-011 7.071068e-011 7.071068e-011 7.071068e-011
7028828828.8288 0.13301535 -0.02918317 -0.018231552 0.0017732959 7.071068e-011 7.071068e-011 7.071068e-011 7.071068e-011
7037237237.2372 -0.054124333 0.030717537 0.0043698787 -0.018330256 7.071068e-011 7.071068e-011 7.071068e-011 7.071068e-011
7045645645.6456 0.090072088 0.17065699 0.016158309 0.0096535189 7.071068e-011 7.071068e-011 7.071068e-011 7.071068e-011
7054054054.0541 0.16726629 -0.0026994669 -0.014438125 0.011816946 7.071068e-011 7.071068e-011 7.071068e-011 7.071068e-011
7062462462.4625 -0.0074218991 -0.0041738381 -0.0066825566 -0.018157231 7.071068e-011 7.071068e-011 7.071068e-011 7.071068e-011
7070870870.8709 0.077498525 0.14006829 0.019422047 -0.0011270788 7.071068e-011 7.071068e-011 7.071068e-011 7.071068e-011
7079279279.2793 0.16876136 0.0080367662 -0.0055092191 0.01844731 7.071068e-011 7.071068e-011 7.071068e-011 7.071068e-011
7087687687.6877 0.03247571 -0.027639929 -0.016327782 -0.011357983 7.071068e-011 7.071068e-011 7.071068e-011 7.071068e-011
7096096096.0961 0.059407052 0.08966016 0.015737586 -0.012238823 7.071068e-011 7.071068e-011 7.071068e-011 7.071068e-011
7104504504.5045 0.1477996 0.010103266 0.006391732 0.018867709 7.071068e-011 7.071068e-011 7.071068e-011 7.071068e-011
7112912912.9129 0.050805941 -0.044300407 -0.020334164 -0.0001501259 7.071068e-011 7.071068e-011 7.071068e-011 7.071068e-011
7121321321.3213 0.034659844 0.031470954 0.0062188562 -0.01952352 7.071068e-011 7.071068e-011 7.071068e-011 7.071068e-011
7129729729.7297 0.088725179 0.014715552 0.016168725 0.011881039 7.071068e-011 7.071068e-011 7.071068e-011 7.071068e-011
7138138138.1381 0.044079367 -0.037676826 -0.016888022 0.011471861 7.071068e-011 7.071068e-011 7.071068e-011 7.071068e-011
7146546546.5465 -0.001053678 0.013232349 -0.0056950785 -0.019765841 7.071068e-011 7.071068e-011 7.071068e-011 7.071068e-011
7154954954.955 0.031007841 0.041769866 0.020427613 0.00091147079 7.071068e-011 7.071068e-011 7.071068e-011 7.071068e-011
7163363363.3634 0.044660777 0.015347272 -0.007618451 0.01875256 7.071068e-011 7.071068e-011 7.071068e-011 7.071068e-011
7171771771.7718 0.0014483468 0.02071923 -0.0154622 -0.013335543 7.071068e-011 7.071068e-011 7.071068e-011 7.071068e-011
7180180180.1802 0.018356018 0.071952671 0.017392561 -0.010199941 7.071068e-011 7.071068e-011 7.071068e-011 7.071068e-011
7188588588.5886 0.067548826 0.056733325 0.0037943982 0.020151062 7.071068e-011 7.071068e-011 7.071068e-011 7.071068e-011
7196996996.997 0.04037293 0.0097687589 -0.020285787 -0.0027162703 7.071068e-011 7.071068e-011 7.071068e-011 7.071068e-011
7205405405.4054 0.011753905 0.067129247 0.0093963705 -0.017694311 7.071068e-011 7.071068e-011 7.071068e-011 7.071068e-011
7213813813.8138 0.083622999 0.067397863 0.013582804 0.014941934 7.071068e-011 7.071068e-011 7.071068e-011 7.071068e-011
7222222222.2222 0.06585893 -0.0056727631 -0.018669631 0.0080307312 7.071068e-011 7.071068e-011 7.071068e-011 7.071068e-011
7230630630.6306 -0.00085887779 0.035315152 -0.0013399353 -0.020149505 7.071068e-011 7.071068e-011 7.071068e-011 7.071068e-011
7239039039.039 0.071021609 0.075176813 0.019615462 0.0058293827 7.071068e-011 7.071068e-011 7.071068e-011 7.071068e-011
7247447447.4474 0.075542301 -0.014125008 -0.011885368 0.016689742 7.071068e-011 7.071068e-011 7.071068e-011 7.071068e-011
7255855855.8559 -0.01647008 0.0065960842 -0.011392493 -0.016789079 7.071068e-011 7.071068e-011 7.071068e-011 7.071068e-011
7264264264.2643 0.034386337 0.084531471 0.019819945 -0.0052382927 7.071068e-011 7.071068e-011 7.071068e-011 7.071068e-011
7272672672.6727 0.074883491 0.00054504449 -0.0015186142 0.020209203 7.071068e-011 7.071068e-011 7.071068e-011 7.071068e-011
7281081081.0811 -0.030188615 0.00077432179 -0.018401725 -0.0083414763 7.071068e-011 7.071068e-011 7.071068e-011 7.071068e-011
7289489489.4895 0.00025033054 0.10753839 0.014487971 -0.014341001 7.071068e-011 7.071068e-011 7.071068e-011 7.071068e-011
7297897897.8979 0.084499277 0.050706625 0.0086086411 0.018545054 7.071068e-011 7.071068e-011 7.071068e-011 7.071068e-011
7306306306.3063 0.0016801885 0.0091130435 -0.020262444 0.0014968517 7.071068e-011 7.071068e-011 7.071068e-011 7.071068e-011
7314714714.7147 0.0036876919 0.11213027 0.0053649014 -0.019971672 7.071068e-011 7.071068e-011 7.071068e-011 7.071068e-011
7323123123.1231 0.11261382 0.076132379 0.01672823 0.011588064 7.071068e-011 7.071068e-011 7.071068e-011 7.071068e-011
7331531531.5315 0.051653348 -0.01238789 -0.017078003 0.01150473 7.071068e-011 7.071068e-011 7.071068e-011 7.071068e-011
7339939939.9399 0.0074709691 0.068861194 -0.0052031232 -0.020235959 7.071068e-011 7.071068e-011 7.071068e-011 7.071068e-011
7348348348.3483 0.1057674 0.063545018 0.020579301 0.0019317289 7.071068e-011 7.071068e-011 7.071068e-011 7.071068e-011
7356756756.7568 0.065884076 -0.036792915 -0.0090969764 0.018467551 7.071068e-011 7.071068e-011 7.071068e-011 7.071068e-011
7365165165.1652 -0.0097676245 0.020697994 -0.014474486 -0.014988289 7.071068e-011 7.071068e-011 7.071068e-011 7.071068e-011
7373573573.5736 0.060902987 0.04968879 0.018741941 -0.0083894935 7.071068e-011 7.071068e-011 7.071068e-011 7.071068e-011
7381981981.982 0.044422161 -0.03481457 0.0010112595 0.020799927 7.071068e-011 7.071068e-011 7.071068e-011 7.071068e-011
7390390390.3904 -0.043168653 0.0089259986 -0.020009732 -0.0061036022 7.071068e-011 7.071068e-011 7.071068e-011 7.071068e-011
7398798798.7988 0.012699299 0.07182093 0.012723314 -0.016420726 7.071068e-011 7.071068e-011 7.071068e-011 7.071068e-011
7407207207.2072 0.028280657 0.0094858389 0.010987757 0.017721774 7.071068e-011 7.071068e-011 7.071068e-011 7.071068e-011
7415615615.6156 -0.041215625 0.035569262 -0.020557264 0.0042896038 7.071068e-011 7.071068e-011 7.071068e-011 7.071068e-011
7424024024.024 0.0070557836 0.10476061 0.0030443573 -0.020705212 7.071068e-011 7.071068e-011 7.071068e-011 7.071068e-011
7432432432.4324 0.054260693 0.054309838 0.018371098 0.01028165 7.071068e-011 7.071068e-011 7.071068e-011 7.071068e-011
7440840840.8408 0.010398133 0.042413305 -0.015905781 0.01380739 7.071068e-011 7.071068e-011 7.071068e-011 7.071068e-011
7449249249.2492 0.029768996 0.086667582 -0.007179745 -0.019570794 7.071068e-011 7.071068e-011 7.071068e-011 7.071068e-011
7457657657.6577 0.078134574 0.04960205 0.020919032 0.0002070545 7.071068e-011 7.071068e-011 7.071068e-011 7.071068e-011
7466066066.0661 0.041856863 0.013485086 -0.007447843 0.019612759 7.071068e-011 7.071068e-011 7.071068e-011 7.071068e-011
7474474474.4745 0.030275861 0.039728478 -0.015668696 -0.01365718 7.071068e-011 7.071068e-011 7.071068e-011 7.071068e-011
7482882882.8829 0.060085602 0.028757317 0.018374085 -0.0096186465 7.071068e-011 7.071068e-011 7.071068e-011 7.071068e-011
7491291291.2913 0.038587894 -0.013036669 0.0025730808 0.020625466 7.071068e-011 7.071068e-011 7.071068e-011 7.071068e-011
7499699699.6997 -0.0028450522 0.0021754284 -0.020053361 -0.0048750243 7.071068e-011 7.071068e-011 7.071068e-011 7.071068e-011
7508108108.1081 0.0027083098 0.031839706 0.011588372 -0.017044263 7.071068e-011 7.071068e-011 7.071068e-011 7.071068e-011
7516516516.5165 0.019787539 0.012349823 0.01178872 0.016738709 7.071068e-011 7.071068e-011 7.071068e-011 7.071068e-011
7524924924.9249 -0.026501657 0.0060820272 -0.019712564 0.0049688122 7.071068e-011 7.071068e-011 7.071068e-011 7.071068e-011
7533333333.3333 -0.029871916 0.066387199 0.0025388694 -0.020160785 7.071068e-011 7.071068e-011 7.071068e-011 7.071068e-011
7541741741.7417 0.02789971 0.068503864 0.017938139 0.009381786 7.071068e-011 7.071068e-011 7.071068e-011 7.071068e-011
7550150150.1502 0.012928589 0.021044038 -0.01502108 0.012976979 7.071068e-011 7.071068e-011 7.071068e-011 7.071068e-011
7558558558.5586 -0.015005215 0.067928471 -0.0067042401 -0.018777557 7.071068e-011 7.071068e-011 7.071068e-011 7.071068e-011
7566966966.967 0.055007324 0.078390904 0.019710176 0.00051662937 7.071068e-011 7.071068e-011 7.071068e-011 7.071068e-011
7575375375.3754 0.054217272 0.0010924776 -0.0078257984 0.018178882 7.071068e-011 7.071068e-011 7.071068e-011 7.071068e-011
7583783783.7838 -0.012249128 0.023552502 -0.014164933 -0.013885314 7.071068e-011 7.071068e-011 7.071068e-011 7.071068e-011
7592192192.1922 0.045502041 0.061072025 0.017736964 -0.0081640454 7.071068e-011 7.071068e-011 7.071068e-011 7.071068e-011
7600600600.6006 0.051862102 -0.024622265 0.00082389871 0.019172916 7.071068e-011 7.071068e-011 7.071068e-011 7.071068e-011
7609009009.009 -0.03798259 -0.010573806 -0.018567698 -0.0064766295 7.071068e-011 7.071068e-011 7.071068e-011 7.071068e-011
7617417417.4174 -0.0051734527 0.057726849 0.012472056 -0.015050858 7.071068e-011 7.071068e-011 7.071068e-011 7.071068e-011
7625825825.8258 0.026140565 -0.0035658095 0.0092436979 0.017168161 7.071068e-011 7.071068e-011 7.071068e-011 7.071068e-011
7634234234.2342 -0.059996352 0.0036295019 -0.019272134 0.0023745678 7.071068e-011 7.071068e-011 7.071068e-011 7.071068e-011
7642642642.6426 -0.027345331 0.09150739 0.0049402481 -0.018620459 7.071068e-011 7.071068e-011 7.071068e-011 7.071068e-011
7651051051.0511 0.038008641 0.0430099 0.015499855 0.01154484 7.071068e-011 7.071068e-011 7.071068e-011 7.071068e-011
7659459459.4595 -0.029870221 0.01760246 -0.016535895 0.010475896 7.071068e-011 7.071068e-011 7.071068e-011 7.071068e-011
7667867867.8679 -0.011672115 0.10269931 -0.0037983756 -0.018833522 7.071068e-011 7.071068e-011 7.071068e-011 7.071068e-011
7676276276.2763 0.07384187 0.058869656 0.018800793 0.0039441525 7.071068e-011 7.071068e-011 7.071068e-011 7.071068e-011
7684684684.6847 0.021455489 -0.0036334759 -0.010645798 0.016357347 7.071068e-011 7.071068e-011 7.071068e-011 7.071068e-011
7693093093.0931 0.00086616148 0.053908855 -0.011293753 -0.015758412 7.071068e-011 7.071068e-011 7.071068e-011 7.071068e-011
7701501501.5015 0.07047008 0.032879718 0.018760838 -0.0047484911 7.071068e-011 7.071068e-011 7.071068e-011 7.071068e-011
7709909909.9099 0.024080422 -0.042358279 -0.0025802939 0.019230383 7.071068e-011 7.071068e-011 7.071068e-011 7.071068e-011
7718318318.3183 -0.033659354 0.010295562 -0.016956532 -0.0094555877 7.071068e-011 7.071068e-011 7.071068e-011 7.071068e-011
7726726726.7267 0.024484113 0.028377425 0.015217231 -0.012040555 7.071068e-011 7.071068e-011 7.071068e-011 7.071068e-011
7735135135.1351 0.0029629716 -0.041601304 0.0058282809 0.01867133 7.071068e-011 7.071068e-011 7.071068e-011 7.071068e-011
7743543543.5435 -0.074986421 -4.8495192e-005 -0.019239876 -0.0014651889 7.071068e-011 7.071068e-011 7.071068e-011 7.071068e-011
7751951951.952 -0.030461304 0.063979506 0.008629133 -0.017424887 7.071068e-011 7.071068e-011 7.071068e-011 7.071068e-011
7760360360.3604 -0.0028349266 0.017922575 0.013060241 0.014473304 7.071068e-011 7.071068e-011 7.071068e-011 7.071068e-011
7768768768.7688 -0.057732757 0.028162912 -0.01834481 0.0067771156 7.071068e-011 7.071068e-011 7.071068e-011 7.071068e-011
7777177177.1772 -0.02792774 0.095334388 0.00056891207 -0.01945583 7.071068e-011 7.071068e-011 7.071068e-011 7.071068e-011
7785585585.5856 0.034230966 0.05857116 0.017888004 0.0076840753 7.071068e-011 7.071068e-011 7.071068e-011 7.071068e-011
7793993993.994 -0.0055642668 0.0272233 -0.013683293 0.01351595 7.071068e-011 7.071068e-011 7.071068e-011 7.071068e-011
7802402402.4024 -0.00058987219 0.075233951 -0.0074863271 -0.018084474 7.071068e-011 7.071068e-011 7.071068e-011 7.071068e-011
7810810810.8108 0.058049396 0.048653182 0.019469634 -0.00046057859 7.071068e-011 7.071068e-011 7.071068e-011 7.071068e-011
7819219219.2192 0.025988629 -0.0060732439 -0.0070288684 0.018061608 7.071068e-011 7.071068e-011 7.071068e-011 7.071068e-011
7827627627.6276 -0.0033347839 0.026395913 -0.01420431 -0.013261074 7.071068e-011 7.071068e-011 7.071068e-011 7.071068e-011
7836036036.036 0.036908399 0.025952389 0.017594574 -0.0082390187 7.071068e-011 7.071068e-011 7.071068e-011 7.071068e-011
7844444444.4444 0.017143017 -0.02353444 0.0011305662 0.019450797 7.071068e-011 7.071068e-011 7.071068e-011 7.071068e-011
7852852852.8529 -0.028606597 0.0024472091 -0.018550506 -0.0062262751 7.071068e-011 7.071068e-011 7.071068e-011 7.071068e-011
7861261261.2613 0.0016805903 0.030041058 0.012548033 -0.014874592 7.071068e-011 7.071068e-011 7.071068e-011 7.071068e-011
7869669669.6697 0.0056195399 -0.0095988587 0.0089387866 0.017268261 7.071068e-011 7.071068e-011 7.071068e-011 7.071068e-011
7878078078.0781 -0.040501423 0.0036926451 -0.019497482 0.0020029261 7.071068e-011 7.071068e-011 7.071068e-011 7.071068e-011
7886486486.4865 -0.024221256 0.046509951 0.005234018 -0.018730614 7.071068e-011 7.071068e-011 7.071068e-011 7.071068e-011
7894894894.8949 0.010434638 0.030635476 0.015196763 0.011745417 7.071068e-011 7.071068e-011 7.071068e-011 7.071068e-011
7903303303.3033 -0.012814249 0.011085257 -0.016781837 0.0095870858 7.071068e-011 7.071068e-011 7.071068e-011 7.071068e-011
7911711711.7117 -0.018403733 0.043517802 -0.0027821488 -0.019161012 7.071068e-011 7.071068e-011 7.071068e-011 7.071068e-011
7920120120.1201 0.023334404 0.045469809 0.018598219 0.0045829564 7.071068e-011 7.071068e-011 7.071068e-011 7.071068e-011
7928528528.5285 0.023616619 0.0014595049 -0.011214687 0.015508096 7.071068e-011 7.071068e-011 7.071068e-011 7.071068e-011
7936936936.9369 -0.0099962121 0.011572043 -0.010057054 -0.016069598 7.071068e-011 7.071068e-011 7.071068e-011 7.071068e-011
7945345345.3453 0.017913338 0.031614322 0.0186777 -0.0031243411 7.071068e-011 7.071068e-011 7.071068e-011 7.071068e-011
